! ListType=Lin
# MHZ S DB R 50
  1.0000000 -39.3066019 176.8622774   0.0353042  -0.0898428 -3000.0000000 -90.0000000 -3000.0000000 -90.0000000
  1.5001924 -39.4215658 175.8823155   0.0353544  -0.1279559 -3000.0000000 -90.0000000 -3000.0000000 -90.0000000
  2.0003848 -39.3050187 174.4157794   0.0350365  -0.1712445 -3000.0000000 -90.0000000 -3000.0000000 -90.0000000
  2.5005771 -39.3949742 174.4235169   0.0359465  -0.2161101 -3000.0000000 -90.0000000 -3000.0000000 -90.0000000
  3.0007695 -39.4650559 172.8254698   0.0348338  -0.2559721 -3000.0000000 -90.0000000 -3000.0000000 -90.0000000
  3.5009619 -39.5837824 172.0257667   0.0348170  -0.2976156 -3000.0000000 -90.0000000 -3000.0000000 -90.0000000
  4.0011543 -39.6085502 170.7220220   0.0349286  -0.3371572 -3000.0000000 -90.0000000 -3000.0000000 -90.0000000
  4.5013467 -39.5482492 170.1859934   0.0349378  -0.3736267 -3000.0000000 -90.0000000 -3000.0000000 -90.0000000
  5.0015391 -39.6742462 168.8531712   0.0347050  -0.4160989 -3000.0000000 -90.0000000 -3000.0000000 -90.0000000
  5.5017314 -39.6501474 167.6869139   0.0353485  -0.4624738 -3000.0000000 -90.0000000 -3000.0000000 -90.0000000
  6.0019238 -39.6207922 167.6039626   0.0345324  -0.4995196 -3000.0000000 -90.0000000 -3000.0000000 -90.0000000
  6.5021162 -39.6892563 167.2074769   0.0344621  -0.5403198 -3000.0000000 -90.0000000 -3000.0000000 -90.0000000
  7.0023086 -39.7675450 166.2583526   0.0346991  -0.5805503 -3000.0000000 -90.0000000 -3000.0000000 -90.0000000
  7.5025010 -39.5978338 166.2490973   0.0346608  -0.6255074 -3000.0000000 -90.0000000 -3000.0000000 -90.0000000
  8.0026933 -39.7783368 163.6086639   0.0345507  -0.6653522 -3000.0000000 -90.0000000 -3000.0000000 -90.0000000
  8.5028857 -39.7762108 164.0973246   0.0343894  -0.7064434 -3000.0000000 -90.0000000 -3000.0000000 -90.0000000
  9.0030781 -39.6254384 163.0567608   0.0344281  -0.7477420 -3000.0000000 -90.0000000 -3000.0000000 -90.0000000
  9.5032705 -39.7609286 162.5898009   0.0337952  -0.7874688 -3000.0000000 -90.0000000 -3000.0000000 -90.0000000
 10.0034629 -39.8625120 161.6649599   0.0336330  -0.8265671 -3000.0000000 -90.0000000 -3000.0000000 -90.0000000
 10.5036553 -39.9504051 160.5124511   0.0339845  -0.8671737 -3000.0000000 -90.0000000 -3000.0000000 -90.0000000
 11.0038476 -39.9002164 159.5950841   0.0337702  -0.9097845 -3000.0000000 -90.0000000 -3000.0000000 -90.0000000
 11.5040400 -39.7605631 159.4851213   0.0335107  -0.9526126 -3000.0000000 -90.0000000 -3000.0000000 -90.0000000
 12.0042324 -39.8814948 159.4087800   0.0339339  -0.9951140 -3000.0000000 -90.0000000 -3000.0000000 -90.0000000
 12.5044248 -39.7407480 158.3556495   0.0334638  -1.0300171 -3000.0000000 -90.0000000 -3000.0000000 -90.0000000
 13.0046172 -39.8527816 157.1249290   0.0336053  -1.0753079 -3000.0000000 -90.0000000 -3000.0000000 -90.0000000
 13.5048095 -39.9270569 156.0476748   0.0344627  -1.1150133 -3000.0000000 -90.0000000 -3000.0000000 -90.0000000
 14.0050019 -39.9308487 156.0779282   0.0336087  -1.1545723 -3000.0000000 -90.0000000 -3000.0000000 -90.0000000
 14.5051943 -39.9281626 154.9901995   0.0328509  -1.1964437 -3000.0000000 -90.0000000 -3000.0000000 -90.0000000
 15.0053867 -39.9110952 154.9780305   0.0338557  -1.2384969 -3000.0000000 -90.0000000 -3000.0000000 -90.0000000
 15.5055791 -39.9604479 153.4399520   0.0330369  -1.2803743 -3000.0000000 -90.0000000 -3000.0000000 -90.0000000
 16.0057715 -39.8620323 152.8136463   0.0328754  -1.3217848 -3000.0000000 -90.0000000 -3000.0000000 -90.0000000
 16.5059638 -39.8581284 153.1227328   0.0333145  -1.3583970 -3000.0000000 -90.0000000 -3000.0000000 -90.0000000
 17.0061562 -39.8321221 151.3226809   0.0323067  -1.3994323 -3000.0000000 -90.0000000 -3000.0000000 -90.0000000
 17.5063486 -39.9023815 150.2348332   0.0331546  -1.4421945 -3000.0000000 -90.0000000 -3000.0000000 -90.0000000
 18.0065410 -39.7194756 150.9550352   0.0331282  -1.4798677 -3000.0000000 -90.0000000 -3000.0000000 -90.0000000
 18.5067334 -40.0063020 149.9582511   0.0333511  -1.5185876 -3000.0000000 -90.0000000 -3000.0000000 -90.0000000
 19.0069257 -39.8484832 148.6491551   0.0336884  -1.5617859 -3000.0000000 -90.0000000 -3000.0000000 -90.0000000
 19.5071181 -39.8050172 147.9844705   0.0333570  -1.6027563 -3000.0000000 -90.0000000 -3000.0000000 -90.0000000
 20.0073105 -39.8251542 147.0610156   0.0339532  -1.6401779 -3000.0000000 -90.0000000 -3000.0000000 -90.0000000
 20.5075029 -39.7833968 146.6740825   0.0341716  -1.6819902 -3000.0000000 -90.0000000 -3000.0000000 -90.0000000
 21.0076953 -39.7513477 145.6518822   0.0329745  -1.7275430 -3000.0000000 -90.0000000 -3000.0000000 -90.0000000
 21.5078876 -39.8628601 145.9007006   0.0317652  -1.7698415 -3000.0000000 -90.0000000 -3000.0000000 -90.0000000
 22.0080800 -39.8643234 144.4655095   0.0332999  -1.8102810 -3000.0000000 -90.0000000 -3000.0000000 -90.0000000
 22.5082724 -39.8150037 143.8336278   0.0335030  -1.8478745 -3000.0000000 -90.0000000 -3000.0000000 -90.0000000
 23.0084648 -39.7722581 143.6319334   0.0328447  -1.8931188 -3000.0000000 -90.0000000 -3000.0000000 -90.0000000
 23.5086572 -39.8164874 141.9202348   0.0324415  -1.9375538 -3000.0000000 -90.0000000 -3000.0000000 -90.0000000
 24.0088496 -39.7894754 142.2050484   0.0329279  -1.9756243 -3000.0000000 -90.0000000 -3000.0000000 -90.0000000
 24.5090419 -39.6662743 140.6208561   0.0322973  -2.0119333 -3000.0000000 -90.0000000 -3000.0000000 -90.0000000
 25.0092343 -39.8030185 140.5727835   0.0327216  -2.0524693 -3000.0000000 -90.0000000 -3000.0000000 -90.0000000
 25.5094267 -39.6575035 139.6986728   0.0333649  -2.0981160 -3000.0000000 -90.0000000 -3000.0000000 -90.0000000
 26.0096191 -39.7256525 138.6253293   0.0330524  -2.1371487 -3000.0000000 -90.0000000 -3000.0000000 -90.0000000
 26.5098115 -39.7321396 138.9143206   0.0339403  -2.1752099 -3000.0000000 -90.0000000 -3000.0000000 -90.0000000
 27.0100038 -39.4630761 136.8433805   0.0335605  -2.2176065 -3000.0000000 -90.0000000 -3000.0000000 -90.0000000
 27.5101962 -39.6229524 137.6221382   0.0332325  -2.2590826 -3000.0000000 -90.0000000 -3000.0000000 -90.0000000
 28.0103886 -39.6246602 136.4198121   0.0334290  -2.3010411 -3000.0000000 -90.0000000 -3000.0000000 -90.0000000
 28.5105810 -39.4814154 135.5092833   0.0333507  -2.3394852 -3000.0000000 -90.0000000 -3000.0000000 -90.0000000
 29.0107734 -39.5982712 134.5767597   0.0326868  -2.3814251 -3000.0000000 -90.0000000 -3000.0000000 -90.0000000
 29.5109658 -39.5638291 134.6512944   0.0341281  -2.4236517 -3000.0000000 -90.0000000 -3000.0000000 -90.0000000
 30.0111581 -39.4692196 133.6541773   0.0338243  -2.4634208 -3000.0000000 -90.0000000 -3000.0000000 -90.0000000
 30.5113505 -39.4091122 132.6284517   0.0328761  -2.5052681 -3000.0000000 -90.0000000 -3000.0000000 -90.0000000
 31.0115429 -39.4770294 132.8778267   0.0338669  -2.5431783 -3000.0000000 -90.0000000 -3000.0000000 -90.0000000
 31.5117353 -39.4107440 132.0795064   0.0336874  -2.5844845 -3000.0000000 -90.0000000 -3000.0000000 -90.0000000
 32.0119277 -39.3832758 131.0401094   0.0333880  -2.6273506 -3000.0000000 -90.0000000 -3000.0000000 -90.0000000
 32.5121200 -39.2871680 130.7220932   0.0336834  -2.6700525 -3000.0000000 -90.0000000 -3000.0000000 -90.0000000
 33.0123124 -39.2825412 130.1668907   0.0336505  -2.7135234 -3000.0000000 -90.0000000 -3000.0000000 -90.0000000
 33.5125048 -39.2414398 129.3594921   0.0329052  -2.7499657 -3000.0000000 -90.0000000 -3000.0000000 -90.0000000
 34.0126972 -39.2631943 128.4886559   0.0331738  -2.7946164 -3000.0000000 -90.0000000 -3000.0000000 -90.0000000
 34.5128896 -39.1348229 128.1104135   0.0331693  -2.8303393 -3000.0000000 -90.0000000 -3000.0000000 -90.0000000
 35.0130820 -39.2050360 126.7891014   0.0329921  -2.8676944 -3000.0000000 -90.0000000 -3000.0000000 -90.0000000
 35.5132743 -39.0982598 126.9497255   0.0333117  -2.9080162 -3000.0000000 -90.0000000 -3000.0000000 -90.0000000
 36.0134667 -39.0023805 126.7807478   0.0333125  -2.9497636 -3000.0000000 -90.0000000 -3000.0000000 -90.0000000
 36.5136591 -38.9908244 126.2379248   0.0332373  -2.9933242 -3000.0000000 -90.0000000 -3000.0000000 -90.0000000
 37.0138515 -38.9282025 125.2062294   0.0332314  -3.0341725 -3000.0000000 -90.0000000 -3000.0000000 -90.0000000
 37.5140439 -38.9888390 123.7527037   0.0332830  -3.0738800 -3000.0000000 -90.0000000 -3000.0000000 -90.0000000
 38.0142362 -38.9117366 123.7485151   0.0334676  -3.1185905 -3000.0000000 -90.0000000 -3000.0000000 -90.0000000
 38.5144286 -38.8747842 123.3821547   0.0337668  -3.1548235 -3000.0000000 -90.0000000 -3000.0000000 -90.0000000
 39.0146210 -38.8952858 122.6669767   0.0333647  -3.1917018 -3000.0000000 -90.0000000 -3000.0000000 -90.0000000
 39.5148134 -38.8976240 121.9908863   0.0331661  -3.2331370 -3000.0000000 -90.0000000 -3000.0000000 -90.0000000
 40.0150058 -38.7031832 121.3172199   0.0330129  -3.2784042 -3000.0000000 -90.0000000 -3000.0000000 -90.0000000
 40.5151982 -38.7408167 120.7435194   0.0333062  -3.3208553 -3000.0000000 -90.0000000 -3000.0000000 -90.0000000
 41.0153905 -38.7550722 120.6295564   0.0327571  -3.3589081 -3000.0000000 -90.0000000 -3000.0000000 -90.0000000
 41.5155829 -38.6201877 119.5714781   0.0335151  -3.4004007 -3000.0000000 -90.0000000 -3000.0000000 -90.0000000
 42.0157753 -38.6414449 118.7527771   0.0328213  -3.4411028 -3000.0000000 -90.0000000 -3000.0000000 -90.0000000
 42.5159677 -38.5939563 118.2041387   0.0331656  -3.4767800 -3000.0000000 -90.0000000 -3000.0000000 -90.0000000
 43.0161601 -38.6178133 117.5278250   0.0335866  -3.5178680 -3000.0000000 -90.0000000 -3000.0000000 -90.0000000
 43.5163524 -38.5821161 116.6432215   0.0334427  -3.5595242 -3000.0000000 -90.0000000 -3000.0000000 -90.0000000
 44.0165448 -38.5086756 116.5146469   0.0338711  -3.6032693 -3000.0000000 -90.0000000 -3000.0000000 -90.0000000
 44.5167372 -38.4130968 115.6751643   0.0345091  -3.6401914 -3000.0000000 -90.0000000 -3000.0000000 -90.0000000
 45.0169296 -38.3064270 115.9743711   0.0334469  -3.6879348 -3000.0000000 -90.0000000 -3000.0000000 -90.0000000
 45.5171220 -38.4042441 114.5479001   0.0337324  -3.7221953 -3000.0000000 -90.0000000 -3000.0000000 -90.0000000
 46.0173144 -38.3181747 114.2514113   0.0339169  -3.7638518 -3000.0000000 -90.0000000 -3000.0000000 -90.0000000
 46.5175067 -38.2536943 113.7445514   0.0336894  -3.7975474 -3000.0000000 -90.0000000 -3000.0000000 -90.0000000
 47.0176991 -38.2060818 113.0497596   0.0347196  -3.8472049 -3000.0000000 -90.0000000 -3000.0000000 -90.0000000
 47.5178915 -38.1182738 113.3163433   0.0335208  -3.8901984 -3000.0000000 -90.0000000 -3000.0000000 -90.0000000
 48.0180839 -38.1208262 112.4994862   0.0335780  -3.9293647 -3000.0000000 -90.0000000 -3000.0000000 -90.0000000
 48.5182763 -38.0361472 111.5284148   0.0334221  -3.9707548 -3000.0000000 -90.0000000 -3000.0000000 -90.0000000
 49.0184686 -38.0798853 110.9214320   0.0338035  -4.0134907 -3000.0000000 -90.0000000 -3000.0000000 -90.0000000
 49.5186610 -37.9740436 110.4740305   0.0326562  -4.0501196 -3000.0000000 -90.0000000 -3000.0000000 -90.0000000
 50.0188534 -37.8390175 109.9440327   0.0334670  -4.0958624 -3000.0000000 -90.0000000 -3000.0000000 -90.0000000
 50.5190458 -37.8689093 109.6142136   0.0337278  -4.1341323 -3000.0000000 -90.0000000 -3000.0000000 -90.0000000
 51.0192382 -37.8700576 109.0676874   0.0338315  -4.1756127 -3000.0000000 -90.0000000 -3000.0000000 -90.0000000
 51.5194306 -37.8414035 108.3673994   0.0339387  -4.2142856 -3000.0000000 -90.0000000 -3000.0000000 -90.0000000
 52.0196229 -37.7642708 107.8300419   0.0334371  -4.2560213 -3000.0000000 -90.0000000 -3000.0000000 -90.0000000
 52.5198153 -37.7135579 107.2232672   0.0336831  -4.2980012 -3000.0000000 -90.0000000 -3000.0000000 -90.0000000
 53.0200077 -37.6394148 106.5435028   0.0344300  -4.3382147 -3000.0000000 -90.0000000 -3000.0000000 -90.0000000
 53.5202001 -37.6827703 106.2736038   0.0346161  -4.3736607 -3000.0000000 -90.0000000 -3000.0000000 -90.0000000
 54.0203925 -37.5821483 105.5744816   0.0338603  -4.4111281 -3000.0000000 -90.0000000 -3000.0000000 -90.0000000
 54.5205848 -37.5288494 105.0059011   0.0334808  -4.4553312 -3000.0000000 -90.0000000 -3000.0000000 -90.0000000
 55.0207772 -37.4996140 104.6417519   0.0332797  -4.5010743 -3000.0000000 -90.0000000 -3000.0000000 -90.0000000
 55.5209696 -37.4145754 103.9179739   0.0330781  -4.5391722 -3000.0000000 -90.0000000 -3000.0000000 -90.0000000
 56.0211620 -37.2901727 103.8311228   0.0339770  -4.5801808 -3000.0000000 -90.0000000 -3000.0000000 -90.0000000
 56.5213544 -37.2660833 103.3083719   0.0331211  -4.6222947 -3000.0000000 -90.0000000 -3000.0000000 -90.0000000
 57.0215467 -37.2102002 102.0372135   0.0335734  -4.6612565 -3000.0000000 -90.0000000 -3000.0000000 -90.0000000
 57.5217391 -37.1913945 101.7694158   0.0338424  -4.7000117 -3000.0000000 -90.0000000 -3000.0000000 -90.0000000
 58.0219315 -37.1103901 102.0590829   0.0338168  -4.7436717 -3000.0000000 -90.0000000 -3000.0000000 -90.0000000
 58.5221239 -37.1066820 100.9640166   0.0344886  -4.7816634 -3000.0000000 -90.0000000 -3000.0000000 -90.0000000
 59.0223163 -37.1665758 100.7165379   0.0345199  -4.8241656 -3000.0000000 -90.0000000 -3000.0000000 -90.0000000
 59.5225087 -37.0523817 100.0561950   0.0346863  -4.8701655 -3000.0000000 -90.0000000 -3000.0000000 -90.0000000
 60.0227010 -36.9601872  99.1373004   0.0330692  -4.9035710 -3000.0000000 -90.0000000 -3000.0000000 -90.0000000
 60.5228934 -36.9379984  98.7946333   0.0342022  -4.9439314 -3000.0000000 -90.0000000 -3000.0000000 -90.0000000
 61.0230858 -36.8642500  98.7353075   0.0351169  -4.9860609 -3000.0000000 -90.0000000 -3000.0000000 -90.0000000
 61.5232782 -36.8453588  98.5229147   0.0341753  -5.0241904 -3000.0000000 -90.0000000 -3000.0000000 -90.0000000
 62.0234706 -36.7622485  97.4845658   0.0345467  -5.0634324 -3000.0000000 -90.0000000 -3000.0000000 -90.0000000
 62.5236629 -36.7121561  97.2616334   0.0340602  -5.1112452 -3000.0000000 -90.0000000 -3000.0000000 -90.0000000
 63.0238553 -36.7129330  96.7345803   0.0331411  -5.1459600 -3000.0000000 -90.0000000 -3000.0000000 -90.0000000
 63.5240477 -36.5832793  96.6274586   0.0348472  -5.1881677 -3000.0000000 -90.0000000 -3000.0000000 -90.0000000
 64.0242401 -36.5444213  95.7145114   0.0345131  -5.2264463 -3000.0000000 -90.0000000 -3000.0000000 -90.0000000
 64.5244325 -36.4361686  95.3053511   0.0336143  -5.2704624 -3000.0000000 -90.0000000 -3000.0000000 -90.0000000
 65.0246249 -36.4682848  94.9578234   0.0329747  -5.3084041 -3000.0000000 -90.0000000 -3000.0000000 -90.0000000
 65.5248172 -36.3608809  94.5974918   0.0333559  -5.3489977 -3000.0000000 -90.0000000 -3000.0000000 -90.0000000
 66.0250096 -36.3776913  93.9929187   0.0340862  -5.3900373 -3000.0000000 -90.0000000 -3000.0000000 -90.0000000
 66.5252020 -36.2846274  93.4773558   0.0333272  -5.4330656 -3000.0000000 -90.0000000 -3000.0000000 -90.0000000
 67.0253944 -36.2384572  93.2108245   0.0335211  -5.4699486 -3000.0000000 -90.0000000 -3000.0000000 -90.0000000
 67.5255868 -36.0851216  92.3839394   0.0345474  -5.5126077 -3000.0000000 -90.0000000 -3000.0000000 -90.0000000
 68.0257791 -36.1000038  92.0743966   0.0338983  -5.5535443 -3000.0000000 -90.0000000 -3000.0000000 -90.0000000
 68.5259715 -36.0891808  92.1594988   0.0344225  -5.5896502 -3000.0000000 -90.0000000 -3000.0000000 -90.0000000
 69.0261639 -36.0666158  91.3797391   0.0346497  -5.6361751 -3000.0000000 -90.0000000 -3000.0000000 -90.0000000
 69.5263563 -36.0097913  91.2538857   0.0338272  -5.6710189 -3000.0000000 -90.0000000 -3000.0000000 -90.0000000
 70.0265487 -35.9323524  89.9765427   0.0346712  -5.7127017 -3000.0000000 -90.0000000 -3000.0000000 -90.0000000
 70.5267411 -35.8642953  90.2582982   0.0332381  -5.7554459 -3000.0000000 -90.0000000 -3000.0000000 -90.0000000
 71.0269334 -35.7829904  89.8442827   0.0339501  -5.7966613 -3000.0000000 -90.0000000 -3000.0000000 -90.0000000
 71.5271258 -35.7400504  89.2412766   0.0344418  -5.8353161 -3000.0000000 -90.0000000 -3000.0000000 -90.0000000
 72.0273182 -35.7229586  88.5730782   0.0334052  -5.8801939 -3000.0000000 -90.0000000 -3000.0000000 -90.0000000
 72.5275106 -35.6244025  88.3146155   0.0313137  -5.9254371 -3000.0000000 -90.0000000 -3000.0000000 -90.0000000
 73.0277030 -35.6442206  88.3106995   0.0314789  -5.9711409 -3000.0000000 -90.0000000 -3000.0000000 -90.0000000
 73.5278953 -35.5309913  87.4542311   0.0317524  -6.0122898 -3000.0000000 -90.0000000 -3000.0000000 -90.0000000
 74.0280877 -35.4683858  87.2850145   0.0324270  -6.0474814 -3000.0000000 -90.0000000 -3000.0000000 -90.0000000
 74.5282801 -35.4927091  87.1858316   0.0310145  -6.0879780 -3000.0000000 -90.0000000 -3000.0000000 -90.0000000
 75.0284725 -35.4230234  86.6060755   0.0306065  -6.1328167 -3000.0000000 -90.0000000 -3000.0000000 -90.0000000
 75.5286649 -35.3895216  85.9012978   0.0309563  -6.1729038 -3000.0000000 -90.0000000 -3000.0000000 -90.0000000
 76.0288573 -35.2911921  86.2902761   0.0329120  -6.2143800 -3000.0000000 -90.0000000 -3000.0000000 -90.0000000
 76.5290496 -35.2654957  85.1883711   0.0312353  -6.2510546 -3000.0000000 -90.0000000 -3000.0000000 -90.0000000
 77.0292420 -35.1449521  85.3033965   0.0339457  -6.2944300 -3000.0000000 -90.0000000 -3000.0000000 -90.0000000
 77.5294344 -35.0463285  84.9500900   0.0313970  -6.3250922 -3000.0000000 -90.0000000 -3000.0000000 -90.0000000
 78.0296268 -35.0304119  84.4560598   0.0324542  -6.3673081 -3000.0000000 -90.0000000 -3000.0000000 -90.0000000
 78.5298192 -34.9947076  83.8812616   0.0305577  -6.4052093 -3000.0000000 -90.0000000 -3000.0000000 -90.0000000
 79.0300115 -34.9477441  83.4269178   0.0317960  -6.4464025 -3000.0000000 -90.0000000 -3000.0000000 -90.0000000
 79.5302039 -34.9115352  83.0082216   0.0311432  -6.4929867 -3000.0000000 -90.0000000 -3000.0000000 -90.0000000
 80.0303963 -34.8345851  82.5893245   0.0316706  -6.5335932 -3000.0000000 -90.0000000 -3000.0000000 -90.0000000
 80.5305887 -34.7623939  82.3320946   0.0307064  -6.5646969 -3000.0000000 -90.0000000 -3000.0000000 -90.0000000
 81.0307811 -34.7619564  81.9331512   0.0310638  -6.6113720 -3000.0000000 -90.0000000 -3000.0000000 -90.0000000
 81.5309735 -34.6527415  81.3694376   0.0325405  -6.6565280 -3000.0000000 -90.0000000 -3000.0000000 -90.0000000
 82.0311658 -34.6699595  81.3994377   0.0326171  -6.6991190 -3000.0000000 -90.0000000 -3000.0000000 -90.0000000
 82.5313582 -34.5736634  80.9054400   0.0319275  -6.7384767 -3000.0000000 -90.0000000 -3000.0000000 -90.0000000
 83.0315506 -34.5215433  80.6798756   0.0327456  -6.7776203 -3000.0000000 -90.0000000 -3000.0000000 -90.0000000
 83.5317430 -34.4790652  80.2038986   0.0324080  -6.8092416 -3000.0000000 -90.0000000 -3000.0000000 -90.0000000
 84.0319354 -34.4775391  79.5768116   0.0319675  -6.8635837 -3000.0000000 -90.0000000 -3000.0000000 -90.0000000
 84.5321277 -34.3391956  79.7448311   0.0309958  -6.8833232 -3000.0000000 -90.0000000 -3000.0000000 -90.0000000
 85.0323201 -34.3016757  78.9163795   0.0328240  -6.9330523 -3000.0000000 -90.0000000 -3000.0000000 -90.0000000
 85.5325125 -34.2321640  78.9482906   0.0311223  -6.9843192 -3000.0000000 -90.0000000 -3000.0000000 -90.0000000
 86.0327049 -34.2261403  78.5797488   0.0314804  -7.0319312 -3000.0000000 -90.0000000 -3000.0000000 -90.0000000
 86.5328973 -34.1702933  77.9600612   0.0315547  -7.0586606 -3000.0000000 -90.0000000 -3000.0000000 -90.0000000
 87.0330896 -34.0666090  78.1137929   0.0328700  -7.1050908 -3000.0000000 -90.0000000 -3000.0000000 -90.0000000
 87.5332820 -34.0051306  77.6325678   0.0313869  -7.1293443 -3000.0000000 -90.0000000 -3000.0000000 -90.0000000
 88.0334744 -33.9414663  76.8680758   0.0310993  -7.1796246 -3000.0000000 -90.0000000 -3000.0000000 -90.0000000
 88.5336668 -33.9414607  76.9399230   0.0304439  -7.2173507 -3000.0000000 -90.0000000 -3000.0000000 -90.0000000
