! ListType=Lin
! Comment=Monoprice_5-2400MHz_2-Way_Splitter_2ndOUT_Open
# MHZ S DB R 50
  0.1000000  -1.8607508 139.0413347  -6.4590206  51.9454461  -6.4605022  51.9150530  -1.8613001 139.0520873
  0.2000167  -4.4950492 112.0445633  -3.3787779  28.8086923  -3.3811081  28.7932549  -4.4949154 112.0593782
  0.3000333  -6.3539690  95.2939791  -2.7971909  17.6405210  -2.7999682  17.6286590  -6.3528194  95.2985308
  0.4000500  -7.6695450  83.4305330  -2.7288673  11.4931540  -2.7324828  11.4817882  -7.6698881  83.4216238
  0.5000667  -8.5794436  74.6489443  -2.7777758   7.8341688  -2.7805668   7.8294225  -8.5802800  74.6564915
  0.6000833  -9.1967165  67.8806458  -2.8423260   5.4518574  -2.8454120   5.4495173  -9.1948364  67.8834185
  0.7001000  -9.5988160  62.4935555  -2.9007968   3.7564859  -2.9043241   3.7540857  -9.5984320  62.5071183
  0.8001167  -9.8540067  58.3025807  -2.9616550   2.4936786  -2.9648187   2.4906071  -9.8545778  58.2946318
  0.9001334  -9.9951230  54.6316922  -3.0102932   1.4488290  -3.0135267   1.4422745  -9.9962568  54.6300693
  1.0001500 -10.0709116  51.5372185  -3.0568013   0.5870081  -3.0598059   0.5833816 -10.0704323  51.5390044
  1.1001667 -10.0966213  48.8650484  -3.1026964  -0.1474304  -3.1057296  -0.1482698 -10.0997862  48.8624814
  1.2001834 -10.1043058  46.6578507  -3.1519060  -0.7862005  -3.1551618  -0.7857095 -10.1072694  46.6725322
  1.3002000 -10.0590139  44.4738096  -3.1907024  -1.3587954  -3.1941048  -1.3633000 -10.0592403  44.4920960
  1.4002167 -10.0017085  42.6366791  -3.2343063  -1.8634769  -3.2373337  -1.8678592 -10.0061623  42.6089903
  1.5002334  -9.9455699  40.8121276  -3.2767731  -2.3258253  -3.2802788  -2.3290709  -9.9486965  40.8310127
  1.6002500  -9.8832172  39.3903707  -3.3239815  -2.7153400  -3.3276109  -2.7177177  -9.8802057  39.3916666
  1.7002667  -9.8061860  37.9074121  -3.3681235  -3.0795881  -3.3716102  -3.0813224  -9.8100973  37.9191361
  1.8002834  -9.7347409  36.5956652  -3.4118672  -3.4087496  -3.4154600  -3.4116515  -9.7373037  36.5876660
  1.9003001  -9.6626469  35.2718862  -3.4565857  -3.7052518  -3.4589693  -3.7051950  -9.6626494  35.2995610
  2.0003167  -9.5866964  34.0992754  -3.4994687  -3.9759433  -3.5027088  -3.9768635  -9.5852596  34.1050125
  2.1003334  -9.5158167  32.9886472  -3.5432721  -4.2145522  -3.5467897  -4.2145405  -9.5186349  32.9920975
  2.2003501  -9.4457599  31.9212566  -3.5861554  -4.4235695  -3.5892164  -4.4266530  -9.4462028  31.9455982
  2.3003667  -9.3779937  30.9149586  -3.6276706  -4.6132772  -3.6309896  -4.6144829  -9.3819690  30.9250085
  2.4003834  -9.3152942  29.9969591  -3.6703334  -4.7819834  -3.6737967  -4.7858506  -9.3173601  30.0026452
  2.5004001  -9.2573048  29.0825867  -3.7120994  -4.9407925  -3.7162645  -4.9392730  -9.2591203  29.0671167
  2.6004167  -9.1915325  28.2183051  -3.7495853  -5.0663669  -3.7535037  -5.0668475  -9.1957594  28.2273873
  2.7004334  -9.1302972  27.3568902  -3.7896794  -5.1870382  -3.7933652  -5.1861793  -9.1319803  27.3762847
  2.8004501  -9.0745572  26.5975954  -3.8276322  -5.2824711  -3.8316793  -5.2824345  -9.0756028  26.6219941
  2.9004667  -9.0244845  25.7972682  -3.8655039  -5.3648146  -3.8690804  -5.3608771  -9.0253591  25.8024644
  3.0004834  -8.9717818  25.0803618  -3.9011572  -5.4351575  -3.9052675  -5.4315089  -8.9720036  25.0979884
  3.1005001  -8.9250147  24.3650545  -3.9359792  -5.4976167  -3.9398082  -5.4962103  -8.9265165  24.3856066
  3.2005168  -8.8760100  23.6634176  -3.9702695  -5.5440236  -3.9744889  -5.5410905  -8.8761471  23.6538097
  3.3005334  -8.8386371  23.0246695  -4.0023988  -5.5957124  -4.0056370  -5.5940715  -8.8405952  23.0278560
  3.4005501  -8.7951833  22.3804401  -4.0347404  -5.6338617  -4.0380783  -5.6339504  -8.7942560  22.4085344
  3.5005668  -8.7490337  21.7588338  -4.0679172  -5.6566633  -4.0716384  -5.6576905  -8.7527815  21.7570270
  3.6005834  -8.7171967  21.1888486  -4.0974715  -5.6711387  -4.1010499  -5.6663549  -8.7192048  21.1729771
  3.7006001  -8.6798569  20.6207808  -4.1264013  -5.6773347  -4.1297338  -5.6751319  -8.6833322  20.6006720
  3.8006168  -8.6413412  20.0647421  -4.1541177  -5.6870693  -4.1576285  -5.6851281  -8.6437963  20.0499004
  3.9006334  -8.6119102  19.4965441  -4.1821848  -5.6855583  -4.1857650  -5.6810939  -8.6118402  19.5072544
  4.0006501  -8.5766140  18.9864110  -4.2091212  -5.6783617  -4.2125630  -5.6746835  -8.5782774  18.9867427
  4.1006668  -8.5456123  18.4738207  -4.2343869  -5.6657628  -4.2389802  -5.6636215  -8.5485651  18.4677819
  4.2006834  -8.5214513  17.9686307  -4.2580903  -5.6447921  -4.2621589  -5.6398316  -8.5226167  17.9903433
  4.3007001  -8.4913945  17.5176117  -4.2824529  -5.6321747  -4.2862763  -5.6283724  -8.4917666  17.5056621
  4.4007168  -8.4623225  17.0316705  -4.3056313  -5.6084343  -4.3092290  -5.6073869  -8.4648691  17.0408042
  4.5007335  -8.4403267  16.5874122  -4.3267262  -5.5809691  -4.3312163  -5.5792891  -8.4398140  16.5803429
  4.6007501  -8.4127528  16.1242530  -4.3476124  -5.5570980  -4.3519747  -5.5561855  -8.4164095  16.1264199
  4.7007668  -8.3909520  15.6866141  -4.3693640  -5.5269951  -4.3736461  -5.5268247  -8.3937026  15.6947826
  4.8007835  -8.3681110  15.2790426  -4.3900753  -5.4993475  -4.3936549  -5.4983775  -8.3710142  15.2925288
  4.9008001  -8.3479966  14.8765677  -4.4084525  -5.4612285  -4.4126236  -5.4591482  -8.3481310  14.8643468
  5.0008168  -8.3262297  14.4742607  -4.4265396  -5.4329557  -4.4307841  -5.4345736  -8.3281465  14.4811165
  5.1008335  -8.3046231  14.0560427  -4.4450307  -5.4044790  -4.4491374  -5.4012716  -8.3055144  14.0598057
  5.2008501  -8.2863053  13.6976511  -4.4637822  -5.3687693  -4.4678124  -5.3694241  -8.2891522  13.7023066
  5.3008668  -8.2683956  13.3584817  -4.4794570  -5.3171901  -4.4831911  -5.3138716  -8.2694715  13.3360341
  5.4008835  -8.2491423  12.9726316  -4.4945696  -5.2801149  -4.4984421  -5.2774847  -8.2482797  12.9932685
  5.5009002  -8.2273317  12.6306214  -4.5101946  -5.2427310  -4.5145020  -5.2392519  -8.2265926  12.6326704
  5.6009168  -8.2112545  12.2778171  -4.5242168  -5.2124219  -4.5284325  -5.2053499  -8.2141989  12.2924203
  5.7009335  -8.1941135  11.9657180  -4.5390476  -5.1880690  -4.5431936  -5.1852273  -8.1963010  11.9504399
  5.8009502  -8.1736889  11.6388880  -4.5561593  -5.1619722  -4.5602792  -5.1576807  -8.1773233  11.6590724
  5.9009668  -8.1511269  11.2872163  -4.5735183  -5.1138247  -4.5773046  -5.1097605  -8.1533962  11.2790176
  6.0009835  -8.1376048  10.9178957  -4.5887688  -5.0487553  -4.5926966  -5.0467561  -8.1394361  10.9261455
  6.1010002  -8.1217405  10.6107136  -4.6012800  -5.0043024  -4.6046363  -4.9997454  -8.1243753  10.6109697
  6.2010168  -8.1103784  10.2655741  -4.6148167  -4.9536933  -4.6186985  -4.9518377  -8.1094156  10.2705155
  6.3010335  -8.0978217   9.9662716  -4.6267210  -4.9027319  -4.6306262  -4.8988685  -8.0980430   9.9601475
  6.4010502  -8.0808622   9.6643883  -4.6387999  -4.8585351  -4.6425477  -4.8541310  -8.0833648   9.6732569
  6.5010668  -8.0628171   9.3638478  -4.6510716  -4.8138149  -4.6550760  -4.8109444  -8.0659567   9.3540354
  6.6010835  -8.0541828   9.0730236  -4.6617589  -4.7679527  -4.6654611  -4.7632025  -8.0574204   9.0675774
  6.7011002  -8.0419410   8.7719622  -4.6729685  -4.7239984  -4.6771329  -4.7210166  -8.0439910   8.7555219
  6.8011169  -8.0299883   8.4845770  -4.6832723  -4.6730241  -4.6869910  -4.6714559  -8.0318711   8.4841682
  6.9011335  -8.0181877   8.1914340  -4.6942900  -4.6234766  -4.6984040  -4.6266375  -8.0179120   8.1922570
  7.0011502  -8.0058472   7.9049271  -4.7045873  -4.5732578  -4.7084637  -4.5709508  -8.0071951   7.8978192
  7.1011669  -7.9969769   7.6458046  -4.7133234  -4.5305530  -4.7172294  -4.5267491  -7.9982053   7.6339448
  7.2011835  -7.9837779   7.3343682  -4.7227377  -4.4818946  -4.7265792  -4.4765731  -7.9852830   7.3455269
  7.3012002  -7.9771290   7.0675082  -4.7309644  -4.4384434  -4.7345314  -4.4332806  -7.9785393   7.0771590
  7.4012169  -7.9652873   6.7990861  -4.7409390  -4.3932598  -4.7447372  -4.3908652  -7.9678888   6.8057324
  7.5012335  -7.9578403   6.5663022  -4.7498565  -4.3556881  -4.7533845  -4.3517943  -7.9574380   6.5601771
  7.6012502  -7.9472927   6.3019202  -4.7583172  -4.3017852  -4.7624707  -4.2961957  -7.9492992   6.2925430
  7.7012669  -7.9423903   6.0402341  -4.7666175  -4.2548758  -4.7699274  -4.2507481  -7.9429370   6.0371796
  7.8012835  -7.9270798   5.8167832  -4.7747051  -4.2208190  -4.7786139  -4.2151743  -7.9302622   5.8133021
  7.9013002  -7.9177229   5.5551647  -4.7846641  -4.1775672  -4.7885637  -4.1749924  -7.9177079   5.5609992
  8.0013169  -7.9067780   5.2965700  -4.7935062  -4.1171959  -4.7972014  -4.1158246  -7.9096088   5.3136199
  8.1013336  -7.8967038   5.0437582  -4.7999849  -4.0637644  -4.8039868  -4.0589337  -7.9001865   5.0575246
  8.2013502  -7.8923094   4.8034037  -4.8064300  -4.0114896  -4.8103527  -4.0101605  -7.8940640   4.8100257
  8.3013669  -7.8812687   4.5592746  -4.8125898  -3.9707860  -4.8169332  -3.9678338  -7.8838298   4.5661899
  8.4013836  -7.8770401   4.3277065  -4.8185084  -3.9251919  -4.8227697  -3.9189727  -7.8783013   4.3339325
  8.5014002  -7.8686857   4.1086929  -4.8248329  -3.8826906  -4.8290873  -3.8836649  -7.8707534   4.1130882
  8.6014169  -7.8622033   3.8506533  -4.8313031  -3.8430154  -4.8354895  -3.8413260  -7.8641413   3.8639652
  8.7014336  -7.8560383   3.6142185  -4.8386250  -3.7976077  -4.8426063  -3.7942358  -7.8598429   3.6172760
  8.8014502  -7.8489573   3.3935494  -4.8447457  -3.7471164  -4.8485031  -3.7469423  -7.8506660   3.4038830
  8.9014669  -7.8455773   3.1926979  -4.8502996  -3.7034725  -4.8540969  -3.7008127  -7.8465335   3.2018383
  9.0014836  -7.8347790   2.9851025  -4.8550143  -3.6556871  -4.8590841  -3.6537862  -7.8369374   2.9775404
  9.1015003  -7.8290164   2.7535892  -4.8593752  -3.6166768  -4.8640085  -3.6129735  -7.8309915   2.7579958
  9.2015169  -7.8238536   2.5352079  -4.8649384  -3.5841250  -4.8686095  -3.5778052  -7.8248797   2.5482707
  9.3015336  -7.8134955   2.3196051  -4.8710756  -3.5424411  -4.8746146  -3.5386634  -7.8165486   2.3258349
  9.4015503  -7.8132016   2.1173880  -4.8761370  -3.5002283  -4.8796760  -3.4982333  -7.8147870   2.1214555
  9.5015669  -7.8055720   1.9124714  -4.8817516  -3.4677853  -4.8858276  -3.4652173  -7.8034291   1.9138814
  9.6015836  -7.7930811   1.6975878  -4.8896446  -3.4303432  -4.8926544  -3.4277775  -7.7928908   1.7065525
  9.7016003  -7.7853896   1.4757584  -4.8971169  -3.3724479  -4.9003263  -3.3704754  -7.7855108   1.4659561
  9.8016169  -7.7803576   1.2046600  -4.9013808  -3.3050902  -4.9042946  -3.3055333  -7.7802155   1.2109472
  9.9016336  -7.7754256   1.0338403  -4.9053722  -3.2640586  -4.9090776  -3.2601855  -7.7787072   1.0181563
 10.0016503  -7.7749958   0.7923007  -4.9089116  -3.2125004  -4.9126354  -3.2073551  -7.7783256   0.8125530
 10.1016669  -7.7749933   0.6081024  -4.9122783  -3.1682033  -4.9162108  -3.1646179  -7.7743987   0.6151889
 10.2016836  -7.7695455   0.4234134  -4.9147824  -3.1167012  -4.9186146  -3.1136993  -7.7696524   0.4198684
 10.3017003  -7.7655705   0.2232852  -4.9169210  -3.0737923  -4.9210022  -3.0751645  -7.7655888   0.2152704
 10.4017170  -7.7624581   0.0199142  -4.9202449  -3.0351890  -4.9239770  -3.0307461  -7.7599470   0.0232022
 10.5017336  -7.7555273  -0.1616398  -4.9237183  -2.9952289  -4.9276148  -2.9919734  -7.7578171  -0.1753092
 10.6017503  -7.7514087  -0.3629267  -4.9266479  -2.9553799  -4.9303744  -2.9522123  -7.7528106  -0.3657654
 10.7017670  -7.7489864  -0.5697584  -4.9293558  -2.9148567  -4.9333683  -2.9129396  -7.7485432  -0.5450939
 10.8017836  -7.7436701  -0.7335784  -4.9328462  -2.8737966  -4.9363756  -2.8720664  -7.7431113  -0.7510698
 10.9018003  -7.7414067  -0.9102825  -4.9353851  -2.8366667  -4.9388522  -2.8352145  -7.7409003  -0.9111228
 11.0018170  -7.7373672  -1.1257301  -4.9379016  -2.7989529  -4.9415184  -2.7949584  -7.7393921  -1.1239488
 11.1018336  -7.7342605  -1.3055574  -4.9409156  -2.7630883  -4.9440995  -2.7624353  -7.7322630  -1.3124886
 11.2018503  -7.7328914  -1.4846026  -4.9426118  -2.7287392  -4.9457570  -2.7244534  -7.7328331  -1.5000318
 11.3018670  -7.7269760  -1.6692296  -4.9457025  -2.6912671  -4.9490459  -2.6891046  -7.7280744  -1.6721515
 11.4018836  -7.7264242  -1.8547652  -4.9477032  -2.6526512  -4.9512438  -2.6516792  -7.7280392  -1.8492701
 11.5019003  -7.7206937  -2.0267214  -4.9503519  -2.6126586  -4.9538592  -2.6090743  -7.7215327  -2.0297379
 11.6019170  -7.7158813  -2.2250822  -4.9520995  -2.5776085  -4.9557712  -2.5725606  -7.7182143  -2.2011957
 11.7019337  -7.7141916  -2.4072374  -4.9533879  -2.5415111  -4.9564577  -2.5391576  -7.7153269  -2.4008959
 11.8019503  -7.7112698  -2.5690269  -4.9558213  -2.5114621  -4.9593971  -2.5056103  -7.7135756  -2.5773674
 11.9019670  -7.7109508  -2.7490371  -4.9579977  -2.4747503  -4.9615143  -2.4722425  -7.7112431  -2.7513813
 12.0019837  -7.7041054  -2.9162055  -4.9602939  -2.4366308  -4.9640339  -2.4329087  -7.7057059  -2.9284924
 12.1020003  -7.7037336  -3.1006201  -4.9620214  -2.4030063  -4.9655129  -2.4007087  -7.7032395  -3.1055347
 12.2020170  -7.7014158  -3.2776476  -4.9638068  -2.3734805  -4.9677102  -2.3703354  -7.7010457  -3.2673500
 12.3020337  -7.6960280  -3.4477574  -4.9660913  -2.3347947  -4.9698779  -2.3329079  -7.6952990  -3.4424702
 12.4020503  -7.6915379  -3.5989605  -4.9675503  -2.3019708  -4.9704355  -2.3016782  -7.6948523  -3.5969607
 12.5020670  -7.6904670  -3.7856519  -4.9696416  -2.2715962  -4.9727817  -2.2667126  -7.6905047  -3.7797567
 12.6020837  -7.6874749  -3.9464733  -4.9703041  -2.2398362  -4.9736411  -2.2363302  -7.6901117  -3.9426928
 12.7021004  -7.6875146  -4.1205807  -4.9723881  -2.2124102  -4.9756671  -2.2079984  -7.6872164  -4.1183392
 12.8021170  -7.6845482  -4.2737225  -4.9746972  -2.1736461  -4.9780581  -2.1694367  -7.6851023  -4.2699912
 12.9021337  -7.6807981  -4.4515945  -4.9763386  -2.1456529  -4.9800236  -2.1374728  -7.6826466  -4.4535282
 13.0021504  -7.6800457  -4.6176022  -4.9773582  -2.1014508  -4.9805638  -2.1003501  -7.6788295  -4.6313476
 13.1021670  -7.6746814  -4.7901272  -4.9793428  -2.0752822  -4.9827384  -2.0733329  -7.6782017  -4.7852097
 13.2021837  -7.6749910  -4.9589636  -4.9797566  -2.0401336  -4.9832292  -2.0399162  -7.6766792  -4.9345882
 13.3022004  -7.6746643  -5.1099240  -4.9814248  -2.0123079  -4.9850045  -2.0087376  -7.6744654  -5.1026921
 13.4022170  -7.6706260  -5.2794208  -4.9817873  -1.9708598  -4.9858566  -1.9697597  -7.6728602  -5.2799508
 13.5022337  -7.6684089  -5.4502312  -4.9830429  -1.9382848  -4.9864501  -1.9384524  -7.6667688  -5.4383571
 13.6022504  -7.6662800  -5.5932311  -4.9837665  -1.9156413  -4.9873188  -1.9126625  -7.6689058  -5.5815474
 13.7022670  -7.6652886  -5.7596708  -4.9848585  -1.8844549  -4.9883653  -1.8807201  -7.6673382  -5.7589149
 13.8022837  -7.6661179  -5.9158675  -4.9855965  -1.8540860  -4.9890737  -1.8513256  -7.6642421  -5.8980321
 13.9023004  -7.6635357  -6.0676650  -4.9856610  -1.8280304  -4.9898337  -1.8254398  -7.6630250  -6.0561329
 14.0023171  -7.6605779  -6.2214089  -4.9871831  -1.7975301  -4.9912840  -1.7960420  -7.6615954  -6.2287893
 14.1023337  -7.6565255  -6.3904456  -4.9881233  -1.7684147  -4.9915934  -1.7633691  -7.6602246  -6.3821971
 14.2023504  -7.6583629  -6.5464070  -4.9878812  -1.7363037  -4.9915257  -1.7349872  -7.6588448  -6.5371983
 14.3023671  -7.6563602  -6.6901766  -4.9893175  -1.7071051  -4.9929932  -1.7050781  -7.6570125  -6.6896751
 14.4023837  -7.6531885  -6.8469533  -4.9902805  -1.6833792  -4.9937243  -1.6790659  -7.6546672  -6.8490486
 14.5024004  -7.6484876  -6.9841411  -4.9910939  -1.6550756  -4.9945025  -1.6514996  -7.6502840  -6.9914611
 14.6024171  -7.6512172  -7.1638048  -4.9909337  -1.6261713  -4.9941082  -1.6248644  -7.6515483  -7.1528090
 14.7024337  -7.6487101  -7.3015010  -4.9912706  -1.5982595  -4.9945902  -1.5948730  -7.6477354  -7.3017249
 14.8024504  -7.6467588  -7.4489652  -4.9924965  -1.5723184  -4.9954737  -1.5681003  -7.6495710  -7.4508817
 14.9024671  -7.6441411  -7.6051647  -4.9933480  -1.5392525  -4.9969793  -1.5382827  -7.6452822  -7.6023995
 15.0024837  -7.6459100  -7.7666945  -4.9930060  -1.5179574  -4.9965162  -1.5161572  -7.6457811  -7.7550933
 15.1025004  -7.6434253  -7.9144008  -4.9936465  -1.4867935  -4.9970298  -1.4860286  -7.6450309  -7.9053003
 15.2025171  -7.6420713  -8.0463848  -4.9945921  -1.4653386  -4.9974524  -1.4625603  -7.6431380  -8.0487056
 15.3025338  -7.6433704  -8.2079709  -4.9942906  -1.4320868  -4.9979761  -1.4289468  -7.6423614  -8.2049320
 15.4025504  -7.6406597  -8.3440684  -4.9942189  -1.4127067  -4.9975117  -1.4135601  -7.6401837  -8.3468364
 15.5025671  -7.6387082  -8.5082511  -4.9950646  -1.3853036  -4.9979398  -1.3818090  -7.6401570  -8.4963806
 15.6025838  -7.6378841  -8.6330790  -4.9949415  -1.3568586  -4.9985164  -1.3513002  -7.6364709  -8.6329637
 15.7026004  -7.6365361  -8.7793149  -4.9951220  -1.3311396  -4.9984465  -1.3278382  -7.6364286  -8.7630139
 15.8026171  -7.6327636  -8.9282671  -4.9953262  -1.3070275  -4.9993008  -1.3034571  -7.6329604  -8.9259081
 15.9026338  -7.6332840  -9.0829135  -4.9952701  -1.2809793  -4.9984379  -1.2784126  -7.6327313  -9.0841674
 16.0026504  -7.6318128  -9.2108648  -4.9962218  -1.2565131  -4.9988828  -1.2564156  -7.6337030  -9.1972065
 16.1026671  -7.6289221  -9.3815003  -4.9961849  -1.2282071  -4.9995007  -1.2254946  -7.6299568  -9.3624668
 16.2026838  -7.6284521  -9.4958131  -4.9963207  -1.2076439  -4.9996396  -1.2065869  -7.6297757  -9.4951776
 16.3027005  -7.6312900  -9.6475293  -4.9950926  -1.1801713  -4.9983217  -1.1774969  -7.6334153  -9.6634146
 16.4027171  -7.6284331  -9.7735415  -4.9947112  -1.1540514  -4.9986557  -1.1540924  -7.6300838  -9.7753793
 16.5027338  -7.6252739  -9.9345141  -4.9948751  -1.1289375  -4.9981513  -1.1284525  -7.6274549  -9.9389872
 16.6027505  -7.6277275 -10.0660941  -4.9948913  -1.1068651  -4.9984788  -1.1019290  -7.6283575 -10.0738770
 16.7027671  -7.6266296 -10.2120412  -4.9941093  -1.0824391  -4.9975853  -1.0797432  -7.6279681 -10.2199868
 16.8027838  -7.6226313 -10.3540890  -4.9948497  -1.0600354  -4.9973962  -1.0559174  -7.6242802 -10.3379513
 16.9028005  -7.6224501 -10.4758042  -4.9941572  -1.0357786  -4.9981954  -1.0341866  -7.6242337 -10.4788105
 17.0028171  -7.6194205 -10.6262832  -4.9943128  -1.0163712  -4.9979689  -1.0147232  -7.6235358 -10.6187052
 17.1028338  -7.6195309 -10.7534336  -4.9943534  -0.9942767  -4.9978053  -0.9885820  -7.6195700 -10.7586737
 17.2028505  -7.6192963 -10.8934478  -4.9934378  -0.9663955  -4.9967402  -0.9668669  -7.6213227 -10.9154831
 17.3028671  -7.6190515 -11.0496159  -4.9937022  -0.9479865  -4.9968488  -0.9460214  -7.6220941 -11.0445236
 17.4028838  -7.6195172 -11.1784340  -4.9934088  -0.9236381  -4.9963812  -0.9205408  -7.6211561 -11.1757852
 17.5029005  -7.6176934 -11.3076865  -4.9934170  -0.9000287  -4.9964060  -0.8988454  -7.6169186 -11.3043806
 17.6029172  -7.6164379 -11.4489064  -4.9921040  -0.8802701  -4.9956517  -0.8797354  -7.6191683 -11.4593172
 17.7029338  -7.6140830 -11.5800243  -4.9924454  -0.8536612  -4.9956345  -0.8542330  -7.6167300 -11.5868459
 17.8029505  -7.6114915 -11.7025649  -4.9915655  -0.8364111  -4.9946778  -0.8347795  -7.6154445 -11.7001503
 17.9029672  -7.6148502 -11.8465620  -4.9917418  -0.8181011  -4.9946236  -0.8135260  -7.6135624 -11.8390392
 18.0029838  -7.6139349 -11.9796121  -4.9901832  -0.7971468  -4.9938617  -0.7928668  -7.6158404 -11.9788543
 18.1030005  -7.6150091 -12.1136209  -4.9904405  -0.7788739  -4.9937394  -0.7770242  -7.6146270 -12.1190863
 18.2030172  -7.6127166 -12.2510552  -4.9898327  -0.7533181  -4.9926473  -0.7518441  -7.6159201 -12.2465075
