! ListType=Lin
! Comment=Monoprice_5-2400MHz_2-Way_Splitter_2ndOUT-Open_0.001-to-1MHz
# MHZ S DB R 50
  0.0010000  -0.7016146 -49.0691317  -8.6640144  54.0303757  -8.6661187  54.0223109  -0.7018218 -49.0365857
  0.0019775  -1.6319684 -81.5057181  -5.3239373  30.9959004  -5.3634036  31.1142423  -1.5580044 -80.9616791
  0.0029550  -2.0390081 -102.1378513  -4.2824822  15.2007851  -4.2961532  15.3159677  -2.0968467 -102.2633823
  0.0039326  -2.2636166 -115.0206789  -4.0384443   3.7150756  -4.0386761   3.6956973  -2.2526224 -115.0907043
  0.0049101  -2.1822266 -124.1658136  -4.0907959  -5.3091735  -4.0786848  -5.2564957  -2.2178856 -124.2507314
  0.0058876  -2.0916301 -130.6599723  -4.2850601 -12.1802304  -4.3072454 -12.2271765  -2.1077606 -130.7153230
  0.0068651  -1.9367704 -135.7014867  -4.5725300 -18.6714689  -4.5712340 -18.6718621  -1.9330840 -135.6998953
  0.0078426  -1.7506965 -139.7286726  -4.9161523 -24.1039766  -4.9215470 -24.0658641  -1.7306729 -139.7284052
  0.0088201  -1.5623940 -143.5660093  -5.3621427 -29.0690336  -5.3614053 -29.1849925  -1.5812991 -143.5675857
  0.0097977  -1.3906066 -146.6030435  -5.7914768 -33.3712040  -5.7892771 -33.3253459  -1.3862672 -146.5890010
  0.0107752  -1.2350630 -149.4787911  -6.2740692 -37.3057150  -6.2672535 -37.2957373  -1.2277466 -149.4558386
  0.0117527  -1.0893836 -151.8592980  -6.7708117 -40.8730843  -6.7781730 -40.8595328  -1.0860458 -151.8783904
  0.0127302  -0.9594648 -154.3489196  -7.3268206 -44.1542020  -7.3275519 -44.1436490  -0.9642913 -154.3524949
  0.0137077  -0.8284372 -156.5110458  -7.8804250 -47.1854723  -7.8811454 -47.1915189  -0.8391875 -156.5181558
  0.0146852  -0.7338742 -158.5729952  -8.4629966 -49.9407328  -8.4636803 -49.9340761  -0.7423338 -158.5560437
  0.0156628  -0.6528323 -160.3712224  -9.0581560 -52.4441246  -9.0585955 -52.4451178  -0.6523239 -160.3862413
  0.0166403  -0.5686820 -162.1224993  -9.6792311 -54.7970313  -9.6805206 -54.7874808  -0.5745205 -162.1653703
  0.0176178  -0.5012302 -163.8544917 -10.3220921 -56.9314433 -10.3241424 -56.9195816  -0.5066071 -163.8344339
  0.0185953  -0.4440583 -165.4257863 -10.9840680 -58.9525110 -10.9850297 -58.9633247  -0.4449671 -165.4349888
  0.0195728  -0.3840529 -167.0006750 -11.6805239 -60.8252103 -11.6824990 -60.8258359  -0.3912097 -167.0065127
  0.0205503  -0.3457800 -168.4496178 -12.4051797 -62.4898701 -12.4055206 -62.4866884  -0.3504419 -168.4091097
  0.0215279  -0.3080489 -169.7175963 -13.1586081 -64.0184324 -13.1593640 -64.0188051  -0.3098133 -169.7366345
  0.0225054  -0.2748975 -171.0212449 -13.9549429 -65.4151643 -13.9577027 -65.4078738  -0.2778779 -171.0035615
  0.0234829  -0.2527554 -172.2811545 -14.8011111 -66.6814077 -14.8028755 -66.6783438  -0.2523016 -172.2756563
  0.0244604  -0.2246912 -173.4897910 -15.6952708 -67.8141910 -15.6984466 -67.7967868  -0.2250906 -173.4868605
  0.0254379  -0.2028465 -174.6324350 -16.6598751 -68.7691875 -16.6634232 -68.7581446  -0.2037929 -174.6298383
  0.0264154  -0.1869114 -175.7409342 -17.7014303 -69.5310541 -17.7029507 -69.5239697  -0.1868101 -175.7423505
  0.0273930  -0.1737206 -176.8057922 -18.8457771 -70.0748287 -18.8486279 -70.0723602  -0.1742108 -176.8148579
  0.0283705  -0.1626618 -177.8550981 -20.1077588 -70.3576119 -20.1114803 -70.3435843  -0.1630587 -177.8533409
  0.0293480  -0.1552138 -178.8535720 -21.5318956 -70.2491060 -21.5352493 -70.2303514  -0.1550472 -178.8614865
  0.0303255  -0.1522589 -179.8468073 -23.1698533 -69.5506283 -23.1751955 -69.5392287  -0.1513752 -179.8421279
  0.0313030  -0.1476838 179.2253453 -25.1031355 -67.9426416 -25.1095942 -67.9072484  -0.1465460 179.2208309
  0.0322805  -0.1441176 178.3008405 -27.4657571 -64.6593736 -27.4792725 -64.5941249  -0.1468042 178.2979281
  0.0332581  -0.1452483 177.4132094 -30.4813007 -57.7607251 -30.4938529 -57.6480804  -0.1457222 177.4116850
  0.0342356  -0.1466682 176.5319112 -34.3608288 -41.3969151 -34.3741182 -41.2456286  -0.1488958 176.5227593
  0.0352131  -0.1519963 175.6868141 -37.5631626  -1.3268422 -37.5636830  -1.0289277  -0.1523404 175.6763757
  0.0361906  -0.1555111 174.8597153 -35.2968220  43.0421402 -35.2630830  43.1796897  -0.1566130 174.8553726
  0.0371681  -0.1610105 174.0409711 -31.5276979  62.2770663 -31.5055350  62.3423451  -0.1609502 174.0431085
  0.0381457  -0.1662662 173.2567031 -28.6071343  70.3863288 -28.5855760  70.3687085  -0.1659678 173.2525287
  0.0391232  -0.1750517 172.4916379 -26.3839481  74.2898480 -26.3698230  74.3012648  -0.1754796 172.4781538
  0.0401007  -0.1867612 171.7304540 -24.6275753  76.3943935 -24.6148924  76.3719175  -0.1859803 171.7198530
  0.0410782  -0.1960676 170.9911487 -23.1813357  77.5489169 -23.1702953  77.5413169  -0.1948112 170.9853315
  0.0420557  -0.2077814 170.2481421 -21.9640726  78.1442526 -21.9575631  78.1341849  -0.2102015 170.2465541
  0.0430332  -0.2203031 169.5422651 -20.9139735  78.4065149 -20.9076722  78.4033632  -0.2213418 169.5251605
  0.0440108  -0.2334839 168.8132425 -19.9945430  78.4564971 -19.9877472  78.4470129  -0.2342688 168.8091397
  0.0449883  -0.2469662 168.1394751 -19.1801882  78.3505828 -19.1731931  78.3336086  -0.2479527 168.1282438
  0.0459658  -0.2619233 167.4711342 -18.4489331  78.1534214 -18.4435954  78.1372541  -0.2633773 167.4563475
  0.0469433  -0.2746516 166.8073054 -17.7887788  77.8834868 -17.7827075  77.8589894  -0.2758292 166.7939215
  0.0479208  -0.2925388 166.1345192 -17.1855719  77.5175963 -17.1804455  77.5076686  -0.2931091 166.1270538
  0.0488983  -0.3077339 165.4928431 -16.6318013  77.1499049 -16.6265022  77.1348290  -0.3085850 165.4810033
  0.0498759  -0.3252468 164.8586135 -16.1211498  76.7297162 -16.1161412  76.7122323  -0.3253057 164.8555909
  0.0508534  -0.3408206 164.2280732 -15.6488238  76.2868323 -15.6431498  76.2746769  -0.3420391 164.2177628
  0.0518309  -0.3601474 163.6190932 -15.2048297  75.8338833 -15.2017309  75.8303834  -0.3574483 163.6042471
  0.0528084  -0.3796966 162.9924092 -14.7971033  75.3657077 -14.7916533  75.3616804  -0.3787742 162.9866442
  0.0537859  -0.3973128 162.3949120 -14.4091455  74.8928103 -14.4058214  74.8806637  -0.3977396 162.3872734
  0.0547634  -0.4169479 161.8036058 -14.0476199  74.4196823 -14.0429523  74.4015708  -0.4184748 161.8054988
  0.0557410  -0.4381109 161.2256829 -13.7051475  73.9266510 -13.7012113  73.9155721  -0.4371534 161.2193889
  0.0567185  -0.4570328 160.6596775 -13.3822298  73.4520962 -13.3773319  73.4348154  -0.4578115 160.6359466
  0.0576960  -0.4800858 160.0759784 -13.0746460  72.9467659 -13.0709488  72.9415936  -0.4814792 160.0625810
  0.0586735  -0.4986809 159.5146374 -12.7828746  72.4608008 -12.7790808  72.4502174  -0.4987543 159.5053337
  0.0596510  -0.5215562 158.9750079 -12.5046927  71.9690268 -12.5022641  71.9514981  -0.5222590 158.9522446
  0.0606285  -0.5421639 158.4242879 -12.2402178  71.4984392 -12.2365466  71.4818730  -0.5426172 158.4116920
  0.0616061  -0.5640504 157.8759445 -11.9867936  70.9913252 -11.9845366  70.9797375  -0.5647273 157.8520232
  0.0625836  -0.5860824 157.3400603 -11.7465038  70.5191140 -11.7433534  70.5029236  -0.5860365 157.3293192
  0.0635611  -0.6061001 156.8139749 -11.5164389  70.0316691 -11.5121077  70.0234070  -0.6090550 156.7980956
  0.0645386  -0.6337537 156.2832887 -11.2953134  69.5460171 -11.2924586  69.5296166  -0.6334908 156.2748374
  0.0655161  -0.6553796 155.7718830 -11.0831801  69.0800005 -11.0800107  69.0610161  -0.6555856 155.7541235
  0.0664936  -0.6764117 155.2686265 -10.8787081  68.6134377 -10.8764018  68.5929506  -0.6796021 155.2498945
  0.0674712  -0.7005482 154.7550249 -10.6830723  68.1337166 -10.6798657  68.1256378  -0.7000191 154.7436762
  0.0684487  -0.7187783 154.2542764 -10.4927376  67.6691703 -10.4896961  67.6626548  -0.7232104 154.2391877
  0.0694262  -0.7481708 153.7452053 -10.3103405  67.2102731 -10.3082832  67.1939419  -0.7502765 153.7344139
  0.0704037  -0.7751473 153.2759817 -10.1347654  66.7411988 -10.1329963  66.7276903  -0.7758338 153.2555721
  0.0713812  -0.7957486 152.7828682  -9.9652970  66.2992614  -9.9632578  66.2867818  -0.7979876 152.7715465
  0.0723587  -0.8190415 152.2978890  -9.8003187  65.8521692  -9.7978922  65.8365996  -0.8193660 152.2746397
  0.0733363  -0.8456258 151.8180315  -9.6427597  65.3922109  -9.6409856  65.3763334  -0.8473481 151.8093487
  0.0743138  -0.8725158 151.3612645  -9.4914374  64.9527881  -9.4886288  64.9311011  -0.8742560 151.3473961
  0.0752913  -0.8953431 150.8805772  -9.3437531  64.5069691  -9.3407601  64.4968581  -0.8968031 150.8758298
  0.0762688  -0.9199912 150.4187528  -9.1988750  64.0754622  -9.1967457  64.0597186  -0.9222832 150.4215574
  0.0772463  -0.9455356 149.9478128  -9.0589698  63.6394969  -9.0566527  63.6235206  -0.9459788 149.9428688
  0.0782239  -0.9721358 149.5052736  -8.9250653  63.2210300  -8.9229741  63.2076976  -0.9729277 149.4859814
  0.0792014  -0.9946050 149.0554318  -8.7926881  62.8074817  -8.7904188  62.7856123  -0.9947519 149.0396560
  0.0801789  -1.0221246 148.6166139  -8.6654508  62.3710592  -8.6643203  62.3580928  -1.0245122 148.6129853
  0.0811564  -1.0476286 148.1677424  -8.5419237  61.9488837  -8.5406332  61.9320535  -1.0483723 148.1471261
  0.0821339  -1.0736953 147.7280818  -8.4210126  61.5347763  -8.4177026  61.5248132  -1.0747871 147.7101965
  0.0831114  -1.1002476 147.3094228  -8.3040563  61.1423346  -8.3020306  61.1280471  -1.1001593 147.2942333
  0.0840890  -1.1247932 146.8629532  -8.1898294  60.7286390  -8.1880826  60.7189926  -1.1266773 146.8694783
  0.0850665  -1.1521147 146.4424391  -8.0809799  60.3208525  -8.0788731  60.3040387  -1.1552444 146.4194720
  0.0860440  -1.1771424 146.0184855  -7.9749651  59.9235237  -7.9731763  59.9026720  -1.1774806 146.0080903
  0.0870215  -1.2032110 145.6174702  -7.8698997  59.5430999  -7.8676137  59.5282175  -1.2035328 145.5935900
  0.0879990  -1.2298909 145.2021421  -7.7643829  59.1612036  -7.7631747  59.1456476  -1.2304140 145.1754771
  0.0889765  -1.2572532 144.7734110  -7.6668982  58.7559207  -7.6651966  58.7346617  -1.2594856 144.7518447
  0.0899541  -1.2809777 144.3654701  -7.5714538  58.3670860  -7.5692603  58.3517864  -1.2843782 144.3540446
  0.0909316  -1.3104566 143.9641954  -7.4761105  57.9986467  -7.4744640  57.9838782  -1.3115226 143.9645010
  0.0919091  -1.3368543 143.5564889  -7.3840728  57.6154309  -7.3834598  57.5996259  -1.3382005 143.5496023
  0.0928866  -1.3638258 143.1766446  -7.2949388  57.2380248  -7.2929639  57.2209827  -1.3639566 143.1587337
  0.0938641  -1.3892826 142.7821265  -7.2061881  56.8755488  -7.2053875  56.8691694  -1.3914949 142.7656421
  0.0948416  -1.4159436 142.3900301  -7.1219238  56.5113945  -7.1199146  56.4940389  -1.4160033 142.3755156
  0.0958192  -1.4433781 141.9850389  -7.0383093  56.1431283  -7.0363211  56.1251718  -1.4464075 141.9996515
  0.0967967  -1.4692847 141.6019973  -6.9549856  55.7752445  -6.9537403  55.7610016  -1.4718559 141.6008721
  0.0977742  -1.4974028 141.2244547  -6.8772399  55.4206939  -6.8754506  55.4016746  -1.4977911 141.2041249
  0.0987517  -1.5222624 140.8350141  -6.7967555  55.0594427  -6.7942095  55.0456615  -1.5256290 140.8302958
  0.0997292  -1.5528743 140.4879277  -6.7216332  54.7034062  -6.7210036  54.6913722  -1.5525323 140.4702759
  0.1007067  -1.5775257 140.0937989  -6.6451029  54.3589937  -6.6447689  54.3473599  -1.5786488 140.0743347
  0.1016843  -1.6078285 139.7262236  -6.5750380  54.0179014  -6.5737571  53.9985445  -1.6082790 139.7043552
  0.1026618  -1.6331946 139.3491827  -6.5031928  53.6760205  -6.5018281  53.6559663  -1.6343663 139.3397130
  0.1036393  -1.6547847 138.9983820  -6.4339198  53.3326494  -6.4321968  53.3182236  -1.6581141 138.9895729
  0.1046168  -1.6842206 138.6309019  -6.3642350  52.9955202  -6.3631992  52.9803405  -1.6868391 138.6331454
  0.1055943  -1.7130448 138.2793936  -6.2986794  52.6655034  -6.2970083  52.6507560  -1.7159723 138.2435105
  0.1065718  -1.7391322 137.9361885  -6.2355161  52.3336893  -6.2332546  52.3129434  -1.7409481 137.9061789
  0.1075494  -1.7658031 137.5635211  -6.1693662  52.0010945  -6.1694468  51.9841457  -1.7682243 137.5497711
  0.1085269  -1.7920766 137.2234014  -6.1064022  51.6797718  -6.1058020  51.6661864  -1.7944122 137.2002861
  0.1095044  -1.8212005 136.8529176  -6.0469035  51.3600868  -6.0451652  51.3435314  -1.8234452 136.8520861
  0.1104819  -1.8475125 136.4981132  -5.9860641  51.0361888  -5.9845636  51.0174560  -1.8482504 136.4916060
  0.1114594  -1.8746830 136.1945233  -5.9299100  50.7316939  -5.9280609  50.7142936  -1.8749099 136.1762068
  0.1124370  -1.9025348 135.8362536  -5.8703953  50.3942461  -5.8691687  50.3837991  -1.9053802 135.8258799
  0.1134145  -1.9240718 135.4877113  -5.8141109  50.1050457  -5.8111902  50.0871138  -1.9273212 135.4717312
  0.1143920  -1.9552189 135.1510963  -5.7569111  49.7794781  -5.7567411  49.7673268  -1.9553427 135.1373828
  0.1153695  -1.9812502 134.8252598  -5.7047218  49.4897781  -5.7040008  49.4700944  -1.9830587 134.8179278
  0.1163470  -2.0075827 134.4733537  -5.6503697  49.1686164  -5.6496687  49.1580517  -2.0103646 134.4498655
  0.1173245  -2.0329126 134.1573868  -5.5972735  48.8791827  -5.5957397  48.8628965  -2.0354280 134.1369172
  0.1183021  -2.0608507 133.8422640  -5.5484952  48.5864603  -5.5470014  48.5683430  -2.0632919 133.8305093
  0.1192796  -2.0880770 133.5214445  -5.4993394  48.2798117  -5.4990982  48.2613717  -2.0917174 133.4995367
  0.1202571  -2.1161257 133.1848213  -5.4502943  47.9771621  -5.4502050  47.9698656  -2.1198338 133.1786599
  0.1212346  -2.1450386 132.8715650  -5.4018521  47.6906537  -5.4004517  47.6741610  -2.1465326 132.8703092
  0.1222121  -2.1705875 132.5506868  -5.3537166  47.4042096  -5.3535357  47.3829319  -2.1707061 132.5228186
  0.1231896  -2.1961025 132.2106140  -5.3069231  47.1314737  -5.3074976  47.1143440  -2.1977921 132.2061419
  0.1241672  -2.2230408 131.9107269  -5.2630326  46.8377771  -5.2628394  46.8300417  -2.2241254 131.9020674
  0.1251447  -2.2498774 131.6053387  -5.2176104  46.5499581  -5.2166585  46.5367163  -2.2519936 131.5880951
  0.1261222  -2.2760324 131.2939669  -5.1759275  46.2735050  -5.1752469  46.2565729  -2.2785047 131.2891458
  0.1270997  -2.2992704 130.9864443  -5.1311764  46.0041961  -5.1303778  45.9972993  -2.3027998 130.9741007
  0.1280772  -2.3286877 130.6694305  -5.0894196  45.7189466  -5.0891341  45.7038051  -2.3319097 130.6633745
  0.1290547  -2.3534921 130.3639615  -5.0477757  45.4490556  -5.0470307  45.4295760  -2.3564334 130.3629648
  0.1300323  -2.3800258 130.0648774  -5.0096388  45.1766380  -5.0078019  45.1581547  -2.3823311 130.0621733
  0.1310098  -2.4033364 129.7753314  -4.9686110  44.9068457  -4.9667337  44.8955829  -2.4069567 129.7500793
  0.1319873  -2.4338373 129.4827923  -4.9294795  44.6415525  -4.9297071  44.6304740  -2.4377168 129.4643819
  0.1329648  -2.4602195 129.1749384  -4.8916591  44.3728074  -4.8906215  44.3619427  -2.4623245 129.1689073
  0.1339423  -2.4864068 128.8854508  -4.8546238  44.1158048  -4.8531186  44.1010389  -2.4873739 128.8730290
  0.1349198  -2.5147953 128.5927678  -4.8183231  43.8503430  -4.8174515  43.8373236  -2.5178071 128.5668028
  0.1358974  -2.5383133 128.2981848  -4.7811864  43.6018196  -4.7805990  43.5868798  -2.5395875 128.2825285
  0.1368749  -2.5652292 128.0164228  -4.7458459  43.3526219  -4.7446938  43.3378575  -2.5687522 127.9901116
  0.1378524  -2.5896849 127.7167965  -4.7088806  43.0909442  -4.7087322  43.0837638  -2.5926723 127.7038665
  0.1388299  -2.6189246 127.4073336  -4.6734268  42.8171274  -4.6724326  42.8074874  -2.6215187 127.3896360
  0.1398074  -2.6406801 127.1384439  -4.6414469  42.5873158  -4.6403310  42.5709039  -2.6431517 127.1268895
  0.1407849  -2.6680691 126.8629837  -4.6091228  42.3347547  -4.6080159  42.3252204  -2.6712104 126.8594296
  0.1417625  -2.6964676 126.5678229  -4.5760230  42.0808281  -4.5746367  42.0695788  -2.6971818 126.5588146
  0.1427400  -2.7182951 126.3072478  -4.5424538  41.8485885  -4.5417561  41.8352172  -2.7235107 126.2947924
  0.1437175  -2.7453809 126.0175112  -4.5104830  41.6008131  -4.5103131  41.5882888  -2.7477718 126.0056838
  0.1446950  -2.7718893 125.7453264  -4.4801955  41.3724321  -4.4786837  41.3522522  -2.7742960 125.7254565
  0.1456725  -2.8001052 125.4581918  -4.4510251  41.1180199  -4.4510267  41.1055168  -2.8032540 125.4526176
  0.1466500  -2.8245831 125.1893266  -4.4204985  40.8820152  -4.4198860  40.8701639  -2.8250630 125.1619696
  0.1476276  -2.8442623 124.9259573  -4.3915926  40.6539808  -4.3903979  40.6397945  -2.8461103 124.9296898
  0.1486051  -2.8747482 124.6239098  -4.3621831  40.4124081  -4.3608573  40.4018757  -2.8752404 124.6228290
  0.1495826  -2.9000095 124.3832084  -4.3346087  40.1893662  -4.3339698  40.1738582  -2.9031767 124.3692099
  0.1505601  -2.9253155 124.0979335  -4.3054238  39.9544008  -4.3053242  39.9406081  -2.9262140 124.1028127
  0.1515376  -2.9492038 123.8463766  -4.2790538  39.7256783  -4.2787692  39.7113211  -2.9527904 123.8452743
  0.1525152  -2.9749878 123.5719103  -4.2515630  39.5049150  -4.2506190  39.4923120  -2.9776020 123.5763100
  0.1534927  -3.0009179 123.3119333  -4.2232249  39.2806890  -4.2236448  39.2685194  -3.0057613 123.3024618
  0.1544702  -3.0254300 123.0419951  -4.1977913  39.0517020  -4.1982991  39.0377478  -3.0239507 123.0356550
  0.1554477  -3.0528304 122.7962946  -4.1727612  38.8326545  -4.1723844  38.8174937  -3.0530220 122.7837622
  0.1564252  -3.0729021 122.5419467  -4.1480543  38.6255291  -4.1475303  38.6089287  -3.0752331 122.5291079
  0.1574027  -3.1004110 122.2682644  -4.1223197  38.3926838  -4.1222657  38.3799841  -3.1029997 122.2499751
  0.1583803  -3.1266801 122.0184443  -4.0973078  38.1877430  -4.0971992  38.1739835  -3.1289700 122.0100726
  0.1593578  -3.1515583 121.7694976  -4.0743253  37.9637881  -4.0736743  37.9464671  -3.1534842 121.7614001
  0.1603353  -3.1743834 121.5110185  -4.0507767  37.7536028  -4.0502348  37.7418733  -3.1777300 121.5180006
  0.1613128  -3.2003030 121.2593831  -4.0273686  37.5474071  -4.0263501  37.5364809  -3.2027055 121.2539346
  0.1622903  -3.2176282 120.9925446  -4.0022100  37.3401639  -4.0022733  37.3268983  -3.2222164 120.9890942
  0.1632678  -3.2486155 120.7566904  -3.9806067  37.1252604  -3.9812823  37.1107902  -3.2512648 120.7544219
  0.1642454  -3.2730046 120.5177162  -3.9589829  36.9159659  -3.9583393  36.9004574  -3.2758132 120.4874317
  0.1652229  -3.2982491 120.2796844  -3.9383544  36.7223340  -3.9375987  36.7052788  -3.2995410 120.2687825
  0.1662004  -3.3211176 120.0324701  -3.9162731  36.5206204  -3.9155978  36.5029532  -3.3220863 120.0317286
  0.1671779  -3.3474828 119.7685727  -3.8956334  36.3046007  -3.8951729  36.2925169  -3.3482869 119.7629665
  0.1681554  -3.3694621 119.5373630  -3.8729273  36.1073943  -3.8722413  36.0877832  -3.3712676 119.5071815
  0.1691329  -3.3960945 119.2817298  -3.8537093  35.8961842  -3.8535545  35.8827384  -3.3989856 119.2659303
  0.1701105  -3.4158904 119.0692662  -3.8326961  35.7135313  -3.8328399  35.6950915  -3.4183281 119.0411906
  0.1710880  -3.4391900 118.8096065  -3.8117024  35.5163388  -3.8121349  35.5028283  -3.4404493 118.7971170
  0.1720655  -3.4676371 118.5999677  -3.7941549  35.3304777  -3.7938669  35.3070513  -3.4679245 118.5828181
  0.1730430  -3.4923808 118.3086433  -3.7731316  35.1207840  -3.7732265  35.1089006  -3.4951120 118.2950870
  0.1740205  -3.5132724 118.0768558  -3.7546831  34.9179459  -3.7548804  34.9062724  -3.5158017 118.0669094
  0.1749980  -3.5373203 117.8432691  -3.7356200  34.7373047  -3.7356507  34.7234955  -3.5385955 117.8349878
  0.1759756  -3.5594844 117.6400023  -3.7178728  34.5551584  -3.7170033  34.5388461  -3.5649882 117.6268400
  0.1769531  -3.5850366 117.3921804  -3.7005541  34.3671844  -3.7000381  34.3530088  -3.5861229 117.3930214
