! ListType=Lin
! Comment=Monoprice_5-2400MHz_2-Way_Splitter_2ndOUT-50ohmLoad_0.001-to-1MHz
# MHZ S DB R 50
  0.0010000  -1.0424402 -64.8304899  -9.4757737  47.2421739  -9.4812464  47.2487647  -1.0436877 -64.8359287
  0.0019775  -1.9652321 -99.7238925  -6.8703842  25.2858688  -6.9421520  24.7037920  -2.0316340 -100.6456149
  0.0029550  -2.4493966 -119.6576194  -6.2048797  10.8367093  -6.2782384  11.3780532  -2.4146384 -120.1971772
  0.0039326  -2.5658634 -131.2050716  -6.2012302   1.9745104  -6.1911874   1.9689384  -2.5555885 -131.0928268
  0.0049101  -2.5305518 -138.4267399  -6.2839576  -5.2595037  -6.2951314  -5.0727789  -2.5426879 -138.4416181
  0.0058876  -2.4473873 -143.0790262  -6.4608799 -10.2523491  -6.4581012 -10.3799527  -2.4185762 -143.1270785
  0.0068651  -2.3054752 -146.7631297  -6.6680791 -15.4728774  -6.6783618 -15.4936335  -2.3108762 -146.7450901
  0.0078426  -2.1276187 -149.4890449  -6.8893077 -19.8518533  -6.9276395 -19.8912873  -2.1502238 -149.5518030
  0.0088201  -2.0135887 -151.7870410  -7.2569944 -23.8106000  -7.2601410 -23.7352782  -2.0020404 -151.7406100
  0.0097977  -1.8257792 -153.8494250  -7.5716888 -27.3452554  -7.5760406 -27.4231170  -1.8229714 -153.8743733
  0.0107752  -1.6623769 -155.6297998  -7.9186176 -30.6446472  -7.9335794 -30.8017793  -1.6649265 -155.7850786
  0.0117527  -1.5253824 -157.1929631  -8.3174375 -33.9463885  -8.3013467 -33.9638210  -1.5099455 -157.0199822
  0.0127302  -1.3715759 -158.8409438  -8.7339737 -36.9250548  -8.7326644 -36.9216496  -1.3731002 -158.8445536
  0.0137077  -1.2112977 -160.3209826  -9.1659885 -39.7925686  -9.1663367 -39.8058536  -1.2187555 -160.2685547
  0.0146852  -1.0944988 -161.7571031  -9.6385289 -42.4409287  -9.6355127 -42.4432573  -1.0984108 -161.7318100
  0.0156628  -0.9826300 -163.0615748 -10.1244744 -44.9349299 -10.1222419 -44.9282665  -0.9846228 -163.0461713
  0.0166403  -0.8762381 -164.4057650 -10.6430096 -47.3493350 -10.6423233 -47.3382956  -0.8778004 -164.4016419
  0.0176178  -0.7763978 -165.7131550 -11.1963567 -49.5897637 -11.1906030 -49.5743345  -0.7823977 -165.7007678
  0.0185953  -0.6803922 -166.9649542 -11.7700813 -51.7419314 -11.7654022 -51.7324367  -0.6830338 -166.9100216
  0.0195728  -0.5901214 -168.2426156 -12.3848585 -53.8124906 -12.3773067 -53.7798814  -0.5883486 -168.2045601
  0.0205503  -0.5261687 -169.4533666 -13.0388322 -55.6526101 -13.0291208 -55.6410194  -0.5289473 -169.3824160
  0.0215279  -0.4677155 -170.5504513 -13.7228656 -57.4201606 -13.7123615 -57.4028980  -0.4673267 -170.5178576
  0.0225054  -0.4140754 -171.6897958 -14.4611588 -59.0701535 -14.4466822 -59.0523363  -0.4154737 -171.6854705
  0.0234829  -0.3653273 -172.8055139 -15.2522993 -60.5776063 -15.2315035 -60.5667996  -0.3656567 -172.7645098
  0.0244604  -0.3148574 -173.8854333 -16.0941051 -61.9694131 -16.0708108 -61.9549017  -0.3177538 -173.8366174
  0.0254379  -0.2768522 -174.9390476 -17.0122053 -63.1923118 -16.9864444 -63.1859662  -0.2793941 -174.9070652
  0.0264154  -0.2457262 -175.9699217 -18.0114626 -64.2475301 -17.9794127 -64.2380738  -0.2468101 -175.9193119
  0.0273930  -0.2170694 -176.9792246 -19.1171060 -65.0642418 -19.0791911 -65.0650940  -0.2199183 -176.9261047
  0.0283705  -0.1951829 -177.9789450 -20.3451945 -65.6223613 -20.2979685 -65.6450966  -0.1967225 -177.9301986
  0.0293480  -0.1774584 -178.9404504 -21.7372216 -65.7954818 -21.6807870 -65.8410595  -0.1797221 -178.8945739
  0.0303255  -0.1668905 -179.8998071 -23.3514227 -65.3933992 -23.2771872 -65.4824373  -0.1677472 -179.8381252
  0.0313030  -0.1551505 179.1991629 -25.2547898 -64.0713181 -25.1581705 -64.2178304  -0.1560896 179.2591319
  0.0322805  -0.1496092 178.2937666 -27.5944348 -61.0740868 -27.4682332 -61.3671151  -0.1490126 178.3594611
  0.0332581  -0.1447074 177.4162580 -30.5830934 -54.5215212 -30.4063705 -55.1084976  -0.1448852 177.4951285
  0.0342356  -0.1461579 176.5629253 -34.4387023 -38.6221526 -34.2269494 -40.0926106  -0.1469416 176.6344781
  0.0352131  -0.1492301 175.7175796 -37.6880709   0.8896644 -37.6625292  -2.2485728  -0.1481657 175.7858239
  0.0361906  -0.1541981 174.8956878 -35.4547000  45.4164981 -35.7312355  43.5004869  -0.1543155 174.9822001
  0.0371681  -0.1637862 174.0913292 -31.6601139  64.6830116 -31.9039674  63.9727217  -0.1609003 174.1560576
  0.0381457  -0.1705826 173.3032908 -28.7254742  72.5510772 -28.9063688  72.2330643  -0.1698013 173.3862970
  0.0391232  -0.1836017 172.5439469 -26.4875222  76.2682710 -26.6421743  76.1162893  -0.1820695 172.6252660
  0.0401007  -0.1988906 171.7764526 -24.7213250  78.1445137 -24.8495603  78.0705264  -0.1992748 171.8604704
  0.0410782  -0.2144032 171.0560980 -23.2729257  79.0922482 -23.3834554  79.0726219  -0.2146444 171.1489532
  0.0420557  -0.2350279 170.3111822 -22.0544198  79.4807279 -22.1507023  79.5027718  -0.2334076 170.4022703
  0.0430332  -0.2545083 169.6188518 -21.0014355  79.5473872 -21.0913799  79.5788111  -0.2530660 169.7093789
  0.0440108  -0.2747037 168.9011499 -20.0826771  79.4108209 -20.1630358  79.4426224  -0.2724874 168.9943773
  0.0449883  -0.2993039 168.2399882 -19.2690974  79.1108899 -19.3435732  79.1582706  -0.2937386 168.3370541
  0.0459658  -0.3224735 167.5720998 -18.5419643  78.7245151 -18.6133212  78.7866155  -0.3198338 167.6807098
  0.0469433  -0.3468663 166.9284353 -17.8844192  78.2797978 -17.9504864  78.3375740  -0.3428884 167.0262826
  0.0479208  -0.3734650 166.2824300 -17.2859974  77.7404648 -17.3476409  77.8066896  -0.3711207 166.3706638
  0.0488983  -0.4008847 165.6488073 -16.7380335  77.2151101 -16.7980102  77.2781891  -0.3971838 165.7455969
  0.0498759  -0.4296663 165.0337774 -16.2326518  76.6238640 -16.2881629  76.6969784  -0.4252845 165.1488849
  0.0508534  -0.4590747 164.4348852 -15.7666403  76.0274722 -15.8206728  76.1042704  -0.4543503 164.5351722
  0.0518309  -0.4876604 163.8370655 -15.3319823  75.4280756 -15.3840674  75.5142362  -0.4831512 163.9388609
  0.0528084  -0.5203256 163.2509214 -14.9304279  74.8093432 -14.9813683  74.8916714  -0.5166071 163.3612837
  0.0537859  -0.5516557 162.6777702 -14.5510324  74.1978174 -14.5987242  74.2812348  -0.5472494 162.7971368
  0.0547634  -0.5858499 162.1171467 -14.1987530  73.5906198 -14.2450733  73.6745668  -0.5792032 162.2288901
  0.0557410  -0.6206947 161.5688626 -13.8651716  72.9674928 -13.9104310  73.0547626  -0.6149750 161.6876802
  0.0567185  -0.6561539 161.0268135 -13.5509288  72.3577785 -13.5949333  72.4510464  -0.6482696 161.1402794
  0.0576960  -0.6914221 160.4951368 -13.2547884  71.7396914 -13.2970559  71.8320199  -0.6844505 160.5965173
  0.0586735  -0.7257228 159.9752357 -12.9725806  71.1388661 -13.0149601  71.2273913  -0.7173296 160.0804874
  0.0596510  -0.7605669 159.4508409 -12.7048393  70.5361297 -12.7478105  70.6223131  -0.7549985 159.5692755
  0.0606285  -0.7970140 158.9664738 -12.4528105  69.9555280 -12.4923788  70.0433578  -0.7899200 159.0749315
  0.0616061  -0.8348103 158.4620448 -12.2108374  69.3464756 -12.2503550  69.4394876  -0.8254160 158.5718903
  0.0625836  -0.8722497 157.9697236 -11.9825710  68.7718647 -12.0189570  68.8662599  -0.8655531 158.0811329
  0.0635611  -0.9093679 157.5038336 -11.7610846  68.1883471 -11.7984188  68.2853603  -0.9012329 157.6093962
  0.0645386  -0.9507686 157.0242929 -11.5535285  67.6101722 -11.5902636  67.7010473  -0.9423619 157.1373365
  0.0655161  -0.9870840 156.5435103 -11.3521813  67.0573894 -11.3883918  67.1532471  -0.9786586 156.6687968
  0.0664936  -1.0268237 156.1029900 -11.1607556  66.5044794 -11.1966226  66.6012264  -1.0196985 156.2235985
  0.0674712  -1.0656279 155.6654488 -10.9770698  65.9542965 -11.0109605  66.0442768  -1.0555604 155.7728677
  0.0684487  -1.1062765 155.2162434 -10.7994899  65.4124444 -10.8325223  65.5077811  -1.0956268 155.3347593
  0.0694262  -1.1462024 154.7765916 -10.6300142  64.8621156 -10.6626049  64.9668907  -1.1389860 154.8835392
  0.0704037  -1.1894615 154.3609975 -10.4669871  64.3378842 -10.4996454  64.4378440  -1.1772843 154.4747052
  0.0713812  -1.2270857 153.9353351 -10.3095053  63.8206136 -10.3411476  63.9253742  -1.2170631 154.0655602
  0.0723587  -1.2679238 153.5170621 -10.1568135  63.3041598 -10.1866778  63.4092630  -1.2572044 153.6301079
  0.0733363  -1.3101675 153.1048409 -10.0129723  62.7891777 -10.0422986  62.8903610  -1.2989921 153.2241497
  0.0743138  -1.3505229 152.7182735  -9.8724267  62.2866154  -9.9022921  62.3960198  -1.3393428 152.8421426
  0.0752913  -1.3919267 152.3264158  -9.7354655  61.8013183  -9.7660956  61.9020406  -1.3799258 152.4426223
  0.0762688  -1.4345834 151.9307365  -9.6055684  61.3027579  -9.6352719  61.4070653  -1.4224931 152.0554257
  0.0772463  -1.4765620 151.5328198  -9.4778047  60.8223340  -9.5065804  60.9211783  -1.4647399 151.6508448
  0.0782239  -1.5193459 151.1747209  -9.3572267  60.3537381  -9.3843041  60.4560821  -1.5052165 151.2791329
  0.0792014  -1.5593970 150.7925974  -9.2361228  59.8870311  -9.2638752  59.9926480  -1.5462713 150.9246363
  0.0801789  -1.6020884 150.4450425  -9.1206187  59.4144254  -9.1489775  59.5214140  -1.5902352 150.5582851
  0.0811564  -1.6445907 150.0586541  -9.0106960  58.9477946  -9.0367392  59.0630552  -1.6299411 150.1913205
  0.0821339  -1.6882762 149.7078032  -8.9007288  58.5110950  -8.9277162  58.6083294  -1.6734228 149.8369774
  0.0831114  -1.7312424 149.3787724  -8.7984561  58.0642873  -8.8228956  58.1703882  -1.7166693 149.5033527
  0.0840890  -1.7722099 149.0365877  -8.6952220  57.6269868  -8.7202426  57.7264815  -1.7582438 149.1435902
  0.0850665  -1.8185316 148.6861158  -8.5987844  57.1847942  -8.6226237  57.2899726  -1.8030907 148.7997143
  0.0860440  -1.8596217 148.3494025  -8.5034310  56.7570722  -8.5285802  56.8669591  -1.8438855 148.4654834
  0.0870215  -1.9008880 148.0311977  -8.4107970  56.3462230  -8.4345800  56.4523447  -1.8855865 148.1705613
  0.0879990  -1.9449301 147.6942788  -8.3177960  55.9400790  -8.3410691  56.0421779  -1.9286602 147.8172848
  0.0889765  -1.9888247 147.3801580  -8.2306142  55.5100229  -8.2552837  55.6153138  -1.9735304 147.4914598
  0.0899541  -2.0296407 147.0643754  -8.1465509  55.1110062  -8.1701905  55.2046116  -2.0146750 147.1927176
  0.0909316  -2.0742111 146.7610949  -8.0638932  54.7100218  -8.0873193  54.8136128  -2.0561011 146.8871217
  0.0919091  -2.1152481 146.4470927  -7.9838468  54.3155204  -8.0071124  54.4146624  -2.0992364 146.5620691
  0.0928866  -2.1602632 146.1511636  -7.9054266  53.9140327  -7.9277805  54.0202986  -2.1441160 146.2598723
  0.0938641  -2.2032366 145.8696045  -7.8283890  53.5440132  -7.8509778  53.6481816  -2.1862624 145.9801732
  0.0948416  -2.2470276 145.5777842  -7.7556004  53.1554523  -7.7776539  53.2628558  -2.2290978 145.6966897
  0.0958192  -2.2915139 145.2752741  -7.6817809  52.7804879  -7.7045694  52.8926543  -2.2735894 145.3838724
  0.0967967  -2.3346770 144.9803343  -7.6103412  52.3998863  -7.6312699  52.5045742  -2.3141244 145.1074454
  0.0977742  -2.3778240 144.7179583  -7.5435904  52.0327294  -7.5650345  52.1475389  -2.3578676 144.8156649
  0.0987517  -2.4170760 144.4139195  -7.4736524  51.6718045  -7.4936579  51.7745882  -2.4022846 144.5488892
  0.0997292  -2.4664948 144.1689913  -7.4096942  51.3031620  -7.4305517  51.4177453  -2.4443550 144.2833874
  0.1007067  -2.5077324 143.8890476  -7.3444233  50.9623075  -7.3645734  51.0585940  -2.4873189 143.9935687
  0.1016843  -2.5513210 143.6263355  -7.2837669  50.6010056  -7.3037721  50.7114824  -2.5318974 143.7308365
  0.1026618  -2.5933634 143.3479997  -7.2204805  50.2727298  -7.2422474  50.3725286  -2.5746086 143.4757046
  0.1036393  -2.6347950 143.1142262  -7.1638227  49.9270206  -7.1831259  50.0335624  -2.6119588 143.2196719
  0.1046168  -2.6782540 142.8555893  -7.1037018  49.5886355  -7.1234347  49.6886785  -2.6575933 142.9773660
  0.1055943  -2.7206578 142.6002166  -7.0490270  49.2575315  -7.0669246  49.3576016  -2.7003388 142.7084802
  0.1065718  -2.7660053 142.3564472  -6.9940261  48.9191440  -7.0125662  49.0225517  -2.7453635 142.4634801
  0.1075494  -2.8090607 142.1093281  -6.9389360  48.5958386  -6.9575955  48.6944510  -2.7891496 142.2267420
  0.1085269  -2.8492572 141.8801894  -6.8850581  48.2818732  -6.9038817  48.3850580  -2.8306621 141.9800944
  0.1095044  -2.8941646 141.6321398  -6.8342745  47.9595334  -6.8527862  48.0640145  -2.8729791 141.7615715
  0.1104819  -2.9367699 141.3854809  -6.7828380  47.6361345  -6.8007856  47.7439194  -2.9151082 141.4940659
  0.1114594  -2.9791291 141.1815474  -6.7352812  47.3305609  -6.7525174  47.4364295  -2.9588406 141.2880652
  0.1124370  -3.0233108 140.9496649  -6.6862881  47.0253445  -6.7040780  47.1255713  -2.9999425 141.0524101
  0.1134145  -3.0613550 140.7096963  -6.6377870  46.7266612  -6.6553257  46.8377354  -3.0423037 140.8316185
  0.1143920  -3.1049586 140.4975449  -6.5903344  46.4261496  -6.6089941  46.5272391  -3.0861544 140.6071215
  0.1153695  -3.1506124 140.2901204  -6.5480409  46.1340297  -6.5641438  46.2416930  -3.1265906 140.4080163
  0.1163470  -3.1916195 140.0430842  -6.5017569  45.8304644  -6.5191597  45.9320668  -3.1714435 140.1528065
  0.1173245  -3.2333984 139.8384919  -6.4579511  45.5438468  -6.4734891  45.6480084  -3.2122221 139.9570135
  0.1183021  -3.2753897 139.6433133  -6.4156670  45.2637485  -6.4331548  45.3699988  -3.2534253 139.7400187
  0.1192796  -3.3189531 139.4604399  -6.3749763  44.9797058  -6.3916912  45.0852921  -3.2953604 139.5559463
  0.1202571  -3.3626453 139.2283372  -6.3337552  44.6908955  -6.3509076  44.7913636  -3.3416371 139.3244781
  0.1212346  -3.4044459 139.0475701  -6.2946083  44.4166283  -6.3103109  44.5125091  -3.3823666 139.1473960
  0.1222121  -3.4467212 138.8322702  -6.2545255  44.1319500  -6.2703964  44.2391751  -3.4211439 138.9436194
  0.1231896  -3.4880988 138.6393319  -6.2167387  43.8767456  -6.2328717  43.9766130  -3.4658438 138.7360918
  0.1241672  -3.5299478 138.4483315  -6.1791934  43.6000376  -6.1948312  43.7070150  -3.5051930 138.5537976
  0.1251447  -3.5704908 138.2521121  -6.1408606  43.3314304  -6.1574341  43.4381991  -3.5504864 138.3587577
  0.1261222  -3.6139518 138.0678845  -6.1065759  43.0681438  -6.1216829  43.1755784  -3.5907936 138.1796564
  0.1270997  -3.6532210 137.8802572  -6.0707020  42.8231433  -6.0859469  42.9215316  -3.6321487 137.9990889
  0.1280772  -3.6957306 137.7104435  -6.0367039  42.5483392  -6.0504740  42.6515557  -3.6742825 137.8015874
  0.1290547  -3.7365163 137.5079641  -6.0011895  42.2957882  -6.0160495  42.3973855  -3.7141532 137.6343310
  0.1300323  -3.7795414 137.3466715  -5.9683403  42.0456193  -5.9843380  42.1521826  -3.7526297 137.4383300
  0.1310098  -3.8168128 137.1786290  -5.9349378  41.7968434  -5.9501348  41.8953006  -3.7935966 137.2739290
  0.1319873  -3.8622127 137.0149460  -5.9029835  41.5518520  -5.9184014  41.6507253  -3.8394594 137.1164785
  0.1329648  -3.9045703 136.8417325  -5.8714387  41.3035881  -5.8854668  41.4041410  -3.8793899 136.9223700
  0.1339423  -3.9431714 136.6681517  -5.8412400  41.0622542  -5.8562150  41.1628594  -3.9195696 136.7528794
  0.1349198  -3.9860462 136.4977572  -5.8107794  40.8208011  -5.8252339  40.9158326  -3.9596362 136.5828672
  0.1358974  -4.0267213 136.3276470  -5.7815074  40.5881500  -5.7960570  40.6858497  -4.0006808 136.4337782
  0.1368749  -4.0687328 136.1733891  -5.7522933  40.3580996  -5.7667817  40.4612422  -4.0406199 136.2686045
  0.1378524  -4.1064831 136.0166613  -5.7236966  40.1268205  -5.7366659  40.2171510  -4.0837221 136.1075980
  0.1388299  -4.1484712 135.8341298  -5.6928968  39.8747883  -5.7065716  39.9746948  -4.1247488 135.9268101
  0.1398074  -4.1850199 135.6956092  -5.6666598  39.6564756  -5.6801208  39.7581728  -4.1591680 135.7814269
  0.1407849  -4.2299779 135.5494233  -5.6402369  39.4337749  -5.6532642  39.5365981  -4.2033895 135.6465789
  0.1417625  -4.2682836 135.3878061  -5.6126504  39.2075244  -5.6270265  39.2998641  -4.2414303 135.4839959
  0.1427400  -4.3077249 135.2499950  -5.5870679  38.9895422  -5.5994667  39.0911570  -4.2836822 135.3417552
  0.1437175  -4.3474473 135.1106515  -5.5589198  38.7714152  -5.5736025  38.8670322  -4.3212760 135.1907534
  0.1446950  -4.3903957 134.9480968  -5.5353693  38.5586965  -5.5468812  38.6601140  -4.3648137 135.0455516
  0.1456725  -4.4309356 134.7976664  -5.5109799  38.3284804  -5.5241761  38.4320308  -4.4048855 134.8895175
  0.1466500  -4.4708022 134.6658785  -5.4873201  38.1187964  -5.4985046  38.2158162  -4.4453343 134.7555399
  0.1476276  -4.5038255 134.5275252  -5.4627767  37.9127736  -5.4753123  38.0056149  -4.4777869 134.6213163
  0.1486051  -4.5476223 134.3596615  -5.4378888  37.7016210  -5.4505106  37.7910384  -4.5233367 134.4607410
  0.1495826  -4.5891765 134.2518483  -5.4158503  37.5000017  -5.4281071  37.5908522  -4.5643740 134.3490761
  0.1505601  -4.6294914 134.1196552  -5.3916395  37.2796999  -5.4043271  37.3863685  -4.6015197 134.1988083
  0.1515376  -4.6685843 134.0043389  -5.3709784  37.0782888  -5.3831174  37.1751473  -4.6421009 134.0794336
  0.1525152  -4.7065474 133.8683199  -5.3480814  36.8903578  -5.3608706  36.9802482  -4.6808700 133.9457469
  0.1534927  -4.7451859 133.7237191  -5.3256878  36.6890997  -5.3380171  36.7829364  -4.7191538 133.8233081
  0.1544702  -4.7847785 133.5980665  -5.3050725  36.4814689  -5.3170620  36.5763009  -4.7589313 133.6799387
  0.1554477  -4.8245445 133.4947556  -5.2845485  36.2877730  -5.2959595  36.3815793  -4.7992023 133.5524950
  0.1564252  -4.8600115 133.3644054  -5.2639956  36.0975830  -5.2745726  36.2060648  -4.8325359 133.4451961
  0.1574027  -4.9009013 133.2247736  -5.2421511  35.9008118  -5.2537783  35.9963339  -4.8748048 133.3131176
  0.1583803  -4.9416243 133.1224089  -5.2228384  35.7218013  -5.2349195  35.8115785  -4.9135788 133.2023400
  0.1593578  -4.9792125 133.0099927  -5.2026014  35.5238630  -5.2155589  35.6096436  -4.9514220 133.0960926
  0.1603353  -5.0186067 132.8975271  -5.1845332  35.3380808  -5.1953962  35.4347704  -4.9902872 132.9864224
  0.1613128  -5.0567026 132.7841265  -5.1651737  35.1559685  -5.1763613  35.2486260  -5.0271515 132.8506216
  0.1622903  -5.0877318 132.6564507  -5.1458211  34.9773590  -5.1564597  35.0698277  -5.0605408 132.7249282
  0.1632678  -5.1316764 132.5472233  -5.1274951  34.7793475  -5.1380275  34.8829127  -5.1031178 132.6211716
  0.1642454  -5.1722220 132.4496910  -5.1096072  34.6045105  -5.1205720  34.6917070  -5.1430286 132.5168590
  0.1652229  -5.2081089 132.3463374  -5.0924332  34.4343727  -5.1032621  34.5285121  -5.1774080 132.4083356
  0.1662004  -5.2447780 132.2331208  -5.0752264  34.2539792  -5.0858303  34.3492087  -5.2171332 132.3049644
  0.1671779  -5.2856239 132.1143262  -5.0579153  34.0693526  -5.0687962  34.1628632  -5.2560805 132.1866952
  0.1681554  -5.3198267 132.0311366  -5.0398244  33.9020201  -5.0504081  33.9911820  -5.2929438 132.0950022
  0.1691329  -5.3620895 131.9122580  -5.0238248  33.7187020  -5.0334837  33.8068877  -5.3318378 131.9974398
  0.1701105  -5.3959982 131.8164757  -5.0071741  33.5499592  -5.0175153  33.6474563  -5.3657728 131.8719861
  0.1710880  -5.4307466 131.7252871  -4.9897381  33.3893461  -4.9999260  33.4829428  -5.4015677 131.7940263
  0.1720655  -5.4685500 131.6465234  -4.9758491  33.2212203  -4.9861206  33.3097530  -5.4411322 131.7072723
  0.1730430  -5.5089159 131.5206511  -4.9580106  33.0505387  -4.9677331  33.1446843  -5.4829454 131.5768311
  0.1740205  -5.5440260 131.4121908  -4.9427186  32.8801207  -4.9531651  32.9726302  -5.5147045 131.4724772
  0.1749980  -5.5826872 131.3174685  -4.9275036  32.7167958  -4.9373293  32.8104459  -5.5514284 131.3903534
  0.1759756  -5.6163143 131.2468668  -4.9130912  32.5602173  -4.9224810  32.6501677  -5.5917147 131.3210567
  0.1769531  -5.6563259 131.1763092  -4.8997605  32.3966449  -4.9094026  32.4870992  -5.6275286 131.2213422
