! ListType=Lin
# MHZ S DB R 50
 70.0000000  -0.9222138   1.3033824 -51.6165674  78.6144137 -3000.0000000 -90.0000000 -3000.0000000 -90.0000000
 70.0635076  -0.9169623   1.0988121 -51.4038188  78.2537364 -3000.0000000 -90.0000000 -3000.0000000 -90.0000000
 70.1270151  -0.9130565   0.8128299 -51.2764770  78.3757643 -3000.0000000 -90.0000000 -3000.0000000 -90.0000000
 70.1905227  -0.9119832   0.5476976 -51.1518797  78.3871224 -3000.0000000 -90.0000000 -3000.0000000 -90.0000000
 70.2540303  -0.9121413   0.2921219 -51.0486007  78.1973627 -3000.0000000 -90.0000000 -3000.0000000 -90.0000000
 70.3175379  -0.9119352   0.0426134 -50.9404770  78.1468476 -3000.0000000 -90.0000000 -3000.0000000 -90.0000000
 70.3810454  -0.9122063  -0.2060934 -50.8374362  77.9465097 -3000.0000000 -90.0000000 -3000.0000000 -90.0000000
 70.4445530  -0.9123757  -0.4557131 -50.7350677  77.7510653 -3000.0000000 -90.0000000 -3000.0000000 -90.0000000
 70.5080606  -0.9125172  -0.7026881 -50.6139262  77.6023749 -3000.0000000 -90.0000000 -3000.0000000 -90.0000000
 70.5715681  -0.9126877  -0.9499190 -50.5210080  77.3587748 -3000.0000000 -90.0000000 -3000.0000000 -90.0000000
 70.6350757  -0.9126008  -1.1995281 -50.3921626  77.1040777 -3000.0000000 -90.0000000 -3000.0000000 -90.0000000
 70.6985833  -0.9129826  -1.4457351 -50.2851891  77.0187406 -3000.0000000 -90.0000000 -3000.0000000 -90.0000000
 70.7620909  -0.9130413  -1.6897011 -50.1779344  76.7862162 -3000.0000000 -90.0000000 -3000.0000000 -90.0000000
 70.8255984  -0.9134869  -1.9435330 -50.0708743  76.5221091 -3000.0000000 -90.0000000 -3000.0000000 -90.0000000
 70.8891060  -0.9130917  -2.1856354 -49.9665438  76.3061854 -3000.0000000 -90.0000000 -3000.0000000 -90.0000000
 70.9526136  -0.9133516  -2.4343488 -49.8484839  76.0831120 -3000.0000000 -90.0000000 -3000.0000000 -90.0000000
 71.0161212  -0.9133892  -2.6804780 -49.7434554  75.7973962 -3000.0000000 -90.0000000 -3000.0000000 -90.0000000
 71.0796287  -0.9135978  -2.9307924 -49.6344318  75.6646630 -3000.0000000 -90.0000000 -3000.0000000 -90.0000000
 71.1431363  -0.9141240  -3.1792871 -49.5230744  75.4612646 -3000.0000000 -90.0000000 -3000.0000000 -90.0000000
 71.2066439  -0.9140047  -3.4270569 -49.4116355  75.1741251 -3000.0000000 -90.0000000 -3000.0000000 -90.0000000
 71.2701514  -0.9146206  -3.6781972 -49.3014894  74.9850247 -3000.0000000 -90.0000000 -3000.0000000 -90.0000000
 71.3336590  -0.9152369  -3.9287829 -49.2009062  74.7557966 -3000.0000000 -90.0000000 -3000.0000000 -90.0000000
 71.3971666  -0.9149225  -4.1800426 -49.0855957  74.5190230 -3000.0000000 -90.0000000 -3000.0000000 -90.0000000
 71.4606742  -0.9153924  -4.4257468 -48.9747370  74.2737674 -3000.0000000 -90.0000000 -3000.0000000 -90.0000000
 71.5241817  -0.9166429  -4.6768035 -48.8755485  74.1027345 -3000.0000000 -90.0000000 -3000.0000000 -90.0000000
 71.5876893  -0.9172584  -4.9251206 -48.7615887  73.8380031 -3000.0000000 -90.0000000 -3000.0000000 -90.0000000
 71.6511969  -0.9179579  -5.1821741 -48.6526864  73.6266374 -3000.0000000 -90.0000000 -3000.0000000 -90.0000000
 71.7147044  -0.9186012  -5.4279493 -48.5476597  73.3356093 -3000.0000000 -90.0000000 -3000.0000000 -90.0000000
 71.7782120  -0.9197821  -5.6754416 -48.4396445  73.0911262 -3000.0000000 -90.0000000 -3000.0000000 -90.0000000
 71.8417196  -0.9205389  -5.9213371 -48.3286453  72.8217224 -3000.0000000 -90.0000000 -3000.0000000 -90.0000000
 71.9052272  -0.9221325  -6.1769135 -48.2177487  72.6150077 -3000.0000000 -90.0000000 -3000.0000000 -90.0000000
 71.9687347  -0.9238432  -6.4147750 -48.1102245  72.3556134 -3000.0000000 -90.0000000 -3000.0000000 -90.0000000
 72.0322423  -0.9245551  -6.6594936 -48.0003406  72.0631919 -3000.0000000 -90.0000000 -3000.0000000 -90.0000000
 72.0957499  -0.9244779  -6.9023587 -47.8910800  71.8389068 -3000.0000000 -90.0000000 -3000.0000000 -90.0000000
 72.1592574  -0.9250114  -7.1463990 -47.7772364  71.6184549 -3000.0000000 -90.0000000 -3000.0000000 -90.0000000
 72.2227650  -0.9221009  -7.3947353 -47.6513481  71.5723341 -3000.0000000 -90.0000000 -3000.0000000 -90.0000000
 72.2862726  -0.9210174  -7.6395132 -47.5377078  71.3242116 -3000.0000000 -90.0000000 -3000.0000000 -90.0000000
 72.3497802  -0.9197927  -7.8861998 -47.4237985  71.0936562 -3000.0000000 -90.0000000 -3000.0000000 -90.0000000
 72.4132877  -0.9188587  -8.1382707 -47.3121567  70.8459056 -3000.0000000 -90.0000000 -3000.0000000 -90.0000000
 72.4767953  -0.9169246  -8.3923983 -47.2050790  70.6466032 -3000.0000000 -90.0000000 -3000.0000000 -90.0000000
 72.5403029  -0.9158620  -8.6507535 -47.0790637  70.3734767 -3000.0000000 -90.0000000 -3000.0000000 -90.0000000
 72.6038105  -0.9157857  -8.9092545 -46.9677006  70.1519229 -3000.0000000 -90.0000000 -3000.0000000 -90.0000000
 72.6673180  -0.9139874  -9.1690717 -46.8593678  69.9026953 -3000.0000000 -90.0000000 -3000.0000000 -90.0000000
 72.7308256  -0.9140516  -9.4316167 -46.7479711  69.7080042 -3000.0000000 -90.0000000 -3000.0000000 -90.0000000
 72.7943332  -0.9131470  -9.6897912 -46.6299715  69.4748969 -3000.0000000 -90.0000000 -3000.0000000 -90.0000000
 72.8578407  -0.9124210  -9.9527381 -46.5252533  69.2298868 -3000.0000000 -90.0000000 -3000.0000000 -90.0000000
 72.9213483  -0.9118371 -10.2110629 -46.4164227  68.9659311 -3000.0000000 -90.0000000 -3000.0000000 -90.0000000
 72.9848559  -0.9116683 -10.4755989 -46.3019105  68.7186091 -3000.0000000 -90.0000000 -3000.0000000 -90.0000000
 73.0483635  -0.9112269 -10.7356592 -46.1901729  68.5070454 -3000.0000000 -90.0000000 -3000.0000000 -90.0000000
 73.1118710  -0.9116187 -11.0024029 -46.0743673  68.2244277 -3000.0000000 -90.0000000 -3000.0000000 -90.0000000
 73.1753786  -0.9117546 -11.2622552 -45.9683066  67.9916487 -3000.0000000 -90.0000000 -3000.0000000 -90.0000000
 73.2388862  -0.9111451 -11.5237317 -45.8522423  67.8245060 -3000.0000000 -90.0000000 -3000.0000000 -90.0000000
 73.3023937  -0.9109158 -11.7966535 -45.7407813  67.5097989 -3000.0000000 -90.0000000 -3000.0000000 -90.0000000
 73.3659013  -0.9103863 -12.0593036 -45.6357695  67.2873541 -3000.0000000 -90.0000000 -3000.0000000 -90.0000000
 73.4294089  -0.9104716 -12.3261597 -45.5208054  67.0215992 -3000.0000000 -90.0000000 -3000.0000000 -90.0000000
 73.4929165  -0.9104307 -12.5895852 -45.4053580  66.7914328 -3000.0000000 -90.0000000 -3000.0000000 -90.0000000
 73.5564240  -0.9108122 -12.8555118 -45.2979089  66.5284160 -3000.0000000 -90.0000000 -3000.0000000 -90.0000000
 73.6199316  -0.9104977 -13.1240413 -45.1900897  66.2955041 -3000.0000000 -90.0000000 -3000.0000000 -90.0000000
 73.6834392  -0.9106784 -13.3931881 -45.0745072  66.0403938 -3000.0000000 -90.0000000 -3000.0000000 -90.0000000
 73.7469468  -0.9106558 -13.6583593 -44.9707625  65.7940390 -3000.0000000 -90.0000000 -3000.0000000 -90.0000000
 73.8104543  -0.9103670 -13.9236558 -44.8522727  65.5502431 -3000.0000000 -90.0000000 -3000.0000000 -90.0000000
 73.8739619  -0.9104110 -14.1945018 -44.7464461  65.3065579 -3000.0000000 -90.0000000 -3000.0000000 -90.0000000
 73.9374695  -0.9101820 -14.4604111 -44.6333287  65.0424614 -3000.0000000 -90.0000000 -3000.0000000 -90.0000000
 74.0009770  -0.9104987 -14.7258532 -44.5219600  64.8155383 -3000.0000000 -90.0000000 -3000.0000000 -90.0000000
 74.0644846  -0.9105445 -14.9953196 -44.4080655  64.5304506 -3000.0000000 -90.0000000 -3000.0000000 -90.0000000
 74.1279922  -0.9105128 -15.2661803 -44.2973955  64.2878585 -3000.0000000 -90.0000000 -3000.0000000 -90.0000000
 74.1914998  -0.9100968 -15.5352976 -44.1845801  64.0461664 -3000.0000000 -90.0000000 -3000.0000000 -90.0000000
 74.2550073  -0.9107780 -15.8037774 -44.0739600  63.7904392 -3000.0000000 -90.0000000 -3000.0000000 -90.0000000
 74.3185149  -0.9107260 -16.0758264 -43.9640258  63.5609469 -3000.0000000 -90.0000000 -3000.0000000 -90.0000000
 74.3820225  -0.9108520 -16.3473217 -43.8532591  63.2785026 -3000.0000000 -90.0000000 -3000.0000000 -90.0000000
 74.4455300  -0.9107135 -16.6232742 -43.7442596  63.0135469 -3000.0000000 -90.0000000 -3000.0000000 -90.0000000
 74.5090376  -0.9102967 -16.8989087 -43.6298315  62.7420652 -3000.0000000 -90.0000000 -3000.0000000 -90.0000000
 74.5725452  -0.9112697 -17.1690350 -43.5181607  62.4884882 -3000.0000000 -90.0000000 -3000.0000000 -90.0000000
 74.6360528  -0.9105386 -17.4465368 -43.4106643  62.2102604 -3000.0000000 -90.0000000 -3000.0000000 -90.0000000
 74.6995603  -0.9101131 -17.7243291 -43.3057052  61.9655761 -3000.0000000 -90.0000000 -3000.0000000 -90.0000000
 74.7630679  -0.9095845 -17.9978733 -43.1932649  61.6583559 -3000.0000000 -90.0000000 -3000.0000000 -90.0000000
 74.8265755  -0.9095359 -18.2757060 -43.0848619  61.4124891 -3000.0000000 -90.0000000 -3000.0000000 -90.0000000
 74.8900830  -0.9088988 -18.5526551 -42.9752672  61.1029379 -3000.0000000 -90.0000000 -3000.0000000 -90.0000000
 74.9535906  -0.9086659 -18.8311430 -42.8669729  60.8361112 -3000.0000000 -90.0000000 -3000.0000000 -90.0000000
 75.0170982  -0.9074903 -19.1133483 -42.7577613  60.4917649 -3000.0000000 -90.0000000 -3000.0000000 -90.0000000
 75.0806058  -0.9066811 -19.3977003 -42.6432236  60.2060701 -3000.0000000 -90.0000000 -3000.0000000 -90.0000000
 75.1441133  -0.9060847 -19.6788400 -42.5319988  59.8374252 -3000.0000000 -90.0000000 -3000.0000000 -90.0000000
 75.2076209  -0.9044506 -19.9653354 -42.4158247  59.5229211 -3000.0000000 -90.0000000 -3000.0000000 -90.0000000
 75.2711285  -0.9032663 -20.2553670 -42.2998851  59.2075397 -3000.0000000 -90.0000000 -3000.0000000 -90.0000000
 75.3346361  -0.9019176 -20.5482434 -42.1809987  58.8792004 -3000.0000000 -90.0000000 -3000.0000000 -90.0000000
 75.3981436  -0.9018726 -20.8450298 -42.0617764  58.5807261 -3000.0000000 -90.0000000 -3000.0000000 -90.0000000
 75.4616512  -0.8996821 -21.1430451 -41.9455919  58.2598668 -3000.0000000 -90.0000000 -3000.0000000 -90.0000000
 75.5251588  -0.9011853 -21.4486848 -41.8319538  57.9532962 -3000.0000000 -90.0000000 -3000.0000000 -90.0000000
 75.5886663  -0.9019059 -21.7447429 -41.7141478  57.6247743 -3000.0000000 -90.0000000 -3000.0000000 -90.0000000
 75.6521739  -0.9023337 -22.0459538 -41.5990488  57.3554603 -3000.0000000 -90.0000000 -3000.0000000 -90.0000000
 75.7156815  -0.9033479 -22.3471863 -41.4799462  57.0557220 -3000.0000000 -90.0000000 -3000.0000000 -90.0000000
 75.7791891  -0.9058359 -22.6488974 -41.3682175  56.7416903 -3000.0000000 -90.0000000 -3000.0000000 -90.0000000
 75.8426966  -0.9069369 -22.9464479 -41.2519759  56.4756106 -3000.0000000 -90.0000000 -3000.0000000 -90.0000000
 75.9062042  -0.9088785 -23.2457198 -41.1412276  56.1709861 -3000.0000000 -90.0000000 -3000.0000000 -90.0000000
 75.9697118  -0.9108270 -23.5389656 -41.0254675  55.8982994 -3000.0000000 -90.0000000 -3000.0000000 -90.0000000
 76.0332193  -0.9123023 -23.8328344 -40.9079750  55.6198908 -3000.0000000 -90.0000000 -3000.0000000 -90.0000000
 76.0967269  -0.9141404 -24.1282153 -40.7981381  55.3200024 -3000.0000000 -90.0000000 -3000.0000000 -90.0000000
 76.1602345  -0.9159480 -24.4206583 -40.6853374  55.0469585 -3000.0000000 -90.0000000 -3000.0000000 -90.0000000
 76.2237421  -0.9178583 -24.7152652 -40.5675891  54.7581613 -3000.0000000 -90.0000000 -3000.0000000 -90.0000000
 76.2872496  -0.9184871 -25.0115610 -40.4513135  54.5055136 -3000.0000000 -90.0000000 -3000.0000000 -90.0000000
 76.3507572  -0.9198734 -25.3062629 -40.3422493  54.1939857 -3000.0000000 -90.0000000 -3000.0000000 -90.0000000
 76.4142648  -0.9206937 -25.6074537 -40.2287144  53.8934255 -3000.0000000 -90.0000000 -3000.0000000 -90.0000000
 76.4777723  -0.9224555 -25.9034937 -40.1108580  53.6073259 -3000.0000000 -90.0000000 -3000.0000000 -90.0000000
 76.5412799  -0.9237115 -26.1965698 -39.9967919  53.2802144 -3000.0000000 -90.0000000 -3000.0000000 -90.0000000
 76.6047875  -0.9247914 -26.4998935 -39.8778427  53.0234495 -3000.0000000 -90.0000000 -3000.0000000 -90.0000000
 76.6682951  -0.9258209 -26.7982787 -39.7651705  52.7566039 -3000.0000000 -90.0000000 -3000.0000000 -90.0000000
 76.7318026  -0.9267272 -27.0953755 -39.6525367  52.4147357 -3000.0000000 -90.0000000 -3000.0000000 -90.0000000
 76.7953102  -0.9280648 -27.3984431 -39.5381497  52.1452602 -3000.0000000 -90.0000000 -3000.0000000 -90.0000000
 76.8588178  -0.9286877 -27.6996347 -39.4222105  51.8261022 -3000.0000000 -90.0000000 -3000.0000000 -90.0000000
 76.9223254  -0.9295698 -28.0066685 -39.3071554  51.5579712 -3000.0000000 -90.0000000 -3000.0000000 -90.0000000
 76.9858329  -0.9302808 -28.3034978 -39.1922603  51.2745853 -3000.0000000 -90.0000000 -3000.0000000 -90.0000000
 77.0493405  -0.9315729 -28.6027661 -39.0754178  50.9659632 -3000.0000000 -90.0000000 -3000.0000000 -90.0000000
 77.1128481  -0.9325796 -28.9140393 -38.9617677  50.6599151 -3000.0000000 -90.0000000 -3000.0000000 -90.0000000
 77.1763556  -0.9332018 -29.2197848 -38.8434937  50.3340853 -3000.0000000 -90.0000000 -3000.0000000 -90.0000000
 77.2398632  -0.9344489 -29.5248318 -38.7284058  50.0630512 -3000.0000000 -90.0000000 -3000.0000000 -90.0000000
 77.3033708  -0.9348160 -29.8347145 -38.6117587  49.7668591 -3000.0000000 -90.0000000 -3000.0000000 -90.0000000
 77.3668784  -0.9358462 -30.1396105 -38.4969696  49.4434820 -3000.0000000 -90.0000000 -3000.0000000 -90.0000000
 77.4303859  -0.9368924 -30.4496475 -38.3785955  49.1398525 -3000.0000000 -90.0000000 -3000.0000000 -90.0000000
 77.4938935  -0.9382129 -30.7621071 -38.2643661  48.8463785 -3000.0000000 -90.0000000 -3000.0000000 -90.0000000
 77.5574011  -0.9399566 -31.0728635 -38.1466241  48.5309170 -3000.0000000 -90.0000000 -3000.0000000 -90.0000000
 77.6209086  -0.9407201 -31.3857269 -38.0311545  48.2090594 -3000.0000000 -90.0000000 -3000.0000000 -90.0000000
 77.6844162  -0.9413160 -31.6960450 -37.9165486  47.9059440 -3000.0000000 -90.0000000 -3000.0000000 -90.0000000
 77.7479238  -0.9424584 -32.0074560 -37.7985297  47.5816792 -3000.0000000 -90.0000000 -3000.0000000 -90.0000000
 77.8114314  -0.9434582 -32.3221788 -37.6823519  47.2871382 -3000.0000000 -90.0000000 -3000.0000000 -90.0000000
 77.8749389  -0.9443203 -32.6352426 -37.5670618  46.9761070 -3000.0000000 -90.0000000 -3000.0000000 -90.0000000
 77.9384465  -0.9462913 -32.9548761 -37.4509736  46.6475924 -3000.0000000 -90.0000000 -3000.0000000 -90.0000000
 78.0019541  -0.9473695 -33.2668113 -37.3356496  46.3364951 -3000.0000000 -90.0000000 -3000.0000000 -90.0000000
 78.0654617  -0.9483716 -33.5865794 -37.2191665  46.0259345 -3000.0000000 -90.0000000 -3000.0000000 -90.0000000
 78.1289692  -0.9492912 -33.9001483 -37.1002363  45.7075080 -3000.0000000 -90.0000000 -3000.0000000 -90.0000000
 78.1924768  -0.9506203 -34.2190652 -36.9818852  45.3785326 -3000.0000000 -90.0000000 -3000.0000000 -90.0000000
 78.2559844  -0.9522091 -34.5351899 -36.8672861  45.0819616 -3000.0000000 -90.0000000 -3000.0000000 -90.0000000
 78.3194919  -0.9538796 -34.8555656 -36.7501457  44.7409807 -3000.0000000 -90.0000000 -3000.0000000 -90.0000000
 78.3829995  -0.9538610 -35.1753734 -36.6317099  44.4328923 -3000.0000000 -90.0000000 -3000.0000000 -90.0000000
 78.4465071  -0.9562298 -35.5029364 -36.5151822  44.0988592 -3000.0000000 -90.0000000 -3000.0000000 -90.0000000
 78.5100147  -0.9575236 -35.8208617 -36.3999621  43.7737727 -3000.0000000 -90.0000000 -3000.0000000 -90.0000000
 78.5735222  -0.9580877 -36.1369985 -36.2828719  43.4548017 -3000.0000000 -90.0000000 -3000.0000000 -90.0000000
 78.6370298  -0.9595712 -36.4657926 -36.1647989  43.1343035 -3000.0000000 -90.0000000 -3000.0000000 -90.0000000
 78.7005374  -0.9602220 -36.7875965 -36.0468579  42.8054614 -3000.0000000 -90.0000000 -3000.0000000 -90.0000000
 78.7640449  -0.9619809 -37.1143216 -35.9285289  42.4893730 -3000.0000000 -90.0000000 -3000.0000000 -90.0000000
 78.8275525  -0.9621450 -37.4416121 -35.8094912  42.1446283 -3000.0000000 -90.0000000 -3000.0000000 -90.0000000
 78.8910601  -0.9638160 -37.7678704 -35.6912800  41.8203082 -3000.0000000 -90.0000000 -3000.0000000 -90.0000000
 78.9545677  -0.9638302 -38.0971615 -35.5744758  41.4946924 -3000.0000000 -90.0000000 -3000.0000000 -90.0000000
 79.0180752  -0.9656542 -38.4276518 -35.4542255  41.1613343 -3000.0000000 -90.0000000 -3000.0000000 -90.0000000
 79.0815828  -0.9660977 -38.7614273 -35.3346372  40.8266532 -3000.0000000 -90.0000000 -3000.0000000 -90.0000000
 79.1450904  -0.9672055 -39.0897724 -35.2184301  40.4771345 -3000.0000000 -90.0000000 -3000.0000000 -90.0000000
 79.2085979  -0.9688433 -39.4270572 -35.0965683  40.1356241 -3000.0000000 -90.0000000 -3000.0000000 -90.0000000
 79.2721055  -0.9691127 -39.7613971 -34.9766361  39.8039685 -3000.0000000 -90.0000000 -3000.0000000 -90.0000000
 79.3356131  -0.9707013 -40.1022163 -34.8567246  39.4677589 -3000.0000000 -90.0000000 -3000.0000000 -90.0000000
 79.3991207  -0.9712276 -40.4351853 -34.7367942  39.1142208 -3000.0000000 -90.0000000 -3000.0000000 -90.0000000
 79.4626282  -0.9734046 -40.7795358 -34.6197674  38.7697883 -3000.0000000 -90.0000000 -3000.0000000 -90.0000000
 79.5261358  -0.9736340 -41.1191790 -34.4971531  38.4205552 -3000.0000000 -90.0000000 -3000.0000000 -90.0000000
 79.5896434  -0.9753063 -41.4606495 -34.3806281  38.0842573 -3000.0000000 -90.0000000 -3000.0000000 -90.0000000
 79.6531510  -0.9754103 -41.8003919 -34.2594832  37.7314093 -3000.0000000 -90.0000000 -3000.0000000 -90.0000000
 79.7166585  -0.9786916 -42.1473996 -34.1388687  37.3827941 -3000.0000000 -90.0000000 -3000.0000000 -90.0000000
 79.7801661  -0.9799325 -42.4872591 -34.0188466  37.0353492 -3000.0000000 -90.0000000 -3000.0000000 -90.0000000
 79.8436737  -0.9806701 -42.8367015 -33.8975383  36.6719718 -3000.0000000 -90.0000000 -3000.0000000 -90.0000000
 79.9071812  -0.9819138 -43.1877968 -33.7781845  36.3274491 -3000.0000000 -90.0000000 -3000.0000000 -90.0000000
 79.9706888  -0.9832608 -43.5291014 -33.6578372  35.9722869 -3000.0000000 -90.0000000 -3000.0000000 -90.0000000
 80.0341964  -0.9847001 -43.8813220 -33.5356709  35.6036651 -3000.0000000 -90.0000000 -3000.0000000 -90.0000000
 80.0977040  -0.9869653 -44.2298051 -33.4165179  35.2647524 -3000.0000000 -90.0000000 -3000.0000000 -90.0000000
 80.1612115  -0.9877046 -44.5795507 -33.2952552  34.8947360 -3000.0000000 -90.0000000 -3000.0000000 -90.0000000
 80.2247191  -0.9893013 -44.9392553 -33.1747985  34.5259617 -3000.0000000 -90.0000000 -3000.0000000 -90.0000000
 80.2882267  -0.9912789 -45.2869186 -33.0525564  34.1671515 -3000.0000000 -90.0000000 -3000.0000000 -90.0000000
 80.3517342  -0.9937584 -45.6459522 -32.9328540  33.8004701 -3000.0000000 -90.0000000 -3000.0000000 -90.0000000
 80.4152418  -0.9945790 -46.0038804 -32.8105376  33.4335062 -3000.0000000 -90.0000000 -3000.0000000 -90.0000000
 80.4787494  -0.9970406 -46.3636068 -32.6890546  33.0804763 -3000.0000000 -90.0000000 -3000.0000000 -90.0000000
 80.5422570  -0.9981035 -46.7133265 -32.5673235  32.6929996 -3000.0000000 -90.0000000 -3000.0000000 -90.0000000
 80.6057645  -1.0008042 -47.0774244 -32.4462968  32.3287570 -3000.0000000 -90.0000000 -3000.0000000 -90.0000000
 80.6692721  -1.0015671 -47.4411905 -32.3239819  31.9582988 -3000.0000000 -90.0000000 -3000.0000000 -90.0000000
 80.7327797  -1.0040605 -47.7973832 -32.2012674  31.5773743 -3000.0000000 -90.0000000 -3000.0000000 -90.0000000
 80.7962872  -1.0061775 -48.1651395 -32.0786039  31.2006841 -3000.0000000 -90.0000000 -3000.0000000 -90.0000000
 80.8597948  -1.0080541 -48.5280174 -31.9571865  30.8258500 -3000.0000000 -90.0000000 -3000.0000000 -90.0000000
 80.9233024  -1.0100634 -48.8964726 -31.8351252  30.4533186 -3000.0000000 -90.0000000 -3000.0000000 -90.0000000
 80.9868100  -1.0118946 -49.2605388 -31.7114201  30.0823572 -3000.0000000 -90.0000000 -3000.0000000 -90.0000000
 81.0503175  -1.0142485 -49.6294530 -31.5901102  29.6896037 -3000.0000000 -90.0000000 -3000.0000000 -90.0000000
 81.1138251  -1.0161792 -49.9977725 -31.4677265  29.2977413 -3000.0000000 -90.0000000 -3000.0000000 -90.0000000
