! ListType=Lin
# MHZ S DB R 50
  0.1000000 -40.6818899 -15.0905335  -0.1069682  -0.4046681 -3000.0000000 -90.0000000 -3000.0000000 -90.0000000
  0.1585735 -40.2465577 -23.5736036  -0.1178867  -0.8530606 -3000.0000000 -90.0000000 -3000.0000000 -90.0000000
  0.2171470 -39.6608392 -31.0694555  -0.1115643  -1.1071057 -3000.0000000 -90.0000000 -3000.0000000 -90.0000000
  0.2757206 -39.0273110 -38.2519774  -0.1107843  -1.3622400 -3000.0000000 -90.0000000 -3000.0000000 -90.0000000
  0.3342941 -38.3174127 -43.4310314  -0.1110335  -1.6198565 -3000.0000000 -90.0000000 -3000.0000000 -90.0000000
  0.3928676 -37.6413047 -48.2920710  -0.1110286  -1.8833978 -3000.0000000 -90.0000000 -3000.0000000 -90.0000000
  0.4514411 -36.9067951 -52.5950635  -0.1112850  -2.1468909 -3000.0000000 -90.0000000 -3000.0000000 -90.0000000
  0.5100147 -36.2463971 -56.0970959  -0.1120668  -2.4123724 -3000.0000000 -90.0000000 -3000.0000000 -90.0000000
  0.5685882 -35.5645131 -59.3657570  -0.1125203  -2.6791854 -3000.0000000 -90.0000000 -3000.0000000 -90.0000000
  0.6271617 -34.9408720 -61.9966182  -0.1131491  -2.9436910 -3000.0000000 -90.0000000 -3000.0000000 -90.0000000
  0.6857352 -34.3493420 -64.4519660  -0.1137379  -3.2137345 -3000.0000000 -90.0000000 -3000.0000000 -90.0000000
  0.7443087 -33.7807972 -66.6572750  -0.1142326  -3.4817457 -3000.0000000 -90.0000000 -3000.0000000 -90.0000000
  0.8028823 -33.2348082 -68.5486284  -0.1153048  -3.7500186 -3000.0000000 -90.0000000 -3000.0000000 -90.0000000
  0.8614558 -32.7266118 -70.4811773  -0.1157733  -4.0184532 -3000.0000000 -90.0000000 -3000.0000000 -90.0000000
  0.9200293 -32.2304866 -71.9528165  -0.1168103  -4.2896316 -3000.0000000 -90.0000000 -3000.0000000 -90.0000000
  0.9786028 -31.7669533 -73.3839385  -0.1174871  -4.5601623 -3000.0000000 -90.0000000 -3000.0000000 -90.0000000
  1.0371764 -31.2951869 -74.7149297  -0.1178677  -4.8299223 -3000.0000000 -90.0000000 -3000.0000000 -90.0000000
  1.0957499 -30.8741203 -76.0110418  -0.1184962  -5.0998202 -3000.0000000 -90.0000000 -3000.0000000 -90.0000000
  1.1543234 -30.4651747 -77.1178254  -0.1191451  -5.3707807 -3000.0000000 -90.0000000 -3000.0000000 -90.0000000
  1.2128969 -30.0666501 -78.2401016  -0.1194125  -5.6385704 -3000.0000000 -90.0000000 -3000.0000000 -90.0000000
  1.2714704 -29.6940365 -79.2032900  -0.1200069  -5.9110825 -3000.0000000 -90.0000000 -3000.0000000 -90.0000000
  1.3300440 -29.3349943 -80.0466828  -0.1202823  -6.1814397 -3000.0000000 -90.0000000 -3000.0000000 -90.0000000
  1.3886175 -28.9799516 -80.9741089  -0.1205665  -6.4510863 -3000.0000000 -90.0000000 -3000.0000000 -90.0000000
  1.4471910 -28.6399990 -81.8421971  -0.1205606  -6.7198835 -3000.0000000 -90.0000000 -3000.0000000 -90.0000000
  1.5057645 -28.3153241 -82.5666123  -0.1202100  -6.9864214 -3000.0000000 -90.0000000 -3000.0000000 -90.0000000
  1.5643381 -28.0008616 -83.3733906  -0.1199478  -7.2510401 -3000.0000000 -90.0000000 -3000.0000000 -90.0000000
  1.6229116 -27.7099405 -84.0702781  -0.1197239  -7.5134277 -3000.0000000 -90.0000000 -3000.0000000 -90.0000000
  1.6814851 -27.4135334 -84.7456877  -0.1193290  -7.7759713 -3000.0000000 -90.0000000 -3000.0000000 -90.0000000
  1.7400586 -27.1173048 -85.4895879  -0.1197509  -8.0326503 -3000.0000000 -90.0000000 -3000.0000000 -90.0000000
  1.7986321 -26.8447897 -86.0657588  -0.1205735  -8.2924970 -3000.0000000 -90.0000000 -3000.0000000 -90.0000000
  1.8572057 -26.5718457 -86.7812565  -0.1215067  -8.5487837 -3000.0000000 -90.0000000 -3000.0000000 -90.0000000
  1.9157792 -26.3197269 -87.3428396  -0.1230566  -8.8033544 -3000.0000000 -90.0000000 -3000.0000000 -90.0000000
  1.9743527 -26.0827311 -87.9909743  -0.1260532  -9.0676377 -3000.0000000 -90.0000000 -3000.0000000 -90.0000000
  2.0329262 -25.8321661 -88.6000230  -0.1298518  -9.3401361 -3000.0000000 -90.0000000 -3000.0000000 -90.0000000
  2.0914998 -25.6076787 -89.0903227  -0.1344475  -9.6206479 -3000.0000000 -90.0000000 -3000.0000000 -90.0000000
  2.1500733 -25.3738815 -89.6226635  -0.1397131  -9.9036003 -3000.0000000 -90.0000000 -3000.0000000 -90.0000000
  2.2086468 -25.1544074 -90.0960552  -0.1453342 -10.1944246 -3000.0000000 -90.0000000 -3000.0000000 -90.0000000
  2.2672203 -24.9415406 -90.6356506  -0.1497141 -10.4862767 -3000.0000000 -90.0000000 -3000.0000000 -90.0000000
  2.3257938 -24.7322508 -91.0328170  -0.1539686 -10.7770692 -3000.0000000 -90.0000000 -3000.0000000 -90.0000000
  2.3843674 -24.5140558 -91.4647139  -0.1571888 -11.0650659 -3000.0000000 -90.0000000 -3000.0000000 -90.0000000
  2.4429409 -24.3193012 -91.9501415  -0.1598702 -11.3491516 -3000.0000000 -90.0000000 -3000.0000000 -90.0000000
  2.5015144 -24.1220945 -92.3782282  -0.1617593 -11.6308540 -3000.0000000 -90.0000000 -3000.0000000 -90.0000000
  2.5600879 -23.9159598 -92.7471843  -0.1627754 -11.9066486 -3000.0000000 -90.0000000 -3000.0000000 -90.0000000
  2.6186615 -23.7287575 -93.2116298  -0.1631692 -12.1809955 -3000.0000000 -90.0000000 -3000.0000000 -90.0000000
  2.6772350 -23.5431167 -93.5882076  -0.1633888 -12.4499157 -3000.0000000 -90.0000000 -3000.0000000 -90.0000000
  2.7358085 -23.3579514 -94.0300153  -0.1631420 -12.7217687 -3000.0000000 -90.0000000 -3000.0000000 -90.0000000
  2.7943820 -23.1745282 -94.4702880  -0.1624856 -12.9931072 -3000.0000000 -90.0000000 -3000.0000000 -90.0000000
  2.8529555 -22.9956006 -94.8818477  -0.1622693 -13.2650422 -3000.0000000 -90.0000000 -3000.0000000 -90.0000000
  2.9115291 -22.8302834 -95.2268151  -0.1611361 -13.5397660 -3000.0000000 -90.0000000 -3000.0000000 -90.0000000
  2.9701026 -22.6559432 -95.6846284  -0.1601237 -13.8101871 -3000.0000000 -90.0000000 -3000.0000000 -90.0000000
  3.0286761 -22.4872079 -96.1053064  -0.1592091 -14.0782745 -3000.0000000 -90.0000000 -3000.0000000 -90.0000000
  3.0872496 -22.3307426 -96.4911021  -0.1592507 -14.3447324 -3000.0000000 -90.0000000 -3000.0000000 -90.0000000
  3.1458232 -22.1762725 -96.9114439  -0.1586186 -14.6105796 -3000.0000000 -90.0000000 -3000.0000000 -90.0000000
  3.2043967 -22.0172084 -97.3085909  -0.1591102 -14.8767118 -3000.0000000 -90.0000000 -3000.0000000 -90.0000000
  3.2629702 -21.8641858 -97.6529085  -0.1589946 -15.1446414 -3000.0000000 -90.0000000 -3000.0000000 -90.0000000
  3.3215437 -21.7224203 -98.0298766  -0.1590209 -15.4125150 -3000.0000000 -90.0000000 -3000.0000000 -90.0000000
  3.3801172 -21.5738628 -98.4232221  -0.1599544 -15.6832354 -3000.0000000 -90.0000000 -3000.0000000 -90.0000000
  3.4386908 -21.4290808 -98.7820691  -0.1610262 -15.9510092 -3000.0000000 -90.0000000 -3000.0000000 -90.0000000
  3.4972643 -21.2948512 -99.1268441  -0.1624555 -16.2202643 -3000.0000000 -90.0000000 -3000.0000000 -90.0000000
  3.5558378 -21.1551168 -99.4929949  -0.1638978 -16.4899568 -3000.0000000 -90.0000000 -3000.0000000 -90.0000000
  3.6144113 -21.0157022 -99.8502796  -0.1649892 -16.7606449 -3000.0000000 -90.0000000 -3000.0000000 -90.0000000
  3.6729849 -20.8773724 -100.2139763  -0.1659406 -17.0318444 -3000.0000000 -90.0000000 -3000.0000000 -90.0000000
  3.7315584 -20.7503474 -100.5841621  -0.1671163 -17.3052749 -3000.0000000 -90.0000000 -3000.0000000 -90.0000000
  3.7901319 -20.6206434 -100.9099791  -0.1679645 -17.5788295 -3000.0000000 -90.0000000 -3000.0000000 -90.0000000
  3.8487054 -20.4890891 -101.2556391  -0.1691765 -17.8508882 -3000.0000000 -90.0000000 -3000.0000000 -90.0000000
  3.9072789 -20.3676386 -101.6180082  -0.1700400 -18.1215958 -3000.0000000 -90.0000000 -3000.0000000 -90.0000000
  3.9658525 -20.2411595 -101.9736155  -0.1710837 -18.3974276 -3000.0000000 -90.0000000 -3000.0000000 -90.0000000
  4.0244260 -20.1218601 -102.3342209  -0.1714095 -18.6672247 -3000.0000000 -90.0000000 -3000.0000000 -90.0000000
  4.0829995 -20.0030029 -102.6775116  -0.1720413 -18.9396686 -3000.0000000 -90.0000000 -3000.0000000 -90.0000000
  4.1415730 -19.8871765 -103.0178470  -0.1726588 -19.2125865 -3000.0000000 -90.0000000 -3000.0000000 -90.0000000
  4.2001466 -19.7699827 -103.3552645  -0.1729917 -19.4836736 -3000.0000000 -90.0000000 -3000.0000000 -90.0000000
  4.2587201 -19.6566917 -103.7026961  -0.1726558 -19.7512619 -3000.0000000 -90.0000000 -3000.0000000 -90.0000000
  4.3172936 -19.5496900 -104.0284245  -0.1723638 -20.0202829 -3000.0000000 -90.0000000 -3000.0000000 -90.0000000
  4.3758671 -19.4359421 -104.3607885  -0.1718871 -20.2838103 -3000.0000000 -90.0000000 -3000.0000000 -90.0000000
  4.4344406 -19.3285922 -104.7300945  -0.1714965 -20.5452467 -3000.0000000 -90.0000000 -3000.0000000 -90.0000000
  4.4930142 -19.2206971 -105.0308170  -0.1712166 -20.8018781 -3000.0000000 -90.0000000 -3000.0000000 -90.0000000
  4.5515877 -19.1184142 -105.3536253  -0.1699081 -21.0507493 -3000.0000000 -90.0000000 -3000.0000000 -90.0000000
  4.6101612 -19.0176730 -105.6567407  -0.1696997 -21.2936922 -3000.0000000 -90.0000000 -3000.0000000 -90.0000000
  4.6687347 -18.9180809 -106.0076386  -0.1692089 -21.5234109 -3000.0000000 -90.0000000 -3000.0000000 -90.0000000
  4.7273083 -18.8177640 -106.3303096  -0.1702153 -21.7465517 -3000.0000000 -90.0000000 -3000.0000000 -90.0000000
  4.7858818 -18.7186103 -106.6279494  -0.1715380 -21.9627040 -3000.0000000 -90.0000000 -3000.0000000 -90.0000000
  4.8444553 -18.6260602 -106.9627847  -0.1753445 -22.1726540 -3000.0000000 -90.0000000 -3000.0000000 -90.0000000
  4.9030288 -18.5239684 -107.2574456  -0.1793003 -22.3827849 -3000.0000000 -90.0000000 -3000.0000000 -90.0000000
  4.9616023 -18.4363208 -107.6007412  -0.1853612 -22.5955104 -3000.0000000 -90.0000000 -3000.0000000 -90.0000000
  5.0201759 -18.3453478 -107.8708716  -0.1914623 -22.8085676 -3000.0000000 -90.0000000 -3000.0000000 -90.0000000
  5.0787494 -18.2534853 -108.2001623  -0.1986947 -23.0308055 -3000.0000000 -90.0000000 -3000.0000000 -90.0000000
  5.1373229 -18.1658647 -108.5147734  -0.2058539 -23.2587773 -3000.0000000 -90.0000000 -3000.0000000 -90.0000000
  5.1958964 -18.0751065 -108.7808461  -0.2130234 -23.4905333 -3000.0000000 -90.0000000 -3000.0000000 -90.0000000
  5.2544700 -17.9888935 -109.0747441  -0.2197790 -23.7341138 -3000.0000000 -90.0000000 -3000.0000000 -90.0000000
  5.3130435 -17.9049286 -109.3689232  -0.2262111 -23.9845275 -3000.0000000 -90.0000000 -3000.0000000 -90.0000000
  5.3716170 -17.8193661 -109.6409961  -0.2319302 -24.2410231 -3000.0000000 -90.0000000 -3000.0000000 -90.0000000
  5.4301905 -17.7334140 -109.9558547  -0.2374514 -24.5102706 -3000.0000000 -90.0000000 -3000.0000000 -90.0000000
  5.4887640 -17.6508057 -110.2302228  -0.2423118 -24.7853696 -3000.0000000 -90.0000000 -3000.0000000 -90.0000000
  5.5473376 -17.5651398 -110.5103357  -0.2467336 -25.0688641 -3000.0000000 -90.0000000 -3000.0000000 -90.0000000
  5.6059111 -17.4812065 -110.8106291  -0.2506665 -25.3626637 -3000.0000000 -90.0000000 -3000.0000000 -90.0000000
  5.6644846 -17.4013996 -111.0701518  -0.2537267 -25.6646536 -3000.0000000 -90.0000000 -3000.0000000 -90.0000000
  5.7230581 -17.3186928 -111.3786212  -0.2564413 -25.9704452 -3000.0000000 -90.0000000 -3000.0000000 -90.0000000
  5.7816317 -17.2385213 -111.6315072  -0.2580992 -26.2823215 -3000.0000000 -90.0000000 -3000.0000000 -90.0000000
  5.8402052 -17.1588148 -111.9389041  -0.2587586 -26.5955741 -3000.0000000 -90.0000000 -3000.0000000 -90.0000000
  5.8987787 -17.0800716 -112.2373366  -0.2591763 -26.9066089 -3000.0000000 -90.0000000 -3000.0000000 -90.0000000
  5.9573522 -16.9995390 -112.5201825  -0.2585302 -27.2187079 -3000.0000000 -90.0000000 -3000.0000000 -90.0000000
  6.0159257 -16.9244529 -112.8125644  -0.2573257 -27.5252916 -3000.0000000 -90.0000000 -3000.0000000 -90.0000000
  6.0744993 -16.8446637 -113.0948488  -0.2564291 -27.8285120 -3000.0000000 -90.0000000 -3000.0000000 -90.0000000
  6.1330728 -16.7689406 -113.3958527  -0.2552518 -28.1282363 -3000.0000000 -90.0000000 -3000.0000000 -90.0000000
  6.1916463 -16.6985344 -113.6833829  -0.2540671 -28.4214466 -3000.0000000 -90.0000000 -3000.0000000 -90.0000000
  6.2502198 -16.6203644 -113.9866274  -0.2537242 -28.7111430 -3000.0000000 -90.0000000 -3000.0000000 -90.0000000
  6.3087934 -16.5501401 -114.2729988  -0.2537672 -28.9976770 -3000.0000000 -90.0000000 -3000.0000000 -90.0000000
  6.3673669 -16.4792231 -114.5993367  -0.2544508 -29.2784952 -3000.0000000 -90.0000000 -3000.0000000 -90.0000000
  6.4259404 -16.4089032 -114.8816177  -0.2552433 -29.5565230 -3000.0000000 -90.0000000 -3000.0000000 -90.0000000
  6.4845139 -16.3413778 -115.1850935  -0.2568762 -29.8328101 -3000.0000000 -90.0000000 -3000.0000000 -90.0000000
  6.5430874 -16.2743170 -115.4559224  -0.2587378 -30.1042732 -3000.0000000 -90.0000000 -3000.0000000 -90.0000000
  6.6016610 -16.2082565 -115.7704090  -0.2605887 -30.3745810 -3000.0000000 -90.0000000 -3000.0000000 -90.0000000
  6.6602345 -16.1432031 -116.0413593  -0.2623916 -30.6419630 -3000.0000000 -90.0000000 -3000.0000000 -90.0000000
  6.7188080 -16.0766354 -116.3431043  -0.2644266 -30.9091088 -3000.0000000 -90.0000000 -3000.0000000 -90.0000000
  6.7773815 -16.0112801 -116.6329031  -0.2666887 -31.1746670 -3000.0000000 -90.0000000 -3000.0000000 -90.0000000
  6.8359551 -15.9470045 -116.9261920  -0.2689362 -31.4378316 -3000.0000000 -90.0000000 -3000.0000000 -90.0000000
  6.8945286 -15.8857079 -117.2161609  -0.2717165 -31.7009844 -3000.0000000 -90.0000000 -3000.0000000 -90.0000000
  6.9531021 -15.8237504 -117.4933337  -0.2738342 -31.9654984 -3000.0000000 -90.0000000 -3000.0000000 -90.0000000
  7.0116756 -15.7645984 -117.7672138  -0.2759385 -32.2248691 -3000.0000000 -90.0000000 -3000.0000000 -90.0000000
  7.0702491 -15.7052412 -118.0680016  -0.2779651 -32.4866565 -3000.0000000 -90.0000000 -3000.0000000 -90.0000000
  7.1288227 -15.6417949 -118.3513731  -0.2801912 -32.7495234 -3000.0000000 -90.0000000 -3000.0000000 -90.0000000
  7.1873962 -15.5844903 -118.6227382  -0.2818420 -33.0125156 -3000.0000000 -90.0000000 -3000.0000000 -90.0000000
  7.2459697 -15.5234418 -118.9148347  -0.2837596 -33.2727407 -3000.0000000 -90.0000000 -3000.0000000 -90.0000000
  7.3045432 -15.4670394 -119.1980210  -0.2862455 -33.5381743 -3000.0000000 -90.0000000 -3000.0000000 -90.0000000
  7.3631168 -15.4077508 -119.4809839  -0.2880317 -33.7994090 -3000.0000000 -90.0000000 -3000.0000000 -90.0000000
  7.4216903 -15.3531736 -119.7719914  -0.2900909 -34.0623273 -3000.0000000 -90.0000000 -3000.0000000 -90.0000000
  7.4802638 -15.2942120 -120.0375465  -0.2917095 -34.3237255 -3000.0000000 -90.0000000 -3000.0000000 -90.0000000
  7.5388373 -15.2411552 -120.3254951  -0.2935343 -34.5856875 -3000.0000000 -90.0000000 -3000.0000000 -90.0000000
  7.5974108 -15.1839906 -120.6049977  -0.2951619 -34.8468330 -3000.0000000 -90.0000000 -3000.0000000 -90.0000000
  7.6559844 -15.1318303 -120.8872208  -0.2971511 -35.1116594 -3000.0000000 -90.0000000 -3000.0000000 -90.0000000
  7.7145579 -15.0792432 -121.1679516  -0.2985680 -35.3772051 -3000.0000000 -90.0000000 -3000.0000000 -90.0000000
  7.7731314 -15.0225376 -121.4582306  -0.3005438 -35.6402361 -3000.0000000 -90.0000000 -3000.0000000 -90.0000000
  7.8317049 -14.9702768 -121.7417411  -0.3024902 -35.9030411 -3000.0000000 -90.0000000 -3000.0000000 -90.0000000
  7.8902785 -14.9227290 -122.0242904  -0.3041719 -36.1660157 -3000.0000000 -90.0000000 -3000.0000000 -90.0000000
  7.9488520 -14.8674869 -122.3000628  -0.3060568 -36.4289853 -3000.0000000 -90.0000000 -3000.0000000 -90.0000000
  8.0074255 -14.8194615 -122.5816836  -0.3085274 -36.6939725 -3000.0000000 -90.0000000 -3000.0000000 -90.0000000
  8.0659990 -14.7695238 -122.8585744  -0.3107681 -36.9554175 -3000.0000000 -90.0000000 -3000.0000000 -90.0000000
  8.1245725 -14.7195603 -123.1379490  -0.3126078 -37.2207663 -3000.0000000 -90.0000000 -3000.0000000 -90.0000000
  8.1831461 -14.6693838 -123.4244282  -0.3148396 -37.4857551 -3000.0000000 -90.0000000 -3000.0000000 -90.0000000
  8.2417196 -14.6234505 -123.6933616  -0.3172182 -37.7476252 -3000.0000000 -90.0000000 -3000.0000000 -90.0000000
  8.3002931 -14.5754023 -123.9634017  -0.3197989 -38.0110026 -3000.0000000 -90.0000000 -3000.0000000 -90.0000000
  8.3588666 -14.5289691 -124.2374473  -0.3224754 -38.2739677 -3000.0000000 -90.0000000 -3000.0000000 -90.0000000
  8.4174402 -14.4862754 -124.5191036  -0.3247452 -38.5377899 -3000.0000000 -90.0000000 -3000.0000000 -90.0000000
  8.4760137 -14.4371641 -124.8037828  -0.3277222 -38.7990419 -3000.0000000 -90.0000000 -3000.0000000 -90.0000000
  8.5345872 -14.3920304 -125.0630201  -0.3304674 -39.0600481 -3000.0000000 -90.0000000 -3000.0000000 -90.0000000
  8.5931607 -14.3482124 -125.3279101  -0.3330703 -39.3214729 -3000.0000000 -90.0000000 -3000.0000000 -90.0000000
  8.6517342 -14.3068836 -125.6019351  -0.3360397 -39.5807741 -3000.0000000 -90.0000000 -3000.0000000 -90.0000000
  8.7103078 -14.2608439 -125.8840369  -0.3390545 -39.8412790 -3000.0000000 -90.0000000 -3000.0000000 -90.0000000
  8.7688813 -14.2159602 -126.1398301  -0.3418212 -40.1020673 -3000.0000000 -90.0000000 -3000.0000000 -90.0000000
  8.8274548 -14.1738893 -126.4141235  -0.3445545 -40.3625642 -3000.0000000 -90.0000000 -3000.0000000 -90.0000000
  8.8860283 -14.1332655 -126.6840871  -0.3473247 -40.6224645 -3000.0000000 -90.0000000 -3000.0000000 -90.0000000
  8.9446019 -14.0934517 -126.9551233  -0.3508268 -40.8812287 -3000.0000000 -90.0000000 -3000.0000000 -90.0000000
  9.0031754 -14.0493490 -127.2155978  -0.3540646 -41.1398226 -3000.0000000 -90.0000000 -3000.0000000 -90.0000000
  9.0617489 -14.0083919 -127.4782900  -0.3565101 -41.3977729 -3000.0000000 -90.0000000 -3000.0000000 -90.0000000
  9.1203224 -13.9696664 -127.7511869  -0.3592968 -41.6565040 -3000.0000000 -90.0000000 -3000.0000000 -90.0000000
  9.1788959 -13.9303923 -128.0017358  -0.3622170 -41.9131541 -3000.0000000 -90.0000000 -3000.0000000 -90.0000000
  9.2374695 -13.8889383 -128.2729289  -0.3651145 -42.1720045 -3000.0000000 -90.0000000 -3000.0000000 -90.0000000
  9.2960430 -13.8504426 -128.5322236  -0.3679642 -42.4316951 -3000.0000000 -90.0000000 -3000.0000000 -90.0000000
  9.3546165 -13.8124184 -128.7903842  -0.3711358 -42.6889946 -3000.0000000 -90.0000000 -3000.0000000 -90.0000000
  9.4131900 -13.7725228 -129.0554911  -0.3741722 -42.9464519 -3000.0000000 -90.0000000 -3000.0000000 -90.0000000
  9.4717636 -13.7337471 -129.3061731  -0.3768199 -43.2024737 -3000.0000000 -90.0000000 -3000.0000000 -90.0000000
  9.5303371 -13.6977131 -129.5707854  -0.3795050 -43.4585958 -3000.0000000 -90.0000000 -3000.0000000 -90.0000000
  9.5889106 -13.6608755 -129.8384924  -0.3822821 -43.7162311 -3000.0000000 -90.0000000 -3000.0000000 -90.0000000
  9.6474841 -13.6234053 -130.1068880  -0.3849438 -43.9701970 -3000.0000000 -90.0000000 -3000.0000000 -90.0000000
  9.7060576 -13.5859058 -130.3602628  -0.3876944 -44.2299415 -3000.0000000 -90.0000000 -3000.0000000 -90.0000000
  9.7646312 -13.5504205 -130.6191552  -0.3902904 -44.4863375 -3000.0000000 -90.0000000 -3000.0000000 -90.0000000
  9.8232047 -13.5155448 -130.8789823  -0.3926978 -44.7423339 -3000.0000000 -90.0000000 -3000.0000000 -90.0000000
  9.8817782 -13.4776657 -131.1495133  -0.3954099 -44.9960792 -3000.0000000 -90.0000000 -3000.0000000 -90.0000000
  9.9403517 -13.4433656 -131.3927860  -0.3981395 -45.2523347 -3000.0000000 -90.0000000 -3000.0000000 -90.0000000
  9.9989253 -13.4072530 -131.6521176  -0.4008414 -45.5090665 -3000.0000000 -90.0000000 -3000.0000000 -90.0000000
 10.0574988 -13.3740119 -131.9139425  -0.4034076 -45.7631656 -3000.0000000 -90.0000000 -3000.0000000 -90.0000000
 10.1160723 -13.3377445 -132.1979210  -0.4052792 -46.0226121 -3000.0000000 -90.0000000 -3000.0000000 -90.0000000
 10.1746458 -13.3050340 -132.4330632  -0.4076837 -46.2797038 -3000.0000000 -90.0000000 -3000.0000000 -90.0000000
 10.2332193 -13.2707632 -132.7017809  -0.4098839 -46.5350434 -3000.0000000 -90.0000000 -3000.0000000 -90.0000000
 10.2917929 -13.2396453 -132.9683460  -0.4120663 -46.7924004 -3000.0000000 -90.0000000 -3000.0000000 -90.0000000
