! ListType=Lin
# MHZ S DB R 50
  0.0100000 -47.9998081 -179.0123739  -0.0030773  -0.0168562 -3000.0000000 -90.0000000 -3000.0000000 -90.0000000
  0.6450708 -48.4066266 173.5821364  -0.0028677  -0.1556322 -3000.0000000 -90.0000000 -3000.0000000 -90.0000000
  1.2801417 -48.8526808 169.2644039  -0.0042161  -0.3054714 -3000.0000000 -90.0000000 -3000.0000000 -90.0000000
  1.9152125 -49.2466173 167.0388371  -0.0053016  -0.4491066 -3000.0000000 -90.0000000 -3000.0000000 -90.0000000
  2.5502833 -49.5392190 165.0994430  -0.0065514  -0.5862086 -3000.0000000 -90.0000000 -3000.0000000 -90.0000000
  3.1853542 -49.8387731 163.2301435  -0.0071366  -0.7307617 -3000.0000000 -90.0000000 -3000.0000000 -90.0000000
  3.8204250 -49.8551761 161.1364468  -0.0077213  -0.8688820 -3000.0000000 -90.0000000 -3000.0000000 -90.0000000
  4.4554958 -49.9655939 159.7159977  -0.0083332  -1.0106687 -3000.0000000 -90.0000000 -3000.0000000 -90.0000000
  5.0905667 -50.3938475 156.5967006  -0.0087554  -1.1527951 -3000.0000000 -90.0000000 -3000.0000000 -90.0000000
  5.7256375 -50.4387718 156.8251836  -0.0094689  -1.2907290 -3000.0000000 -90.0000000 -3000.0000000 -90.0000000
  6.3607084 -50.5598700 154.6431102  -0.0100496  -1.4309187 -3000.0000000 -90.0000000 -3000.0000000 -90.0000000
  6.9957792 -50.6149253 154.0199578  -0.0106599  -1.5702014 -3000.0000000 -90.0000000 -3000.0000000 -90.0000000
  7.6308500 -50.6529407 151.2150294  -0.0109958  -1.7098512 -3000.0000000 -90.0000000 -3000.0000000 -90.0000000
  8.2659209 -50.6594332 149.7007578  -0.0115195  -1.8501288 -3000.0000000 -90.0000000 -3000.0000000 -90.0000000
  8.9009917 -50.8649769 149.2110936  -0.0121123  -1.9883520 -3000.0000000 -90.0000000 -3000.0000000 -90.0000000
  9.5360625 -50.9562195 146.0367218  -0.0123804  -2.1259926 -3000.0000000 -90.0000000 -3000.0000000 -90.0000000
 10.1711334 -51.0006612 146.2234000  -0.0132031  -2.2672573 -3000.0000000 -90.0000000 -3000.0000000 -90.0000000
 10.8062042 -51.2128763 144.6918669  -0.0133942  -2.4048415 -3000.0000000 -90.0000000 -3000.0000000 -90.0000000
 11.4412750 -51.1325749 143.0271213  -0.0138681  -2.5431182 -3000.0000000 -90.0000000 -3000.0000000 -90.0000000
 12.0763459 -51.2032457 140.9416092  -0.0143755  -2.6818403 -3000.0000000 -90.0000000 -3000.0000000 -90.0000000
 12.7114167 -51.2370435 139.8580022  -0.0145847  -2.8212538 -3000.0000000 -90.0000000 -3000.0000000 -90.0000000
 13.3464875 -51.3199671 138.1504857  -0.0149647  -2.9597855 -3000.0000000 -90.0000000 -3000.0000000 -90.0000000
 13.9815584 -51.4549268 136.2617009  -0.0152473  -3.0967453 -3000.0000000 -90.0000000 -3000.0000000 -90.0000000
 14.6166292 -51.3253028 134.1677304  -0.0160955  -3.2358501 -3000.0000000 -90.0000000 -3000.0000000 -90.0000000
 15.2517000 -51.4134904 133.2266276  -0.0164907  -3.3748898 -3000.0000000 -90.0000000 -3000.0000000 -90.0000000
 15.8867709 -51.4992004 132.0906218  -0.0168224  -3.5110688 -3000.0000000 -90.0000000 -3000.0000000 -90.0000000
 16.5218417 -51.4499493 129.9941618  -0.0174601  -3.6505104 -3000.0000000 -90.0000000 -3000.0000000 -90.0000000
 17.1569126 -51.4606315 129.4225514  -0.0175997  -3.7895907 -3000.0000000 -90.0000000 -3000.0000000 -90.0000000
 17.7919834 -51.3774782 126.3208261  -0.0177844  -3.9280477 -3000.0000000 -90.0000000 -3000.0000000 -90.0000000
 18.4270542 -51.6490923 125.7202451  -0.0183342  -4.0647545 -3000.0000000 -90.0000000 -3000.0000000 -90.0000000
 19.0621251 -51.4337409 123.9066185  -0.0184601  -4.2028696 -3000.0000000 -90.0000000 -3000.0000000 -90.0000000
 19.6971959 -51.6546368 121.8666311  -0.0187266  -4.3419779 -3000.0000000 -90.0000000 -3000.0000000 -90.0000000
 20.3322667 -51.7079676 120.0773048  -0.0191988  -4.4784684 -3000.0000000 -90.0000000 -3000.0000000 -90.0000000
 20.9673376 -51.4515746 119.3945423  -0.0193916  -4.6166237 -3000.0000000 -90.0000000 -3000.0000000 -90.0000000
 21.6024084 -51.5983703 118.4334232  -0.0193647  -4.7575325 -3000.0000000 -90.0000000 -3000.0000000 -90.0000000
 22.2374792 -51.5909746 116.6443839  -0.0201811  -4.8916086 -3000.0000000 -90.0000000 -3000.0000000 -90.0000000
 22.8725501 -51.5990232 114.9073131  -0.0202271  -5.0301198 -3000.0000000 -90.0000000 -3000.0000000 -90.0000000
 23.5076209 -51.6016998 112.5693827  -0.0210655  -5.1686093 -3000.0000000 -90.0000000 -3000.0000000 -90.0000000
 24.1426917 -51.7983669 111.8261674  -0.0212010  -5.3072897 -3000.0000000 -90.0000000 -3000.0000000 -90.0000000
 24.7777626 -51.5732251 110.3926828  -0.0216731  -5.4429824 -3000.0000000 -90.0000000 -3000.0000000 -90.0000000
 25.4128334 -51.5653595 107.9482144  -0.0219365  -5.5819315 -3000.0000000 -90.0000000 -3000.0000000 -90.0000000
 26.0479043 -51.4706821 106.2651985  -0.0221127  -5.7197455 -3000.0000000 -90.0000000 -3000.0000000 -90.0000000
 26.6829751 -51.5063429 105.2522495  -0.0232254  -5.8558841 -3000.0000000 -90.0000000 -3000.0000000 -90.0000000
 27.3180459 -51.5691579 104.1164122  -0.0226673  -5.9956996 -3000.0000000 -90.0000000 -3000.0000000 -90.0000000
 27.9531168 -51.5490388 101.3458300  -0.0231345  -6.1303922 -3000.0000000 -90.0000000 -3000.0000000 -90.0000000
 28.5881876 -51.5850374 101.2323299  -0.0239343  -6.2688942 -3000.0000000 -90.0000000 -3000.0000000 -90.0000000
 29.2232584 -51.4289367  98.7526832  -0.0242490  -6.4064232 -3000.0000000 -90.0000000 -3000.0000000 -90.0000000
 29.8583293 -51.4573468  97.4551531  -0.0242351  -6.5462756 -3000.0000000 -90.0000000 -3000.0000000 -90.0000000
 30.4934001 -51.5201974  96.2228491  -0.0244637  -6.6821590 -3000.0000000 -90.0000000 -3000.0000000 -90.0000000
 31.1284709 -51.2199897  93.5400417  -0.0249855  -6.8197133 -3000.0000000 -90.0000000 -3000.0000000 -90.0000000
 31.7635418 -51.3614691  92.6462219  -0.0255612  -6.9557663 -3000.0000000 -90.0000000 -3000.0000000 -90.0000000
 32.3986126 -51.2420074  91.7448938  -0.0256686  -7.0938806 -3000.0000000 -90.0000000 -3000.0000000 -90.0000000
 33.0336834 -51.2385995  89.9966817  -0.0256747  -7.2322938 -3000.0000000 -90.0000000 -3000.0000000 -90.0000000
 33.6687543 -51.2591967  88.2320574  -0.0260537  -7.3681300 -3000.0000000 -90.0000000 -3000.0000000 -90.0000000
 34.3038251 -50.9498757  87.0071532  -0.0264317  -7.5056996 -3000.0000000 -90.0000000 -3000.0000000 -90.0000000
 34.9388959 -50.9231069  84.5244139  -0.0266031  -7.6424815 -3000.0000000 -90.0000000 -3000.0000000 -90.0000000
 35.5739668 -51.0192750  83.4690475  -0.0269261  -7.7828125 -3000.0000000 -90.0000000 -3000.0000000 -90.0000000
 36.2090376 -50.9977614  82.6278232  -0.0269856  -7.9175771 -3000.0000000 -90.0000000 -3000.0000000 -90.0000000
 36.8441085 -50.8685085  81.3814058  -0.0276142  -8.0535429 -3000.0000000 -90.0000000 -3000.0000000 -90.0000000
 37.4791793 -50.6909331  79.1015546  -0.0274309  -8.1914947 -3000.0000000 -90.0000000 -3000.0000000 -90.0000000
 38.1142501 -50.5420969  77.4072275  -0.0276590  -8.3310749 -3000.0000000 -90.0000000 -3000.0000000 -90.0000000
 38.7493210 -50.4824917  76.0756172  -0.0282848  -8.4672658 -3000.0000000 -90.0000000 -3000.0000000 -90.0000000
 39.3843918 -50.5233154  74.7238819  -0.0286552  -8.6035502 -3000.0000000 -90.0000000 -3000.0000000 -90.0000000
 40.0194626 -50.3944426  73.7959665  -0.0285539  -8.7399711 -3000.0000000 -90.0000000 -3000.0000000 -90.0000000
 40.6545335 -50.2716306  71.4085996  -0.0291357  -8.8787384 -3000.0000000 -90.0000000 -3000.0000000 -90.0000000
 41.2896043 -50.2782197  69.8854452  -0.0296467  -9.0146715 -3000.0000000 -90.0000000 -3000.0000000 -90.0000000
 41.9246751 -50.3212861  69.0331166  -0.0298398  -9.1544939 -3000.0000000 -90.0000000 -3000.0000000 -90.0000000
 42.5597460 -50.0119219  67.8832480  -0.0302159  -9.2910016 -3000.0000000 -90.0000000 -3000.0000000 -90.0000000
 43.1948168 -50.0594864  66.2818524  -0.0303638  -9.4290434 -3000.0000000 -90.0000000 -3000.0000000 -90.0000000
 43.8298876 -49.8263530  65.1442268  -0.0307104  -9.5638129 -3000.0000000 -90.0000000 -3000.0000000 -90.0000000
 44.4649585 -49.7560499  63.7174940  -0.0308951  -9.7017066 -3000.0000000 -90.0000000 -3000.0000000 -90.0000000
 45.1000293 -49.5971294  61.8923176  -0.0313413  -9.8388012 -3000.0000000 -90.0000000 -3000.0000000 -90.0000000
 45.7351001 -49.5619351  61.7076381  -0.0323752  -9.9773819 -3000.0000000 -90.0000000 -3000.0000000 -90.0000000
 46.3701710 -49.4428247  60.2712325  -0.0329865 -10.1002655 -3000.0000000 -90.0000000 -3000.0000000 -90.0000000
 47.0052418 -49.3581622  58.0365025  -0.0326541 -10.2398749 -3000.0000000 -90.0000000 -3000.0000000 -90.0000000
 47.6403127 -49.2602339  57.7999091  -0.0307359 -10.3843886 -3000.0000000 -90.0000000 -3000.0000000 -90.0000000
 48.2753835 -49.1645290  56.2149291  -0.0316763 -10.5231446 -3000.0000000 -90.0000000 -3000.0000000 -90.0000000
 48.9104543 -49.0685848  54.8783405  -0.0312393 -10.6572821 -3000.0000000 -90.0000000 -3000.0000000 -90.0000000
 49.5455252 -48.9907347  53.8706246  -0.0316985 -10.7964339 -3000.0000000 -90.0000000 -3000.0000000 -90.0000000
 50.1805960 -48.9462324  52.4615591  -0.0318951 -10.9310504 -3000.0000000 -90.0000000 -3000.0000000 -90.0000000
 50.8156668 -48.7640311  51.3303849  -0.0322582 -11.0708784 -3000.0000000 -90.0000000 -3000.0000000 -90.0000000
 51.4507377 -48.6038888  50.2205165  -0.0327430 -11.2072839 -3000.0000000 -90.0000000 -3000.0000000 -90.0000000
 52.0858085 -48.5326562  49.1084841  -0.0327768 -11.3429454 -3000.0000000 -90.0000000 -3000.0000000 -90.0000000
 52.7208793 -48.4401809  47.5824712  -0.0328516 -11.4818437 -3000.0000000 -90.0000000 -3000.0000000 -90.0000000
 53.3559502 -48.2202013  46.5459593  -0.0338342 -11.6148527 -3000.0000000 -90.0000000 -3000.0000000 -90.0000000
 53.9910210 -48.2830453  46.1151222  -0.0339435 -11.7564294 -3000.0000000 -90.0000000 -3000.0000000 -90.0000000
 54.6260918 -48.0118031  45.1801258  -0.0341983 -11.8889101 -3000.0000000 -90.0000000 -3000.0000000 -90.0000000
 55.2611627 -48.0261794  43.4097857  -0.0344875 -12.0242665 -3000.0000000 -90.0000000 -3000.0000000 -90.0000000
 55.8962335 -47.8840276  42.4835306  -0.0348773 -12.1641414 -3000.0000000 -90.0000000 -3000.0000000 -90.0000000
 56.5313043 -47.7535500  41.2901593  -0.0354711 -12.2997849 -3000.0000000 -90.0000000 -3000.0000000 -90.0000000
 57.1663752 -47.6821218  40.5217896  -0.0353418 -12.4396483 -3000.0000000 -90.0000000 -3000.0000000 -90.0000000
 57.8014460 -47.6019489  39.6403827  -0.0364587 -12.5726371 -3000.0000000 -90.0000000 -3000.0000000 -90.0000000
 58.4365169 -47.3675693  38.0865419  -0.0361160 -12.7097595 -3000.0000000 -90.0000000 -3000.0000000 -90.0000000
 59.0715877 -47.3535512  37.0868914  -0.0367955 -12.8479784 -3000.0000000 -90.0000000 -3000.0000000 -90.0000000
 59.7066585 -47.1591504  36.4623418  -0.0372964 -12.9849279 -3000.0000000 -90.0000000 -3000.0000000 -90.0000000
 60.3417294 -47.1493282  35.6124028  -0.0371317 -13.1187768 -3000.0000000 -90.0000000 -3000.0000000 -90.0000000
 60.9768002 -47.0177634  33.9713647  -0.0378008 -13.2572989 -3000.0000000 -90.0000000 -3000.0000000 -90.0000000
 61.6118710 -46.8251472  33.7733073  -0.0382203 -13.3967525 -3000.0000000 -90.0000000 -3000.0000000 -90.0000000
 62.2469419 -46.7094429  32.1687702  -0.0388055 -13.5311022 -3000.0000000 -90.0000000 -3000.0000000 -90.0000000
 62.8820127 -46.5910894  31.6906952  -0.0392343 -13.6656517 -3000.0000000 -90.0000000 -3000.0000000 -90.0000000
 63.5170835 -46.5136829  30.4118784  -0.0393907 -13.8037633 -3000.0000000 -90.0000000 -3000.0000000 -90.0000000
 64.1521544 -46.3424603  30.0498785  -0.0401732 -13.9389842 -3000.0000000 -90.0000000 -3000.0000000 -90.0000000
 64.7872252 -46.1632599  28.7096242  -0.0400542 -14.0798062 -3000.0000000 -90.0000000 -3000.0000000 -90.0000000
 65.4222960 -46.0984605  28.1093344  -0.0408681 -14.2126491 -3000.0000000 -90.0000000 -3000.0000000 -90.0000000
 66.0573669 -45.9890403  27.7317144  -0.0409699 -14.3516503 -3000.0000000 -90.0000000 -3000.0000000 -90.0000000
 66.6924377 -45.8303434  26.5317647  -0.0413698 -14.4902338 -3000.0000000 -90.0000000 -3000.0000000 -90.0000000
 67.3275085 -45.7888371  25.6534470  -0.0418767 -14.6243938 -3000.0000000 -90.0000000 -3000.0000000 -90.0000000
 67.9625794 -45.6368114  24.9278684  -0.0420757 -14.7604725 -3000.0000000 -90.0000000 -3000.0000000 -90.0000000
 68.5976502 -45.5316645  24.2413509  -0.0421035 -14.8981349 -3000.0000000 -90.0000000 -3000.0000000 -90.0000000
 69.2327211 -45.3442701  23.0763223  -0.0423591 -15.0351656 -3000.0000000 -90.0000000 -3000.0000000 -90.0000000
 69.8677919 -45.2069506  22.7708617  -0.0431222 -15.1717725 -3000.0000000 -90.0000000 -3000.0000000 -90.0000000
 70.5028627 -45.1389719  22.1250734  -0.0434568 -15.3089731 -3000.0000000 -90.0000000 -3000.0000000 -90.0000000
 71.1379336 -45.0373284  20.6807776  -0.0437661 -15.4479094 -3000.0000000 -90.0000000 -3000.0000000 -90.0000000
 71.7730044 -44.8801716  20.0271380  -0.0450536 -15.5819376 -3000.0000000 -90.0000000 -3000.0000000 -90.0000000
 72.4080752 -44.8227127  19.9613050  -0.0452716 -15.7102578 -3000.0000000 -90.0000000 -3000.0000000 -90.0000000
 73.0431461 -44.7512047  19.3642030  -0.0449110 -15.8495460 -3000.0000000 -90.0000000 -3000.0000000 -90.0000000
 73.6782169 -44.5797034  17.9170695  -0.0455498 -15.9849036 -3000.0000000 -90.0000000 -3000.0000000 -90.0000000
 74.3132877 -44.4647882  17.6892485  -0.0461377 -16.1226513 -3000.0000000 -90.0000000 -3000.0000000 -90.0000000
 74.9483586 -44.3692079  17.0267632  -0.0463621 -16.2574741 -3000.0000000 -90.0000000 -3000.0000000 -90.0000000
 75.5834294 -44.1871741  15.9757144  -0.0469665 -16.3922394 -3000.0000000 -90.0000000 -3000.0000000 -90.0000000
 76.2185002 -44.0919213  15.4086394  -0.0468740 -16.5315385 -3000.0000000 -90.0000000 -3000.0000000 -90.0000000
 76.8535711 -43.9875538  14.7959081  -0.0473285 -16.6680610 -3000.0000000 -90.0000000 -3000.0000000 -90.0000000
 77.4886419 -43.9159105  14.0970752  -0.0477691 -16.8065606 -3000.0000000 -90.0000000 -3000.0000000 -90.0000000
 78.1237128 -43.7323390  13.5189188  -0.0477933 -16.9414623 -3000.0000000 -90.0000000 -3000.0000000 -90.0000000
 78.7587836 -43.6213248  12.6959086  -0.0483175 -17.0758431 -3000.0000000 -90.0000000 -3000.0000000 -90.0000000
 79.3938544 -43.5039087  12.0071109  -0.0488782 -17.2166090 -3000.0000000 -90.0000000 -3000.0000000 -90.0000000
 80.0289253 -43.4176842  11.6603265  -0.0487707 -17.3514693 -3000.0000000 -90.0000000 -3000.0000000 -90.0000000
 80.6639961 -43.3397847  10.6844894  -0.0492701 -17.4899121 -3000.0000000 -90.0000000 -3000.0000000 -90.0000000
 81.2990669 -43.2101653  10.1658272  -0.0498257 -17.6253253 -3000.0000000 -90.0000000 -3000.0000000 -90.0000000
 81.9341378 -43.0573775   9.2333028  -0.0498989 -17.7631634 -3000.0000000 -90.0000000 -3000.0000000 -90.0000000
 82.5692086 -42.9417663   8.9395805  -0.0504449 -17.8957956 -3000.0000000 -90.0000000 -3000.0000000 -90.0000000
 83.2042794 -42.8558084   8.3555426  -0.0506209 -18.0341429 -3000.0000000 -90.0000000 -3000.0000000 -90.0000000
 83.8393503 -42.7771628   7.9414325  -0.0509632 -18.1697522 -3000.0000000 -90.0000000 -3000.0000000 -90.0000000
 84.4744211 -42.6589926   7.1902018  -0.0512829 -18.3105583 -3000.0000000 -90.0000000 -3000.0000000 -90.0000000
 85.1094919 -42.4744736   6.1091043  -0.0520477 -18.4441963 -3000.0000000 -90.0000000 -3000.0000000 -90.0000000
 85.7445628 -42.4300716   5.9149450  -0.0526122 -18.5802781 -3000.0000000 -90.0000000 -3000.0000000 -90.0000000
 86.3796336 -42.3821163   5.3564826  -0.0533671 -18.7157881 -3000.0000000 -90.0000000 -3000.0000000 -90.0000000
 87.0147044 -42.2186980   4.7277051  -0.0533430 -18.8511059 -3000.0000000 -90.0000000 -3000.0000000 -90.0000000
 87.6497753 -42.0917271   4.1402514  -0.0536799 -18.9901944 -3000.0000000 -90.0000000 -3000.0000000 -90.0000000
 88.2848461 -41.9950073   3.5895084  -0.0536181 -19.1225664 -3000.0000000 -90.0000000 -3000.0000000 -90.0000000
 88.9199170 -41.9526494   3.0983168  -0.0549167 -19.2637598 -3000.0000000 -90.0000000 -3000.0000000 -90.0000000
 89.5549878 -41.8434980   2.9336444  -0.0542087 -19.3984317 -3000.0000000 -90.0000000 -3000.0000000 -90.0000000
 90.1900586 -41.7355658   1.9285257  -0.0554856 -19.5339258 -3000.0000000 -90.0000000 -3000.0000000 -90.0000000
 90.8251295 -41.6049234   2.0712983  -0.0555238 -19.6712856 -3000.0000000 -90.0000000 -3000.0000000 -90.0000000
 91.4602003 -41.4502234   1.0666652  -0.0563532 -19.8039114 -3000.0000000 -90.0000000 -3000.0000000 -90.0000000
 92.0952711 -41.3827280   0.5015913  -0.0565445 -19.9436964 -3000.0000000 -90.0000000 -3000.0000000 -90.0000000
 92.7303420 -41.3017521   0.1968204  -0.0570345 -20.0789341 -3000.0000000 -90.0000000 -3000.0000000 -90.0000000
 93.3654128 -41.2117700  -0.4580525  -0.0575626 -20.2144569 -3000.0000000 -90.0000000 -3000.0000000 -90.0000000
 94.0004836 -41.0803321  -1.0435588  -0.0582606 -20.3502799 -3000.0000000 -90.0000000 -3000.0000000 -90.0000000
 94.6355545 -41.0088364  -1.4344642  -0.0583719 -20.4888922 -3000.0000000 -90.0000000 -3000.0000000 -90.0000000
 95.2706253 -40.9048944  -2.3183862  -0.0595056 -20.6080709 -3000.0000000 -90.0000000 -3000.0000000 -90.0000000
 95.9056961 -40.7973905  -2.6986149  -0.0599710 -20.7478597 -3000.0000000 -90.0000000 -3000.0000000 -90.0000000
 96.5407670 -40.7119550  -3.0662382  -0.0598525 -20.8863065 -3000.0000000 -90.0000000 -3000.0000000 -90.0000000
 97.1758378 -40.5674261  -3.9538599  -0.0606174 -21.0192541 -3000.0000000 -90.0000000 -3000.0000000 -90.0000000
 97.8109086 -40.4888743  -4.0054475  -0.0609198 -21.1638464 -3000.0000000 -90.0000000 -3000.0000000 -90.0000000
 98.4459795 -40.4278818  -4.7465143  -0.0607167 -21.2985387 -3000.0000000 -90.0000000 -3000.0000000 -90.0000000
 99.0810503 -40.2811143  -4.9502511  -0.0621502 -21.4315552 -3000.0000000 -90.0000000 -3000.0000000 -90.0000000
 99.7161212 -40.2431065  -5.6136730  -0.0625557 -21.5706062 -3000.0000000 -90.0000000 -3000.0000000 -90.0000000
100.3511920 -40.1182280  -6.0413871  -0.0629895 -21.7041449 -3000.0000000 -90.0000000 -3000.0000000 -90.0000000
100.9862628 -40.0146290  -6.5692728  -0.0635325 -21.8362125 -3000.0000000 -90.0000000 -3000.0000000 -90.0000000
101.6213337 -39.9062157  -7.0877621  -0.0646247 -21.9726892 -3000.0000000 -90.0000000 -3000.0000000 -90.0000000
102.2564045 -39.7933140  -7.7252367  -0.0640716 -22.1173945 -3000.0000000 -90.0000000 -3000.0000000 -90.0000000
102.8914753 -39.7293745  -7.9278815  -0.0652948 -22.2490381 -3000.0000000 -90.0000000 -3000.0000000 -90.0000000
103.5265462 -39.6341016  -8.3223111  -0.0655837 -22.3869333 -3000.0000000 -90.0000000 -3000.0000000 -90.0000000
104.1616170 -39.5276260  -8.7092516  -0.0658815 -22.5225601 -3000.0000000 -90.0000000 -3000.0000000 -90.0000000
104.7966878 -39.4367647  -9.2578471  -0.0665576 -22.6578447 -3000.0000000 -90.0000000 -3000.0000000 -90.0000000
105.4317587 -39.3920263  -9.4798532  -0.0668407 -22.7913103 -3000.0000000 -90.0000000 -3000.0000000 -90.0000000
106.0668295 -39.2671317 -10.0141592  -0.0668626 -22.9290487 -3000.0000000 -90.0000000 -3000.0000000 -90.0000000
106.7019003 -39.1506243 -10.6957795  -0.0671449 -23.0644128 -3000.0000000 -90.0000000 -3000.0000000 -90.0000000
107.3369712 -39.0875294 -11.0306249  -0.0680614 -23.2004882 -3000.0000000 -90.0000000 -3000.0000000 -90.0000000
107.9720420 -38.9526127 -11.5965729  -0.0684901 -23.3354960 -3000.0000000 -90.0000000 -3000.0000000 -90.0000000
108.6071128 -38.8829898 -11.9790563  -0.0688010 -23.4722273 -3000.0000000 -90.0000000 -3000.0000000 -90.0000000
109.2421837 -38.7856895 -12.3501044  -0.0695332 -23.6040948 -3000.0000000 -90.0000000 -3000.0000000 -90.0000000
109.8772545 -38.7109079 -12.8664672  -0.0700992 -23.7427824 -3000.0000000 -90.0000000 -3000.0000000 -90.0000000
110.5123254 -38.5868191 -13.2070485  -0.0706169 -23.8877302 -3000.0000000 -90.0000000 -3000.0000000 -90.0000000
111.1473962 -38.5077565 -13.6332547  -0.0704136 -24.0186001 -3000.0000000 -90.0000000 -3000.0000000 -90.0000000
