! ListType=Lin
# MHZ S DB R 50
 40.0000000  -4.0759423 151.8986460 -56.5111743 -130.4337977 -3000.0000000 -90.0000000 -3000.0000000 -90.0000000
 40.0586224  -4.0759049 151.8382168 -56.4605529 -130.4960526 -3000.0000000 -90.0000000 -3000.0000000 -90.0000000
 40.1172447  -4.0771677 151.7747198 -56.4014473 -130.5708137 -3000.0000000 -90.0000000 -3000.0000000 -90.0000000
 40.1758671  -4.0766501 151.7189932 -56.3419467 -130.6410277 -3000.0000000 -90.0000000 -3000.0000000 -90.0000000
 40.2344895  -4.0775648 151.6588020 -56.2754953 -130.6690381 -3000.0000000 -90.0000000 -3000.0000000 -90.0000000
 40.2931119  -4.0772061 151.6038212 -56.2294523 -130.6054720 -3000.0000000 -90.0000000 -3000.0000000 -90.0000000
 40.3517342  -4.0771690 151.5445562 -56.1971215 -130.7872345 -3000.0000000 -90.0000000 -3000.0000000 -90.0000000
 40.4103566  -4.0773869 151.4795932 -56.1360949 -130.8609639 -3000.0000000 -90.0000000 -3000.0000000 -90.0000000
 40.4689790  -4.0773395 151.4323732 -56.0724254 -130.9460427 -3000.0000000 -90.0000000 -3000.0000000 -90.0000000
 40.5276014  -4.0772524 151.3622803 -56.0291814 -131.0492025 -3000.0000000 -90.0000000 -3000.0000000 -90.0000000
 40.5862237  -4.0780904 151.2985191 -55.9740884 -131.0704243 -3000.0000000 -90.0000000 -3000.0000000 -90.0000000
 40.6448461  -4.0780200 151.2417014 -55.9144562 -130.8917084 -3000.0000000 -90.0000000 -3000.0000000 -90.0000000
 40.7034685  -4.0785743 151.1833683 -55.8717124 -131.0729366 -3000.0000000 -90.0000000 -3000.0000000 -90.0000000
 40.7620909  -4.0794005 151.1273441 -55.8353588 -130.9680982 -3000.0000000 -90.0000000 -3000.0000000 -90.0000000
 40.8207132  -4.0792651 151.0649758 -55.7533291 -131.2127170 -3000.0000000 -90.0000000 -3000.0000000 -90.0000000
 40.8793356  -4.0799336 151.0050903 -55.7144365 -131.2662526 -3000.0000000 -90.0000000 -3000.0000000 -90.0000000
 40.9379580  -4.0806697 150.9453001 -55.6504495 -131.1744745 -3000.0000000 -90.0000000 -3000.0000000 -90.0000000
 40.9965804  -4.0799683 150.8821482 -55.6031437 -131.2938274 -3000.0000000 -90.0000000 -3000.0000000 -90.0000000
 41.0552027  -4.0805223 150.8237300 -55.5434220 -131.2668374 -3000.0000000 -90.0000000 -3000.0000000 -90.0000000
 41.1138251  -4.0815550 150.7641486 -55.4771345 -131.4768702 -3000.0000000 -90.0000000 -3000.0000000 -90.0000000
 41.1724475  -4.0815098 150.7052104 -55.4469261 -131.4023050 -3000.0000000 -90.0000000 -3000.0000000 -90.0000000
 41.2310699  -4.0817243 150.6427141 -55.3962928 -131.4174675 -3000.0000000 -90.0000000 -3000.0000000 -90.0000000
 41.2896922  -4.0817659 150.5851283 -55.3342963 -131.5003027 -3000.0000000 -90.0000000 -3000.0000000 -90.0000000
 41.3483146  -4.0821460 150.5227516 -55.2780799 -131.5965816 -3000.0000000 -90.0000000 -3000.0000000 -90.0000000
 41.4069370  -4.0832390 150.4604095 -55.2180373 -131.8161465 -3000.0000000 -90.0000000 -3000.0000000 -90.0000000
 41.4655594  -4.0825966 150.3985500 -55.1807446 -131.7377821 -3000.0000000 -90.0000000 -3000.0000000 -90.0000000
 41.5241817  -4.0829073 150.3402337 -55.1295805 -131.8457556 -3000.0000000 -90.0000000 -3000.0000000 -90.0000000
 41.5828041  -4.0840274 150.2782809 -55.0622253 -131.7825246 -3000.0000000 -90.0000000 -3000.0000000 -90.0000000
 41.6414265  -4.0845349 150.2167017 -55.0166357 -131.8280233 -3000.0000000 -90.0000000 -3000.0000000 -90.0000000
 41.7000489  -4.0845713 150.1518815 -54.9574983 -131.8505864 -3000.0000000 -90.0000000 -3000.0000000 -90.0000000
 41.7586712  -4.0843086 150.0893602 -54.9131758 -132.0397709 -3000.0000000 -90.0000000 -3000.0000000 -90.0000000
 41.8172936  -4.0849782 150.0276569 -54.8713604 -132.1508875 -3000.0000000 -90.0000000 -3000.0000000 -90.0000000
 41.8759160  -4.0849596 149.9641022 -54.7894897 -132.0223815 -3000.0000000 -90.0000000 -3000.0000000 -90.0000000
 41.9345383  -4.0857290 149.9097138 -54.7365009 -132.1507668 -3000.0000000 -90.0000000 -3000.0000000 -90.0000000
 41.9931607  -4.0863846 149.8473592 -54.7133568 -132.2767093 -3000.0000000 -90.0000000 -3000.0000000 -90.0000000
 42.0517831  -4.0867814 149.7787699 -54.6366369 -132.2421353 -3000.0000000 -90.0000000 -3000.0000000 -90.0000000
 42.1104055  -4.0866632 149.7192129 -54.5984192 -132.3531322 -3000.0000000 -90.0000000 -3000.0000000 -90.0000000
 42.1690278  -4.0871934 149.6582813 -54.5443704 -132.3565368 -3000.0000000 -90.0000000 -3000.0000000 -90.0000000
 42.2276502  -4.0873667 149.5902933 -54.4919387 -132.3665448 -3000.0000000 -90.0000000 -3000.0000000 -90.0000000
 42.2862726  -4.0887407 149.5319376 -54.4417843 -132.3757875 -3000.0000000 -90.0000000 -3000.0000000 -90.0000000
 42.3448950  -4.0876976 149.4668626 -54.3672966 -132.4678393 -3000.0000000 -90.0000000 -3000.0000000 -90.0000000
 42.4035173  -4.0883511 149.4052769 -54.3368524 -132.6247387 -3000.0000000 -90.0000000 -3000.0000000 -90.0000000
 42.4621397  -4.0895022 149.3423327 -54.2802179 -132.5559232 -3000.0000000 -90.0000000 -3000.0000000 -90.0000000
 42.5207621  -4.0890207 149.2778504 -54.2362273 -132.6101032 -3000.0000000 -90.0000000 -3000.0000000 -90.0000000
 42.5793845  -4.0891022 149.2147104 -54.1861010 -132.7864959 -3000.0000000 -90.0000000 -3000.0000000 -90.0000000
 42.6380068  -4.0891562 149.1524180 -54.1181515 -132.8943866 -3000.0000000 -90.0000000 -3000.0000000 -90.0000000
 42.6966292  -4.0900294 149.0860907 -54.0758045 -132.8080144 -3000.0000000 -90.0000000 -3000.0000000 -90.0000000
 42.7552516  -4.0907054 149.0226223 -54.0279570 -132.8897688 -3000.0000000 -90.0000000 -3000.0000000 -90.0000000
 42.8138740  -4.0910373 148.9617537 -53.9662458 -132.8116588 -3000.0000000 -90.0000000 -3000.0000000 -90.0000000
 42.8724963  -4.0913479 148.8960993 -53.9295455 -133.1185193 -3000.0000000 -90.0000000 -3000.0000000 -90.0000000
 42.9311187  -4.0917959 148.8306264 -53.8516008 -132.9983414 -3000.0000000 -90.0000000 -3000.0000000 -90.0000000
 42.9897411  -4.0922208 148.7685930 -53.8190363 -133.0554209 -3000.0000000 -90.0000000 -3000.0000000 -90.0000000
 43.0483635  -4.0918092 148.7001464 -53.7705446 -133.2094232 -3000.0000000 -90.0000000 -3000.0000000 -90.0000000
 43.1069858  -4.0927497 148.6445137 -53.7154662 -133.2285430 -3000.0000000 -90.0000000 -3000.0000000 -90.0000000
 43.1656082  -4.0929584 148.5785250 -53.6582571 -133.2859224 -3000.0000000 -90.0000000 -3000.0000000 -90.0000000
 43.2242306  -4.0928518 148.5124319 -53.6100559 -133.2674371 -3000.0000000 -90.0000000 -3000.0000000 -90.0000000
 43.2828530  -4.0946497 148.4481339 -53.5497596 -133.3403899 -3000.0000000 -90.0000000 -3000.0000000 -90.0000000
 43.3414753  -4.0942870 148.3769229 -53.5031141 -133.4339430 -3000.0000000 -90.0000000 -3000.0000000 -90.0000000
 43.4000977  -4.0942379 148.3116152 -53.4301382 -133.4670781 -3000.0000000 -90.0000000 -3000.0000000 -90.0000000
 43.4587201  -4.0948872 148.2493922 -53.3875675 -133.4922528 -3000.0000000 -90.0000000 -3000.0000000 -90.0000000
 43.5173425  -4.0952421 148.1847344 -53.3410201 -133.5158985 -3000.0000000 -90.0000000 -3000.0000000 -90.0000000
 43.5759648  -4.0958565 148.1234761 -53.2887719 -133.6250310 -3000.0000000 -90.0000000 -3000.0000000 -90.0000000
 43.6345872  -4.0966489 148.0574879 -53.2285447 -133.7283414 -3000.0000000 -90.0000000 -3000.0000000 -90.0000000
 43.6932096  -4.0962519 147.9889325 -53.1903756 -133.6307005 -3000.0000000 -90.0000000 -3000.0000000 -90.0000000
 43.7518319  -4.0971000 147.9277840 -53.1356396 -133.8141741 -3000.0000000 -90.0000000 -3000.0000000 -90.0000000
 43.8104543  -4.0961275 147.8600941 -53.0859804 -133.8275308 -3000.0000000 -90.0000000 -3000.0000000 -90.0000000
 43.8690767  -4.0969505 147.7937947 -53.0301959 -133.8592480 -3000.0000000 -90.0000000 -3000.0000000 -90.0000000
 43.9276991  -4.0982195 147.7299558 -52.9823178 -133.8400511 -3000.0000000 -90.0000000 -3000.0000000 -90.0000000
 43.9863214  -4.0982823 147.6656728 -52.9356370 -133.9142803 -3000.0000000 -90.0000000 -3000.0000000 -90.0000000
 44.0449438  -4.0985872 147.5952070 -52.8914172 -134.1427983 -3000.0000000 -90.0000000 -3000.0000000 -90.0000000
 44.1035662  -4.0987297 147.5287590 -52.8365496 -134.1111737 -3000.0000000 -90.0000000 -3000.0000000 -90.0000000
 44.1621886  -4.0992845 147.4620013 -52.7667795 -134.1005235 -3000.0000000 -90.0000000 -3000.0000000 -90.0000000
 44.2208109  -4.0998691 147.3943700 -52.7174005 -134.2985756 -3000.0000000 -90.0000000 -3000.0000000 -90.0000000
 44.2794333  -4.0994749 147.3332730 -52.6590009 -134.3065709 -3000.0000000 -90.0000000 -3000.0000000 -90.0000000
 44.3380557  -4.1003248 147.2664321 -52.6209704 -134.3654570 -3000.0000000 -90.0000000 -3000.0000000 -90.0000000
 44.3966781  -4.1006603 147.1950611 -52.5541622 -134.4109852 -3000.0000000 -90.0000000 -3000.0000000 -90.0000000
 44.4553004  -4.1006357 147.1335982 -52.5091264 -134.4277586 -3000.0000000 -90.0000000 -3000.0000000 -90.0000000
 44.5139228  -4.1013681 147.0626833 -52.4591006 -134.5825363 -3000.0000000 -90.0000000 -3000.0000000 -90.0000000
 44.5725452  -4.1019241 146.9957306 -52.4164535 -134.6058426 -3000.0000000 -90.0000000 -3000.0000000 -90.0000000
 44.6311676  -4.1021934 146.9279381 -52.3605924 -134.6294528 -3000.0000000 -90.0000000 -3000.0000000 -90.0000000
 44.6897899  -4.1018621 146.8565310 -52.2923107 -134.7152673 -3000.0000000 -90.0000000 -3000.0000000 -90.0000000
 44.7484123  -4.1029990 146.7951795 -52.2538445 -134.8611657 -3000.0000000 -90.0000000 -3000.0000000 -90.0000000
 44.8070347  -4.1038845 146.7310516 -52.2044595 -134.8801950 -3000.0000000 -90.0000000 -3000.0000000 -90.0000000
 44.8656571  -4.1037829 146.6542280 -52.1579648 -134.9641918 -3000.0000000 -90.0000000 -3000.0000000 -90.0000000
 44.9242794  -4.1039546 146.5908427 -52.0985865 -134.9244446 -3000.0000000 -90.0000000 -3000.0000000 -90.0000000
 44.9829018  -4.1036882 146.5189515 -52.0422338 -134.9537092 -3000.0000000 -90.0000000 -3000.0000000 -90.0000000
 45.0415242  -4.1048788 146.4503012 -52.0010977 -135.1352783 -3000.0000000 -90.0000000 -3000.0000000 -90.0000000
 45.1001466  -4.1055994 146.3845744 -51.9620200 -135.1465698 -3000.0000000 -90.0000000 -3000.0000000 -90.0000000
 45.1587689  -4.1047941 146.3148353 -51.9166690 -135.2000298 -3000.0000000 -90.0000000 -3000.0000000 -90.0000000
 45.2173913  -4.1060043 146.2490780 -51.8466662 -135.2054182 -3000.0000000 -90.0000000 -3000.0000000 -90.0000000
 45.2760137  -4.1063965 146.1751255 -51.8005681 -135.2523919 -3000.0000000 -90.0000000 -3000.0000000 -90.0000000
 45.3346361  -4.1065243 146.1063904 -51.7412197 -135.3225302 -3000.0000000 -90.0000000 -3000.0000000 -90.0000000
 45.3932584  -4.1078809 146.0415327 -51.6950861 -135.3970601 -3000.0000000 -90.0000000 -3000.0000000 -90.0000000
 45.4518808  -4.1092517 145.9760147 -51.6295560 -135.4107550 -3000.0000000 -90.0000000 -3000.0000000 -90.0000000
 45.5105032  -4.1111086 145.9110289 -51.5868961 -135.4553031 -3000.0000000 -90.0000000 -3000.0000000 -90.0000000
 45.5691255  -4.1112966 145.8308623 -51.5359058 -135.5984745 -3000.0000000 -90.0000000 -3000.0000000 -90.0000000
 45.6277479  -4.1107074 145.7612014 -51.4836237 -135.6175082 -3000.0000000 -90.0000000 -3000.0000000 -90.0000000
 45.6863703  -4.1109021 145.6907163 -51.4510984 -135.6604848 -3000.0000000 -90.0000000 -3000.0000000 -90.0000000
 45.7449927  -4.1118797 145.6177434 -51.3807965 -135.7341209 -3000.0000000 -90.0000000 -3000.0000000 -90.0000000
 45.8036150  -4.1113128 145.5426283 -51.3310826 -135.8232825 -3000.0000000 -90.0000000 -3000.0000000 -90.0000000
 45.8622374  -4.1117105 145.4693785 -51.2788008 -135.7972544 -3000.0000000 -90.0000000 -3000.0000000 -90.0000000
 45.9208598  -4.1119865 145.4063527 -51.2368626 -135.8316203 -3000.0000000 -90.0000000 -3000.0000000 -90.0000000
 45.9794822  -4.1124197 145.3298916 -51.1743990 -136.0367919 -3000.0000000 -90.0000000 -3000.0000000 -90.0000000
 46.0381045  -4.1123365 145.2553650 -51.1307191 -136.0301432 -3000.0000000 -90.0000000 -3000.0000000 -90.0000000
 46.0967269  -4.1129377 145.1858138 -51.0779642 -136.1226155 -3000.0000000 -90.0000000 -3000.0000000 -90.0000000
 46.1553493  -4.1138495 145.1128060 -51.0333893 -136.2159381 -3000.0000000 -90.0000000 -3000.0000000 -90.0000000
 46.2139717  -4.1140579 145.0420561 -50.9820280 -136.2666139 -3000.0000000 -90.0000000 -3000.0000000 -90.0000000
 46.2725940  -4.1152322 144.9723799 -50.9238728 -136.2245861 -3000.0000000 -90.0000000 -3000.0000000 -90.0000000
 46.3312164  -4.1157385 144.8974653 -50.8636498 -136.2817632 -3000.0000000 -90.0000000 -3000.0000000 -90.0000000
 46.3898388  -4.1162628 144.8302409 -50.8191741 -136.3869582 -3000.0000000 -90.0000000 -3000.0000000 -90.0000000
 46.4484612  -4.1167960 144.7585918 -50.7600223 -136.4437532 -3000.0000000 -90.0000000 -3000.0000000 -90.0000000
 46.5070835  -4.1172339 144.6869144 -50.7340946 -136.5159413 -3000.0000000 -90.0000000 -3000.0000000 -90.0000000
 46.5657059  -4.1181964 144.6177539 -50.6605223 -136.4928319 -3000.0000000 -90.0000000 -3000.0000000 -90.0000000
 46.6243283  -4.1179112 144.5423826 -50.6172472 -136.5882285 -3000.0000000 -90.0000000 -3000.0000000 -90.0000000
 46.6829507  -4.1175326 144.4771607 -50.5606356 -136.7272961 -3000.0000000 -90.0000000 -3000.0000000 -90.0000000
 46.7415730  -4.1190357 144.3997008 -50.5242209 -136.7149334 -3000.0000000 -90.0000000 -3000.0000000 -90.0000000
 46.8001954  -4.1193622 144.3275318 -50.4656430 -136.8088490 -3000.0000000 -90.0000000 -3000.0000000 -90.0000000
 46.8588178  -4.1203446 144.2519409 -50.4080922 -136.7996067 -3000.0000000 -90.0000000 -3000.0000000 -90.0000000
 46.9174402  -4.1203580 144.1821887 -50.3586470 -137.0130989 -3000.0000000 -90.0000000 -3000.0000000 -90.0000000
 46.9760625  -4.1205001 144.1144409 -50.3120249 -136.9637236 -3000.0000000 -90.0000000 -3000.0000000 -90.0000000
 47.0346849  -4.1216937 144.0360384 -50.2602545 -136.9996967 -3000.0000000 -90.0000000 -3000.0000000 -90.0000000
 47.0933073  -4.1213038 143.9635222 -50.2177278 -137.1419243 -3000.0000000 -90.0000000 -3000.0000000 -90.0000000
 47.1519297  -4.1180780 143.8889592 -50.1610686 -137.1532327 -3000.0000000 -90.0000000 -3000.0000000 -90.0000000
 47.2105520  -4.1193833 143.8187085 -50.1056015 -137.2543512 -3000.0000000 -90.0000000 -3000.0000000 -90.0000000
 47.2691744  -4.1200749 143.7443477 -50.0572337 -137.2900926 -3000.0000000 -90.0000000 -3000.0000000 -90.0000000
 47.3277968  -4.1200305 143.6741601 -49.9979964 -137.4020668 -3000.0000000 -90.0000000 -3000.0000000 -90.0000000
 47.3864191  -4.1212105 143.5949372 -49.9522310 -137.4023169 -3000.0000000 -90.0000000 -3000.0000000 -90.0000000
 47.4450415  -4.1206988 143.5217913 -49.8995371 -137.5045332 -3000.0000000 -90.0000000 -3000.0000000 -90.0000000
 47.5036639  -4.1221969 143.4518316 -49.8507040 -137.5760676 -3000.0000000 -90.0000000 -3000.0000000 -90.0000000
 47.5622863  -4.1219362 143.3738423 -49.8049013 -137.5436446 -3000.0000000 -90.0000000 -3000.0000000 -90.0000000
 47.6209086  -4.1222425 143.2964865 -49.7518282 -137.6258354 -3000.0000000 -90.0000000 -3000.0000000 -90.0000000
 47.6795310  -4.1229004 143.2218683 -49.7063150 -137.7783206 -3000.0000000 -90.0000000 -3000.0000000 -90.0000000
 47.7381534  -4.1231883 143.1473421 -49.6525031 -137.8452779 -3000.0000000 -90.0000000 -3000.0000000 -90.0000000
 47.7967758  -4.1247544 143.0769876 -49.5950419 -137.8877808 -3000.0000000 -90.0000000 -3000.0000000 -90.0000000
 47.8553981  -4.1249705 142.9962704 -49.5438973 -137.9489317 -3000.0000000 -90.0000000 -3000.0000000 -90.0000000
 47.9140205  -4.1250313 142.9234269 -49.5004445 -137.9851123 -3000.0000000 -90.0000000 -3000.0000000 -90.0000000
 47.9726429  -4.1250522 142.8440571 -49.4366318 -138.1014979 -3000.0000000 -90.0000000 -3000.0000000 -90.0000000
 48.0312653  -4.1260502 142.7726686 -49.3947924 -138.0852560 -3000.0000000 -90.0000000 -3000.0000000 -90.0000000
 48.0898876  -4.1266921 142.6915351 -49.3353213 -138.1976882 -3000.0000000 -90.0000000 -3000.0000000 -90.0000000
 48.1485100  -4.1266018 142.6199613 -49.2908258 -138.2648982 -3000.0000000 -90.0000000 -3000.0000000 -90.0000000
 48.2071324  -4.1282464 142.5417702 -49.2428595 -138.2881785 -3000.0000000 -90.0000000 -3000.0000000 -90.0000000
 48.2657548  -4.1284666 142.4609031 -49.1788202 -138.3628994 -3000.0000000 -90.0000000 -3000.0000000 -90.0000000
 48.3243771  -4.1284672 142.3902406 -49.1322508 -138.5315083 -3000.0000000 -90.0000000 -3000.0000000 -90.0000000
 48.3829995  -4.1294498 142.3082878 -49.0795430 -138.5089316 -3000.0000000 -90.0000000 -3000.0000000 -90.0000000
 48.4416219  -4.1295353 142.2314189 -49.0287951 -138.5414574 -3000.0000000 -90.0000000 -3000.0000000 -90.0000000
 48.5002443  -4.1301398 142.1549381 -48.9725716 -138.6431970 -3000.0000000 -90.0000000 -3000.0000000 -90.0000000
 48.5588666  -4.1306893 142.0793244 -48.9277276 -138.6949482 -3000.0000000 -90.0000000 -3000.0000000 -90.0000000
 48.6174890  -4.1318253 142.0026880 -48.8828704 -138.7591102 -3000.0000000 -90.0000000 -3000.0000000 -90.0000000
 48.6761114  -4.1314534 141.9262734 -48.8334555 -138.9053121 -3000.0000000 -90.0000000 -3000.0000000 -90.0000000
 48.7347338  -4.1317425 141.8505174 -48.7784808 -138.8839562 -3000.0000000 -90.0000000 -3000.0000000 -90.0000000
 48.7933561  -4.1322768 141.7701602 -48.7338220 -139.0006570 -3000.0000000 -90.0000000 -3000.0000000 -90.0000000
 48.8519785  -4.1325536 141.6831122 -48.6707552 -139.0551298 -3000.0000000 -90.0000000 -3000.0000000 -90.0000000
 48.9106009  -4.1339630 141.6136408 -48.6299393 -139.0823170 -3000.0000000 -90.0000000 -3000.0000000 -90.0000000
 48.9692233  -4.1342078 141.5313817 -48.5801522 -139.1109364 -3000.0000000 -90.0000000 -3000.0000000 -90.0000000
 49.0278456  -4.1344096 141.4513314 -48.5215504 -139.1985614 -3000.0000000 -90.0000000 -3000.0000000 -90.0000000
 49.0864680  -4.1356601 141.3807220 -48.4724995 -139.2664939 -3000.0000000 -90.0000000 -3000.0000000 -90.0000000
 49.1450904  -4.1352884 141.2946841 -48.4263686 -139.3331356 -3000.0000000 -90.0000000 -3000.0000000 -90.0000000
 49.2037128  -4.1360903 141.2187098 -48.3693209 -139.3335340 -3000.0000000 -90.0000000 -3000.0000000 -90.0000000
 49.2623351  -4.1365779 141.1359397 -48.3230709 -139.4507403 -3000.0000000 -90.0000000 -3000.0000000 -90.0000000
 49.3209575  -4.1367759 141.0575967 -48.2709419 -139.5506426 -3000.0000000 -90.0000000 -3000.0000000 -90.0000000
 49.3795799  -4.1376060 140.9744824 -48.2246403 -139.6588278 -3000.0000000 -90.0000000 -3000.0000000 -90.0000000
 49.4382022  -4.1385784 140.9000545 -48.1720531 -139.7402243 -3000.0000000 -90.0000000 -3000.0000000 -90.0000000
 49.4968246  -4.1389221 140.8184665 -48.1240144 -139.7496187 -3000.0000000 -90.0000000 -3000.0000000 -90.0000000
 49.5554470  -4.1386568 140.7366722 -48.0690976 -139.7615196 -3000.0000000 -90.0000000 -3000.0000000 -90.0000000
 49.6140694  -4.1400355 140.6564295 -48.0049384 -139.8196042 -3000.0000000 -90.0000000 -3000.0000000 -90.0000000
 49.6726917  -4.1399960 140.5758718 -47.9612929 -139.9876377 -3000.0000000 -90.0000000 -3000.0000000 -90.0000000
 49.7313141  -4.1397817 140.4938881 -47.9048368 -140.0829259 -3000.0000000 -90.0000000 -3000.0000000 -90.0000000
 49.7899365  -4.1421455 140.4112409 -47.8600849 -140.0901933 -3000.0000000 -90.0000000 -3000.0000000 -90.0000000
 49.8485589  -4.1415878 140.3315465 -47.8177922 -140.0970962 -3000.0000000 -90.0000000 -3000.0000000 -90.0000000
 49.9071812  -4.1422016 140.2517835 -47.7571858 -140.1687794 -3000.0000000 -90.0000000 -3000.0000000 -90.0000000
 49.9658036  -4.1435473 140.1717284 -47.7073521 -140.2413701 -3000.0000000 -90.0000000 -3000.0000000 -90.0000000
 50.0244260  -4.1436728 140.0850257 -47.6610142 -140.4002679 -3000.0000000 -90.0000000 -3000.0000000 -90.0000000
 50.0830484  -4.1433611 140.0039382 -47.6056893 -140.3973638 -3000.0000000 -90.0000000 -3000.0000000 -90.0000000
 50.1416707  -4.1437846 139.9219165 -47.5538809 -140.4585893 -3000.0000000 -90.0000000 -3000.0000000 -90.0000000
 50.2002931  -4.1452692 139.8418634 -47.4982112 -140.5290114 -3000.0000000 -90.0000000 -3000.0000000 -90.0000000
