! ListType=Lin
! Comment=Upconverter_100MHz_0.001-1MHz_2560pts_50ms
# MHz S DB R 50
  0.0010000 -23.0834895   0.0000000
  0.0013908 -23.0894118   0.0000000
  0.0017816 -23.1091041   0.0000000
  0.0021723 -23.1379798   0.0000000
  0.0025631 -23.1714122   0.0000000
  0.0029539 -23.1954654   0.0000000
  0.0033447 -23.2197572   0.0000000
  0.0037354 -23.2324292   0.0000000
  0.0041262 -23.2552000   0.0000000
  0.0045170 -23.2734338   0.0000000
  0.0049078 -23.3049536   0.0000000
  0.0052986 -23.3525279   0.0000000
  0.0056893 -23.4187732   0.0000000
  0.0060801 -23.4915931   0.0000000
  0.0064709 -23.5792875   0.0000000
  0.0068617 -23.6594674   0.0000000
  0.0072524 -23.7336282   0.0000000
  0.0076432 -23.8055727   0.0000000
  0.0080340 -23.8595824   0.0000000
  0.0084248 -23.9060630   0.0000000
  0.0088156 -23.9502576   0.0000000
  0.0092063 -24.0130891   0.0000000
  0.0095971 -24.0929173   0.0000000
  0.0099879 -24.1728211   0.0000000
  0.0103787 -24.2671041   0.0000000
  0.0107694 -24.3573846   0.0000000
  0.0111602 -24.4457313   0.0000000
  0.0115510 -24.5259569   0.0000000
  0.0119418 -24.5877271   0.0000000
  0.0123326 -24.6370355   0.0000000
  0.0127233 -24.6795736   0.0000000
  0.0131141 -24.7091597   0.0000000
  0.0135049 -24.7519084   0.0000000
  0.0138957 -24.8028768   0.0000000
  0.0142864 -24.8693950   0.0000000
  0.0146772 -24.9272124   0.0000000
  0.0150680 -24.9798331   0.0000000
  0.0154588 -25.0128179   0.0000000
  0.0158496 -25.0243666   0.0000000
  0.0162403 -25.0238267   0.0000000
  0.0166311 -25.0040007   0.0000000
  0.0170219 -24.9837752   0.0000000
  0.0174127 -24.9657703   0.0000000
  0.0178034 -24.9526327   0.0000000
  0.0181942 -24.9396908   0.0000000
  0.0185850 -24.9164607   0.0000000
  0.0189758 -24.9009922   0.0000000
  0.0193665 -24.8237874   0.0000000
  0.0197573 -24.7674249   0.0000000
  0.0201481 -24.6565014   0.0000000
  0.0205389 -24.5737095   0.0000000
  0.0209297 -24.4937093   0.0000000
  0.0213204 -24.4687645   0.0000000
  0.0217112 -24.4977772   0.0000000
  0.0221020 -24.5949117   0.0000000
  0.0224928 -24.7505412   0.0000000
  0.0228835 -24.9332385   0.0000000
  0.0232743 -25.1345801   0.0000000
  0.0236651 -25.2566746   0.0000000
  0.0240559 -25.2938717   0.0000000
  0.0244467 -25.2501181   0.0000000
  0.0248374 -25.0672432   0.0000000
  0.0252282 -24.8836243   0.0000000
  0.0256190 -24.5877181   0.0000000
  0.0260098 -24.3318601   0.0000000
  0.0264005 -24.0432234   0.0000000
  0.0267913 -23.7552016   0.0000000
  0.0271821 -23.4869658   0.0000000
  0.0275729 -23.2085563   0.0000000
  0.0279637 -22.9248091   0.0000000
  0.0283544 -22.7032605   0.0000000
  0.0287452 -22.4042950   0.0000000
  0.0291360 -22.1402382   0.0000000
  0.0295268 -21.9174767   0.0000000
  0.0299175 -21.6462156   0.0000000
  0.0303083 -21.3728459   0.0000000
  0.0306991 -21.1644224   0.0000000
  0.0310899 -20.9235371   0.0000000
  0.0314807 -20.6435386   0.0000000
  0.0318714 -20.4212446   0.0000000
  0.0322622 -20.2043196   0.0000000
  0.0326530 -19.9776129   0.0000000
  0.0330438 -19.7159183   0.0000000
  0.0334345 -19.4885567   0.0000000
  0.0338253 -19.2795607   0.0000000
  0.0342161 -19.0835487   0.0000000
  0.0346069 -18.8678242   0.0000000
  0.0349977 -18.6300023   0.0000000
  0.0353884 -18.3974382   0.0000000
  0.0357792 -18.1836933   0.0000000
  0.0361700 -17.9855267   0.0000000
  0.0365608 -17.7945878   0.0000000
  0.0369515 -17.6034010   0.0000000
  0.0373423 -17.3923987   0.0000000
  0.0377331 -17.2176943   0.0000000
  0.0381239 -17.0518448   0.0000000
  0.0385147 -16.9017037   0.0000000
  0.0389054 -16.7518272   0.0000000
  0.0392962 -16.5936559   0.0000000
  0.0396870 -16.4560594   0.0000000
  0.0400778 -16.2996162   0.0000000
  0.0404685 -16.1599855   0.0000000
  0.0408593 -16.0203964   0.0000000
  0.0412501 -15.8818984   0.0000000
  0.0416409 -15.7514142   0.0000000
  0.0420317 -15.6182036   0.0000000
  0.0424224 -15.4821757   0.0000000
  0.0428132 -15.3466981   0.0000000
  0.0432040 -15.2119064   0.0000000
  0.0435948 -15.0814431   0.0000000
  0.0439855 -14.9591108   0.0000000
  0.0443763 -14.8347791   0.0000000
  0.0447671 -14.7227130   0.0000000
  0.0451579 -14.6067092   0.0000000
  0.0455487 -14.4854520   0.0000000
  0.0459394 -14.3705772   0.0000000
  0.0463302 -14.2592907   0.0000000
  0.0467210 -14.1366220   0.0000000
  0.0471118 -14.0295095   0.0000000
  0.0475025 -13.9173197   0.0000000
  0.0478933 -13.8174368   0.0000000
  0.0482841 -13.7092805   0.0000000
  0.0486749 -13.5985818   0.0000000
  0.0490657 -13.4957616   0.0000000
  0.0494564 -13.4025041   0.0000000
  0.0498472 -13.2933597   0.0000000
  0.0502380 -13.1885777   0.0000000
  0.0506288 -13.1084159   0.0000000
  0.0510195 -13.0058919   0.0000000
  0.0514103 -12.9010590   0.0000000
  0.0518011 -12.8319360   0.0000000
  0.0521919 -12.7183933   0.0000000
  0.0525826 -12.6286241   0.0000000
  0.0529734 -12.5565326   0.0000000
  0.0533642 -12.4502752   0.0000000
  0.0537550 -12.3821315   0.0000000
  0.0541458 -12.2808956   0.0000000
  0.0545365 -12.2088480   0.0000000
  0.0549273 -12.1198410   0.0000000
  0.0553181 -12.0341149   0.0000000
  0.0557089 -11.9671679   0.0000000
  0.0560996 -11.8717351   0.0000000
  0.0564904 -11.8121305   0.0000000
  0.0568812 -11.7206361   0.0000000
  0.0572720 -11.6549974   0.0000000
  0.0576628 -11.5783436   0.0000000
  0.0580535 -11.4940093   0.0000000
  0.0584443 -11.4459676   0.0000000
  0.0588351 -11.3431342   0.0000000
  0.0592259 -11.3065163   0.0000000
  0.0596166 -11.2058207   0.0000000
  0.0600074 -11.1462747   0.0000000
  0.0603982 -11.0995552   0.0000000
  0.0607890 -10.9978907   0.0000000
  0.0611798 -10.9617103   0.0000000
  0.0615705 -10.8997189   0.0000000
  0.0619613 -10.8044425   0.0000000
  0.0623521 -10.7700255   0.0000000
  0.0627429 -10.7174731   0.0000000
  0.0631336 -10.6244918   0.0000000
  0.0635244 -10.5727632   0.0000000
  0.0639152 -10.5455010   0.0000000
  0.0643060 -10.4744602   0.0000000
  0.0646968 -10.3899320   0.0000000
  0.0650875 -10.3377233   0.0000000
  0.0654783 -10.3097188   0.0000000
  0.0658691 -10.2628047   0.0000000
  0.0662599 -10.1850791   0.0000000
  0.0666506 -10.1176561   0.0000000
  0.0670414 -10.0660183   0.0000000
  0.0674322 -10.0307102   0.0000000
  0.0678230  -9.9942219   0.0000000
  0.0682138  -9.9531337   0.0000000
  0.0686045  -9.9008877   0.0000000
  0.0689953  -9.8425986   0.0000000
  0.0693861  -9.7856320   0.0000000
  0.0697769  -9.7316479   0.0000000
  0.0701676  -9.6820507   0.0000000
  0.0705584  -9.6340590   0.0000000
  0.0709492  -9.5914061   0.0000000
  0.0713400  -9.5461669   0.0000000
  0.0717308  -9.5022079   0.0000000
  0.0721215  -9.4588129   0.0000000
  0.0725123  -9.4221545   0.0000000
  0.0729031  -9.3824261   0.0000000
  0.0732939  -9.3416878   0.0000000
  0.0736846  -9.3059291   0.0000000
  0.0740754  -9.2710601   0.0000000
  0.0744662  -9.2337416   0.0000000
  0.0748570  -9.1948144   0.0000000
  0.0752478  -9.1538553   0.0000000
  0.0756385  -9.1144446   0.0000000
  0.0760293  -9.0738680   0.0000000
  0.0764201  -9.0358429   0.0000000
  0.0768109  -9.0043289   0.0000000
  0.0772016  -8.9685834   0.0000000
  0.0775924  -8.9334261   0.0000000
  0.0779832  -8.9009558   0.0000000
  0.0783740  -8.8675138   0.0000000
  0.0787648  -8.8324567   0.0000000
  0.0791555  -8.7974208   0.0000000
  0.0795463  -8.7657291   0.0000000
  0.0799371  -8.7399314   0.0000000
  0.0803279  -8.7018505   0.0000000
  0.0807186  -8.6658498   0.0000000
  0.0811094  -8.6459253   0.0000000
  0.0815002  -8.6133850   0.0000000
  0.0818910  -8.5718695   0.0000000
  0.0822818  -8.5563667   0.0000000
  0.0826725  -8.5273143   0.0000000
  0.0830633  -8.4837710   0.0000000
  0.0834541  -8.4781670   0.0000000
  0.0838449  -8.4392011   0.0000000
  0.0842356  -8.4070020   0.0000000
  0.0846264  -8.3943154   0.0000000
  0.0850172  -8.3461341   0.0000000
  0.0854080  -8.3450064   0.0000000
  0.0857987  -8.2974048   0.0000000
  0.0861895  -8.2881835   0.0000000
  0.0865803  -8.2565883   0.0000000
  0.0869711  -8.2292902   0.0000000
  0.0873619  -8.2153360   0.0000000
  0.0877526  -8.1744304   0.0000000
  0.0881434  -8.1691585   0.0000000
  0.0885342  -8.1294646   0.0000000
  0.0889250  -8.1192075   0.0000000
  0.0893157  -8.0875755   0.0000000
  0.0897065  -8.0683479   0.0000000
  0.0900973  -8.0493067   0.0000000
  0.0904881  -8.0137964   0.0000000
  0.0908789  -8.0217275   0.0000000
  0.0912696  -7.9631138   0.0000000
  0.0916604  -7.9781855   0.0000000
  0.0920512  -7.9330134   0.0000000
  0.0924420  -7.9166779   0.0000000
  0.0928327  -7.9186071   0.0000000
  0.0932235  -7.8617148   0.0000000
  0.0936143  -7.8733000   0.0000000
  0.0940051  -7.8524872   0.0000000
  0.0943959  -7.8026835   0.0000000
  0.0947866  -7.8203780   0.0000000
  0.0951774  -7.8026537   0.0000000
  0.0955682  -7.7474708   0.0000000
  0.0959590  -7.7508321   0.0000000
  0.0963497  -7.7564884   0.0000000
  0.0967405  -7.7095513   0.0000000
  0.0971313  -7.6797417   0.0000000
  0.0975221  -7.6945804   0.0000000
  0.0979129  -7.6863890   0.0000000
  0.0983036  -7.6460327   0.0000000
  0.0986944  -7.6107853   0.0000000
  0.0990852  -7.6141324   0.0000000
  0.0994760  -7.6186137   0.0000000
  0.0998667  -7.6025880   0.0000000
  0.1002575  -7.5691313   0.0000000
  0.1006483  -7.5383694   0.0000000
  0.1010391  -7.5232900   0.0000000
  0.1014299  -7.5206748   0.0000000
  0.1018206  -7.5194048   0.0000000
  0.1022114  -7.5161413   0.0000000
  0.1026022  -7.5008648   0.0000000
  0.1029930  -7.4816465   0.0000000
  0.1033837  -7.4572228   0.0000000
  0.1037745  -7.4359695   0.0000000
  0.1041653  -7.4161603   0.0000000
  0.1045561  -7.4016661   0.0000000
  0.1049469  -7.3871425   0.0000000
  0.1053376  -7.3725635   0.0000000
  0.1057284  -7.3592781   0.0000000
  0.1061192  -7.3493028   0.0000000
  0.1065100  -7.3370491   0.0000000
  0.1069007  -7.3245696   0.0000000
  0.1072915  -7.3150200   0.0000000
  0.1076823  -7.3047694   0.0000000
  0.1080731  -7.2929452   0.0000000
  0.1084639  -7.2885463   0.0000000
  0.1088546  -7.2817764   0.0000000
  0.1092454  -7.2740413   0.0000000
  0.1096362  -7.2611526   0.0000000
  0.1100270  -7.2498329   0.0000000
  0.1104177  -7.2341821   0.0000000
  0.1108085  -7.2187543   0.0000000
  0.1111993  -7.2068841   0.0000000
  0.1115901  -7.1985038   0.0000000
  0.1119809  -7.1897448   0.0000000
  0.1123716  -7.1803811   0.0000000
  0.1127624  -7.1668009   0.0000000
  0.1131532  -7.1551356   0.0000000
  0.1135440  -7.1448854   0.0000000
  0.1139347  -7.1327196   0.0000000
  0.1143255  -7.1224851   0.0000000
  0.1147163  -7.1180630   0.0000000
  0.1151071  -7.1055063   0.0000000
  0.1154979  -7.0891253   0.0000000
  0.1158886  -7.0850813   0.0000000
  0.1162794  -7.0782987   0.0000000
  0.1166702  -7.0574205   0.0000000
  0.1170610  -7.0534759   0.0000000
  0.1174517  -7.0530310   0.0000000
  0.1178425  -7.0253699   0.0000000
  0.1182333  -7.0266688   0.0000000
  0.1186241  -7.0219864   0.0000000
  0.1190148  -6.9963658   0.0000000
  0.1194056  -7.0073716   0.0000000
  0.1197964  -6.9825578   0.0000000
  0.1201872  -6.9796819   0.0000000
  0.1205780  -6.9773820   0.0000000
  0.1209687  -6.9514885   0.0000000
  0.1213595  -6.9654045   0.0000000
  0.1217503  -6.9276541   0.0000000
  0.1221411  -6.9514615   0.0000000
  0.1225318  -6.9124372   0.0000000
  0.1229226  -6.9373528   0.0000000
  0.1233134  -6.8946067   0.0000000
  0.1237042  -6.9197092   0.0000000
  0.1240950  -6.8759387   0.0000000
  0.1244857  -6.9034811   0.0000000
  0.1248765  -6.8629799   0.0000000
  0.1252673  -6.8835178   0.0000000
  0.1256581  -6.8615391   0.0000000
  0.1260488  -6.8472216   0.0000000
  0.1264396  -6.8661964   0.0000000
  0.1268304  -6.8200063   0.0000000
  0.1272212  -6.8489918   0.0000000
  0.1276120  -6.8234667   0.0000000
  0.1280027  -6.8060947   0.0000000
  0.1283935  -6.8323402   0.0000000
  0.1287843  -6.7902151   0.0000000
  0.1291751  -6.7872241   0.0000000
  0.1295658  -6.8116982   0.0000000
  0.1299566  -6.7733907   0.0000000
  0.1303474  -6.7638721   0.0000000
  0.1307382  -6.7912847   0.0000000
  0.1311290  -6.7620649   0.0000000
  0.1315197  -6.7366985   0.0000000
  0.1319105  -6.7574281   0.0000000
  0.1323013  -6.7645424   0.0000000
  0.1326921  -6.7318083   0.0000000
  0.1330828  -6.7105485   0.0000000
  0.1334736  -6.7279630   0.0000000
  0.1338644  -6.7408487   0.0000000
  0.1342552  -6.7181115   0.0000000
  0.1346460  -6.6894506   0.0000000
  0.1350367  -6.6845320   0.0000000
  0.1354275  -6.7026661   0.0000000
  0.1358183  -6.7104495   0.0000000
  0.1362091  -6.6976985   0.0000000
  0.1365998  -6.6750815   0.0000000
  0.1369906  -6.6556154   0.0000000
  0.1373814  -6.6482826   0.0000000
  0.1377722  -6.6519860   0.0000000
  0.1381630  -6.6596079   0.0000000
  0.1385537  -6.6644141   0.0000000
  0.1389445  -6.6611224   0.0000000
  0.1393353  -6.6549421   0.0000000
  0.1397261  -6.6451633   0.0000000
  0.1401168  -6.6319281   0.0000000
  0.1405076  -6.6226130   0.0000000
  0.1408984  -6.6124330   0.0000000
  0.1412892  -6.6045655   0.0000000
  0.1416800  -6.5999477   0.0000000
  0.1420707  -6.5942258   0.0000000
  0.1424615  -6.5912714   0.0000000
  0.1428523  -6.5859179   0.0000000
  0.1432431  -6.5833796   0.0000000
  0.1436338  -6.5793492   0.0000000
  0.1440246  -6.5787484   0.0000000
  0.1444154  -6.5764668   0.0000000
  0.1448062  -6.5725959   0.0000000
  0.1451970  -6.5722326   0.0000000
  0.1455877  -6.5667330   0.0000000
  0.1459785  -6.5592341   0.0000000
  0.1463693  -6.5502457   0.0000000
  0.1467601  -6.5410348   0.0000000
  0.1471508  -6.5341076   0.0000000
  0.1475416  -6.5330862   0.0000000
  0.1479324  -6.5316551   0.0000000
  0.1483232  -6.5289738   0.0000000
  0.1487140  -6.5259233   0.0000000
  0.1491047  -6.5198641   0.0000000
  0.1494955  -6.5126807   0.0000000
  0.1498863  -6.5108986   0.0000000
  0.1502771  -6.5091049   0.0000000
  0.1506678  -6.5034531   0.0000000
  0.1510586  -6.4990172   0.0000000
  0.1514494  -6.4977867   0.0000000
  0.1518402  -6.4942736   0.0000000
  0.1522309  -6.4877612   0.0000000
  0.1526217  -6.4861165   0.0000000
  0.1530125  -6.4865551   0.0000000
  0.1534033  -6.4747324   0.0000000
  0.1537941  -6.4716052   0.0000000
  0.1541848  -6.4786019   0.0000000
  0.1545756  -6.4711096   0.0000000
  0.1549664  -6.4575220   0.0000000
  0.1553572  -6.4682636   0.0000000
  0.1557479  -6.4576333   0.0000000
  0.1561387  -6.4461128   0.0000000
  0.1565295  -6.4614916   0.0000000
  0.1569203  -6.4399712   0.0000000
  0.1573111  -6.4434910   0.0000000
  0.1577018  -6.4484716   0.0000000
  0.1580926  -6.4268574   0.0000000
  0.1584834  -6.4485285   0.0000000
  0.1588742  -6.4235403   0.0000000
  0.1592649  -6.4331108   0.0000000
  0.1596557  -6.4225808   0.0000000
  0.1600465  -6.4239333   0.0000000
  0.1604373  -6.4245387   0.0000000
  0.1608281  -6.4095243   0.0000000
  0.1612188  -6.4245859   0.0000000
  0.1616096  -6.4004989   0.0000000
  0.1620004  -6.4195339   0.0000000
  0.1623912  -6.3960025   0.0000000
  0.1627819  -6.4102857   0.0000000
  0.1631727  -6.3967010   0.0000000
  0.1635635  -6.3933315   0.0000000
  0.1639543  -6.4012497   0.0000000
  0.1643451  -6.3757788   0.0000000
  0.1647358  -6.4058570   0.0000000
  0.1651266  -6.3663322   0.0000000
  0.1655174  -6.3960302   0.0000000
  0.1659082  -6.3770275   0.0000000
  0.1662989  -6.3623135   0.0000000
  0.1666897  -6.3928722   0.0000000
  0.1670805  -6.3568910   0.0000000
  0.1674713  -6.3694497   0.0000000
  0.1678621  -6.3874579   0.0000000
  0.1682528  -6.3463582   0.0000000
  0.1686436  -6.3616259   0.0000000
  0.1690344  -6.3768124   0.0000000
  0.1694252  -6.3439933   0.0000000
  0.1698159  -6.3401360   0.0000000
  0.1702067  -6.3706916   0.0000000
  0.1705975  -6.3557066   0.0000000
  0.1709883  -6.3274470   0.0000000
  0.1713791  -6.3418631   0.0000000
  0.1717698  -6.3609303   0.0000000
  0.1721606  -6.3446056   0.0000000
  0.1725514  -6.3180910   0.0000000
  0.1729422  -6.3245040   0.0000000
  0.1733329  -6.3444150   0.0000000
  0.1737237  -6.3508863   0.0000000
  0.1741145  -6.3288849   0.0000000
  0.1745053  -6.3089218   0.0000000
  0.1748961  -6.3070434   0.0000000
  0.1752868  -6.3200877   0.0000000
  0.1756776  -6.3360607   0.0000000
  0.1760684  -6.3354786   0.0000000
  0.1764592  -6.3263106   0.0000000
  0.1768499  -6.3108213   0.0000000
  0.1772407  -6.2960668   0.0000000
  0.1776315  -6.2919888   0.0000000
  0.1780223  -6.2902624   0.0000000
  0.1784131  -6.2957171   0.0000000
  0.1788038  -6.2999393   0.0000000
  0.1791946  -6.3049878   0.0000000
  0.1795854  -6.3071244   0.0000000
  0.1799762  -6.3063112   0.0000000
  0.1803669  -6.3044520   0.0000000
  0.1807577  -6.3029747   0.0000000
  0.1811485  -6.3018086   0.0000000
  0.1815393  -6.2981159   0.0000000
  0.1819301  -6.2946397   0.0000000
  0.1823208  -6.2913194   0.0000000
  0.1827116  -6.2890694   0.0000000
  0.1831024  -6.2807052   0.0000000
  0.1834932  -6.2761622   0.0000000
  0.1838839  -6.2707379   0.0000000
  0.1842747  -6.2688373   0.0000000
  0.1846655  -6.2665676   0.0000000
  0.1850563  -6.2679703   0.0000000
  0.1854470  -6.2701991   0.0000000
  0.1858378  -6.2739603   0.0000000
  0.1862286  -6.2721679   0.0000000
  0.1866194  -6.2692112   0.0000000
  0.1870102  -6.2632455   0.0000000
  0.1874009  -6.2583294   0.0000000
  0.1877917  -6.2592915   0.0000000
  0.1881825  -6.2612211   0.0000000
  0.1885733  -6.2586156   0.0000000
  0.1889640  -6.2564770   0.0000000
  0.1893548  -6.2538627   0.0000000
  0.1897456  -6.2552993   0.0000000
  0.1901364  -6.2508206   0.0000000
  0.1905272  -6.2498930   0.0000000
  0.1909179  -6.2503177   0.0000000
  0.1913087  -6.2503846   0.0000000
  0.1916995  -6.2413469   0.0000000
  0.1920903  -6.2416282   0.0000000
  0.1924810  -6.2472331   0.0000000
  0.1928718  -6.2392275   0.0000000
  0.1932626  -6.2344993   0.0000000
  0.1936534  -6.2459696   0.0000000
  0.1940442  -6.2378754   0.0000000
  0.1944349  -6.2276815   0.0000000
  0.1948257  -6.2425017   0.0000000
  0.1952165  -6.2276946   0.0000000
  0.1956073  -6.2287807   0.0000000
  0.1959980  -6.2390396   0.0000000
  0.1963888  -6.2169509   0.0000000
  0.1967796  -6.2367967   0.0000000
  0.1971704  -6.2176817   0.0000000
  0.1975612  -6.2255533   0.0000000
  0.1979519  -6.2273545   0.0000000
  0.1983427  -6.2134295   0.0000000
  0.1987335  -6.2315725   0.0000000
  0.1991243  -6.2036735   0.0000000
  0.1995150  -6.2312068   0.0000000
  0.1999058  -6.1993965   0.0000000
  0.2002966  -6.2312854   0.0000000
  0.2006874  -6.1954832   0.0000000
  0.2010782  -6.2275900   0.0000000
  0.2014689  -6.1976569   0.0000000
  0.2018597  -6.2211311   0.0000000
  0.2022505  -6.1982495   0.0000000
  0.2026413  -6.2085478   0.0000000
  0.2030320  -6.2094304   0.0000000
  0.2034228  -6.1920510   0.0000000
  0.2038136  -6.2222246   0.0000000
  0.2042044  -6.1842000   0.0000000
  0.2045952  -6.2105658   0.0000000
  0.2049859  -6.2037387   0.0000000
  0.2053767  -6.1818221   0.0000000
  0.2057675  -6.2164394   0.0000000
  0.2061583  -6.1872126   0.0000000
  0.2065490  -6.1806911   0.0000000
  0.2069398  -6.2134354   0.0000000
  0.2073306  -6.1866302   0.0000000
  0.2077214  -6.1739643   0.0000000
  0.2081122  -6.2067764   0.0000000
  0.2085029  -6.1951072   0.0000000
  0.2088937  -6.1652380   0.0000000
  0.2092845  -6.1865217   0.0000000
  0.2096753  -6.2069824   0.0000000
  0.2100660  -6.1808119   0.0000000
  0.2104568  -6.1621007   0.0000000
  0.2108476  -6.1733666   0.0000000
