! ListType=Lin
! Comment=Upconverter_125MHz_2560pts_50ms
# MHz S DB R 50
  0.0010000 -23.9840842   0.0000000
  0.0400778 -16.5543015   0.0000000
  0.0791555  -9.3662022   0.0000000
  0.1182333  -7.8460162   0.0000000
  0.1573111  -7.3746520   0.0000000
  0.1963888  -7.2089263   0.0000000
  0.2354666  -7.1305588   0.0000000
  0.2745444  -7.0799508   0.0000000
  0.3136221  -7.0423163   0.0000000
  0.3526999  -7.0141196   0.0000000
  0.3917776  -6.9927219   0.0000000
  0.4308554  -6.9754415   0.0000000
  0.4699332  -6.9581638   0.0000000
  0.5090109  -6.9391808   0.0000000
  0.5480887  -6.9212817   0.0000000
  0.5871665  -6.9049620   0.0000000
  0.6262442  -6.8889763   0.0000000
  0.6653220  -6.8747022   0.0000000
  0.7043998  -6.8570495   0.0000000
  0.7434775  -6.8371149   0.0000000
  0.7825553  -6.8171807   0.0000000
  0.8216331  -6.8019123   0.0000000
  0.8607108  -6.7898699   0.0000000
  0.8997886  -6.7739027   0.0000000
  0.9388664  -6.7532689   0.0000000
  0.9779441  -6.7333773   0.0000000
  1.0170219  -6.7207430   0.0000000
  1.0560996  -6.7138545   0.0000000
  1.0951774  -6.6980693   0.0000000
  1.1342552  -6.6722545   0.0000000
  1.1733329  -6.6576935   0.0000000
  1.2124107  -6.6529760   0.0000000
  1.2514885  -6.6377958   0.0000000
  1.2905662  -6.6124752   0.0000000
  1.3296440  -6.5956894   0.0000000
  1.3687218  -6.5942982   0.0000000
  1.4077995  -6.5874774   0.0000000
  1.4468773  -6.5636106   0.0000000
  1.4859551  -6.5460944   0.0000000
  1.5250328  -6.5434745   0.0000000
  1.5641106  -6.5386272   0.0000000
  1.6031884  -6.5162744   0.0000000
  1.6422661  -6.4994601   0.0000000
  1.6813439  -6.4970618   0.0000000
  1.7204216  -6.4947706   0.0000000
  1.7594994  -6.4755184   0.0000000
  1.7985772  -6.4589754   0.0000000
  1.8376549  -6.4525129   0.0000000
  1.8767327  -6.4484850   0.0000000
  1.9158105  -6.4378100   0.0000000
  1.9548882  -6.4238087   0.0000000
  1.9939660  -6.4094958   0.0000000
  2.0330438  -6.4021778   0.0000000
  2.0721215  -6.3974439   0.0000000
  2.1111993  -6.3868432   0.0000000
  2.1502771  -6.3753913   0.0000000
  2.1893548  -6.3654062   0.0000000
  2.2284326  -6.3556199   0.0000000
  2.2675104  -6.3491879   0.0000000
  2.3065881  -6.3415730   0.0000000
  2.3456659  -6.3335383   0.0000000
  2.3847436  -6.3228098   0.0000000
  2.4238214  -6.3156846   0.0000000
  2.4628992  -6.3091696   0.0000000
  2.5019769  -6.3045015   0.0000000
  2.5410547  -6.3003526   0.0000000
  2.5801325  -6.2951862   0.0000000
  2.6192102  -6.2897334   0.0000000
  2.6582880  -6.2845737   0.0000000
  2.6973658  -6.2810605   0.0000000
  2.7364435  -6.2762911   0.0000000
  2.7755213  -6.2680458   0.0000000
  2.8145991  -6.2590953   0.0000000
  2.8536768  -6.2501468   0.0000000
  2.8927546  -6.2404281   0.0000000
  2.9318324  -6.2340835   0.0000000
  2.9709101  -6.2268044   0.0000000
  3.0099879  -6.2236728   0.0000000
  3.0490657  -6.2208335   0.0000000
  3.0881434  -6.2195576   0.0000000
  3.1272212  -6.2182533   0.0000000
  3.1662989  -6.2156239   0.0000000
  3.2053767  -6.2160510   0.0000000
  3.2444545  -6.2145755   0.0000000
  3.2835322  -6.2106106   0.0000000
  3.3226100  -6.2072590   0.0000000
  3.3616878  -6.2031236   0.0000000
  3.4007655  -6.2011521   0.0000000
  3.4398433  -6.1987510   0.0000000
  3.4789211  -6.1958665   0.0000000
  3.5179988  -6.1909535   0.0000000
  3.5570766  -6.1894273   0.0000000
  3.5961544  -6.1860881   0.0000000
  3.6352321  -6.1853320   0.0000000
  3.6743099  -6.1811528   0.0000000
  3.7133877  -6.1815507   0.0000000
  3.7524654  -6.1675908   0.0000000
  3.7915432  -6.1430768   0.0000000
  3.8306209  -6.1407428   0.0000000
  3.8696987  -6.1404121   0.0000000
  3.9087765  -6.1429638   0.0000000
  3.9478542  -6.1481590   0.0000000
  3.9869320  -6.1523640   0.0000000
  4.0260098  -6.1597059   0.0000000
  4.0650875  -6.1654293   0.0000000
  4.1041653  -6.1695910   0.0000000
  4.1432431  -6.1699196   0.0000000
  4.1823208  -6.1669347   0.0000000
  4.2213986  -6.1593805   0.0000000
  4.2604764  -6.1477776   0.0000000
  4.2995541  -6.1394793   0.0000000
  4.3386319  -6.1315827   0.0000000
  4.3777097  -6.1286082   0.0000000
  4.4167874  -6.1344922   0.0000000
  4.4558652  -6.1462518   0.0000000
  4.4949429  -6.1595845   0.0000000
  4.5340207  -6.1714344   0.0000000
  4.5730985  -6.1773271   0.0000000
  4.6121762  -6.1779719   0.0000000
  4.6512540  -6.1690731   0.0000000
  4.6903318  -6.1575868   0.0000000
  4.7294095  -6.1599741   0.0000000
  4.7684873  -6.1784885   0.0000000
  4.8075651  -6.1718048   0.0000000
  4.8466428  -6.1653178   0.0000000
  4.8857206  -6.1596433   0.0000000
  4.9247984  -6.1540141   0.0000000
  4.9638761  -6.1547040   0.0000000
  5.0029539  -6.1520225   0.0000000
  5.0420317  -6.1566751   0.0000000
  5.0811094  -6.1625319   0.0000000
  5.1201872  -6.1683382   0.0000000
  5.1592649  -6.1765056   0.0000000
  5.1983427  -6.1865974   0.0000000
  5.2374205  -6.1945057   0.0000000
  5.2764982  -6.1976185   0.0000000
  5.3155760  -6.2027937   0.0000000
  5.3546538  -6.2030329   0.0000000
  5.3937315  -6.2031679   0.0000000
  5.4328093  -6.2003103   0.0000000
  5.4718871  -6.1962679   0.0000000
  5.5109648  -6.1935819   0.0000000
  5.5500426  -6.1911992   0.0000000
  5.5891204  -6.1913875   0.0000000
  5.6281981  -6.1913085   0.0000000
  5.6672759  -6.1922547   0.0000000
  5.7063537  -6.1830209   0.0000000
  5.7454314  -6.2088437   0.0000000
  5.7845092  -6.2186595   0.0000000
  5.8235869  -6.2286808   0.0000000
  5.8626647  -6.2352127   0.0000000
  5.9017425  -6.2405070   0.0000000
  5.9408202  -6.2492279   0.0000000
  5.9798980  -6.2566440   0.0000000
  6.0189758  -6.2608110   0.0000000
  6.0580535  -6.2665534   0.0000000
  6.0971313  -6.2718745   0.0000000
  6.1362091  -6.2776091   0.0000000
  6.1752868  -6.2820923   0.0000000
  6.2143646  -6.2868392   0.0000000
  6.2534424  -6.2921411   0.0000000
  6.2925201  -6.2977632   0.0000000
  6.3315979  -6.3012528   0.0000000
  6.3706757  -6.3097228   0.0000000
  6.4097534  -6.3143142   0.0000000
  6.4488312  -6.3197590   0.0000000
  6.4879089  -6.3271520   0.0000000
  6.5269867  -6.3316964   0.0000000
  6.5660645  -6.3347201   0.0000000
  6.6051422  -6.3385966   0.0000000
  6.6442200  -6.3453097   0.0000000
  6.6832978  -6.3479508   0.0000000
  6.7223755  -6.3530673   0.0000000
  6.7614533  -6.3583383   0.0000000
  6.8005311  -6.3670286   0.0000000
  6.8396088  -6.3749970   0.0000000
  6.8786866  -6.3855527   0.0000000
  6.9177644  -6.3953109   0.0000000
  6.9568421  -6.4069584   0.0000000
  6.9959199  -6.4166618   0.0000000
  7.0349977  -6.4239282   0.0000000
  7.0740754  -6.4299321   0.0000000
  7.1131532  -6.4359657   0.0000000
  7.1522309  -6.4410506   0.0000000
  7.1913087  -6.4476977   0.0000000
  7.2303865  -6.4549997   0.0000000
  7.2694642  -6.4669678   0.0000000
  7.3085420  -6.4792964   0.0000000
  7.3476198  -6.4905176   0.0000000
  7.3866975  -6.5008413   0.0000000
  7.4257753  -6.5098386   0.0000000
  7.4648531  -6.5156276   0.0000000
  7.5039308  -6.5216161   0.0000000
  7.5430086  -6.5304234   0.0000000
  7.5820864  -6.5383823   0.0000000
  7.6211641  -6.5481770   0.0000000
  7.6602419  -6.5605153   0.0000000
  7.6993197  -6.5738846   0.0000000
  7.7383974  -6.5846616   0.0000000
  7.7774752  -6.5931099   0.0000000
  7.8165530  -6.6032275   0.0000000
  7.8556307  -6.6101106   0.0000000
  7.8947085  -6.6186921   0.0000000
  7.9337862  -6.6298947   0.0000000
  7.9728640  -6.6412252   0.0000000
  8.0119418  -6.6507805   0.0000000
  8.0510195  -6.6637146   0.0000000
  8.0900973  -6.6749815   0.0000000
  8.1291751  -6.6843413   0.0000000
  8.1682528  -6.6931619   0.0000000
  8.2073306  -6.7022868   0.0000000
  8.2464084  -6.7132758   0.0000000
  8.2854861  -6.7258383   0.0000000
  8.3245639  -6.7369432   0.0000000
  8.3636417  -6.7493370   0.0000000
  8.4027194  -6.7586289   0.0000000
  8.4417972  -6.7702271   0.0000000
  8.4808750  -6.7816565   0.0000000
  8.5199527  -6.7924996   0.0000000
  8.5590305  -6.8034866   0.0000000
  8.5981082  -6.8158871   0.0000000
  8.6371860  -6.8284131   0.0000000
  8.6762638  -6.8404565   0.0000000
  8.7153415  -6.8485696   0.0000000
  8.7544193  -6.8594753   0.0000000
  8.7934971  -6.8678404   0.0000000
  8.8325748  -6.8811714   0.0000000
  8.8716526  -6.8945421   0.0000000
  8.9107304  -6.9072064   0.0000000
  8.9498081  -6.9191239   0.0000000
  8.9888859  -6.9289806   0.0000000
  9.0279637  -6.9392026   0.0000000
  9.0670414  -6.9494211   0.0000000
  9.1061192  -6.9615617   0.0000000
  9.1451970  -6.9759585   0.0000000
  9.1842747  -6.9890616   0.0000000
  9.2233525  -7.0006109   0.0000000
  9.2624302  -7.0133078   0.0000000
  9.3015080  -7.0232874   0.0000000
  9.3405858  -7.0354680   0.0000000
  9.3796635  -7.0477870   0.0000000
  9.4187413  -7.0578879   0.0000000
  9.4578191  -7.0689261   0.0000000
  9.4968968  -7.0824725   0.0000000
  9.5359746  -7.0938540   0.0000000
  9.5750524  -7.1062694   0.0000000
  9.6141301  -7.1200982   0.0000000
  9.6532079  -7.1304593   0.0000000
  9.6922857  -7.1405118   0.0000000
  9.7313634  -7.1523010   0.0000000
  9.7704412  -7.1656883   0.0000000
  9.8095190  -7.1800761   0.0000000
  9.8485967  -7.1913937   0.0000000
  9.8876745  -7.2024509   0.0000000
  9.9267522  -7.2129745   0.0000000
  9.9658300  -7.2243875   0.0000000
 10.0049078  -7.2386358   0.0000000
 10.0439855  -7.2505581   0.0000000
 10.0830633  -7.2620468   0.0000000
 10.1221411  -7.2746592   0.0000000
 10.1612188  -7.2855615   0.0000000
 10.2002966  -7.2969722   0.0000000
 10.2393744  -7.3107934   0.0000000
 10.2784521  -7.3247734   0.0000000
 10.3175299  -7.3356162   0.0000000
 10.3566077  -7.3445886   0.0000000
 10.3956854  -7.3572834   0.0000000
 10.4347632  -7.3697850   0.0000000
 10.4738410  -7.3848786   0.0000000
 10.5129187  -7.3988677   0.0000000
 10.5519965  -7.4063487   0.0000000
 10.5910742  -7.4176289   0.0000000
 10.6301520  -7.4403780   0.0000000
 10.6692298  -7.4458075   0.0000000
 10.7083075  -7.4557002   0.0000000
 10.7473853  -7.4658142   0.0000000
 10.7864631  -7.4793855   0.0000000
 10.8255408  -7.4935193   0.0000000
 10.8646186  -7.5052192   0.0000000
 10.9036964  -7.5167343   0.0000000
 10.9427741  -7.5256102   0.0000000
 10.9818519  -7.5369936   0.0000000
 11.0209297  -7.5515053   0.0000000
 11.0600074  -7.5653405   0.0000000
 11.0990852  -7.5773363   0.0000000
 11.1381630  -7.5868369   0.0000000
 11.1772407  -7.5966854   0.0000000
 11.2163185  -7.6089852   0.0000000
 11.2553962  -7.6241238   0.0000000
 11.2944740  -7.6387569   0.0000000
 11.3335518  -7.6488400   0.0000000
 11.3726295  -7.6535699   0.0000000
 11.4117073  -7.6680717   0.0000000
 11.4507851  -7.6834636   0.0000000
 11.4898628  -7.6998887   0.0000000
 11.5289406  -7.7076817   0.0000000
 11.5680184  -7.7146850   0.0000000
 11.6070961  -7.7256207   0.0000000
 11.6461739  -7.7457580   0.0000000
 11.6852517  -7.7609144   0.0000000
 11.7243294  -7.7646030   0.0000000
 11.7634072  -7.7677955   0.0000000
 11.8024850  -7.7891340   0.0000000
 11.8415627  -7.8089524   0.0000000
 11.8806405  -7.8129272   0.0000000
 11.9197182  -7.8132107   0.0000000
 11.9587960  -7.8373385   0.0000000
 11.9978738  -7.8555412   0.0000000
 12.0369515  -7.8544394   0.0000000
 12.0760293  -7.8583743   0.0000000
 12.1151071  -7.8859759   0.0000000
 12.1541848  -7.9019296   0.0000000
 12.1932626  -7.8944444   0.0000000
 12.2323404  -7.9095380   0.0000000
 12.2714181  -7.9385767   0.0000000
 12.3104959  -7.9396382   0.0000000
 12.3495737  -7.9363667   0.0000000
 12.3886514  -7.9671841   0.0000000
 12.4277292  -7.9848531   0.0000000
 12.4668070  -7.9720334   0.0000000
 12.5058847  -7.9922478   0.0000000
 12.5449625  -8.0233345   0.0000000
 12.5840403  -8.0131535   0.0000000
 12.6231180  -8.0209588   0.0000000
 12.6621958  -8.0565985   0.0000000
 12.7012735  -8.0503688   0.0000000
 12.7403513  -8.0502162   0.0000000
 12.7794291  -8.0885271   0.0000000
 12.8185068  -8.0875278   0.0000000
 12.8575846  -8.0820868   0.0000000
 12.8966624  -8.1220241   0.0000000
 12.9357401  -8.1224287   0.0000000
 12.9748179  -8.1152334   0.0000000
 13.0138957  -8.1520515   0.0000000
 13.0529734  -8.1568021   0.0000000
 13.0920512  -8.1471774   0.0000000
 13.1311290  -8.1857559   0.0000000
 13.1702067  -8.1863656   0.0000000
 13.2092845  -8.1819492   0.0000000
 13.2483623  -8.2256170   0.0000000
 13.2874400  -8.2099471   0.0000000
 13.3265178  -8.2462637   0.0000000
 13.3655955  -8.2290259   0.0000000
 13.4046733  -8.2458244   0.0000000
 13.4437511  -8.2783745   0.0000000
 13.4828288  -8.2589385   0.0000000
 13.5219066  -8.2832619   0.0000000
 13.5609844  -8.3093994   0.0000000
 13.6000621  -8.2882169   0.0000000
 13.6391399  -8.3183862   0.0000000
 13.6782177  -8.3398078   0.0000000
 13.7172954  -8.3192175   0.0000000
 13.7563732  -8.3577377   0.0000000
 13.7954510  -8.3654352   0.0000000
 13.8345287  -8.3509168   0.0000000
 13.8736065  -8.3976433   0.0000000
 13.9126843  -8.3868361   0.0000000
 13.9517620  -8.3903534   0.0000000
 13.9908398  -8.4296629   0.0000000
 14.0299175  -8.4103602   0.0000000
 14.0689953  -8.4286079   0.0000000
 14.1080731  -8.4605892   0.0000000
 14.1471508  -8.4359433   0.0000000
 14.1862286  -8.4723498   0.0000000
 14.2253064  -8.4838060   0.0000000
 14.2643841  -8.4661646   0.0000000
 14.3034619  -8.5121307   0.0000000
 14.3425397  -8.5029759   0.0000000
 14.3816174  -8.5019493   0.0000000
 14.4206952  -8.5452282   0.0000000
 14.4597730  -8.5218468   0.0000000
 14.4988507  -8.5473735   0.0000000
 14.5379285  -8.5709587   0.0000000
 14.5770063  -8.5485444   0.0000000
 14.6160840  -8.5863390   0.0000000
 14.6551618  -8.5942677   0.0000000
 14.6942395  -8.5787158   0.0000000
 14.7333173  -8.6228051   0.0000000
 14.7723951  -8.6131436   0.0000000
 14.8114728  -8.6161096   0.0000000
 14.8505506  -8.6563629   0.0000000
 14.8896284  -8.6380406   0.0000000
 14.9287061  -8.6508019   0.0000000
 14.9677839  -8.6839324   0.0000000
 15.0068617  -8.6678257   0.0000000
 15.0459394  -8.6803762   0.0000000
 15.0850172  -8.7151274   0.0000000
 15.1240950  -8.6976761   0.0000000
 15.1631727  -8.7103144   0.0000000
 15.2022505  -8.7440468   0.0000000
 15.2413283  -8.7314896   0.0000000
 15.2804060  -8.7348909   0.0000000
 15.3194838  -8.7716392   0.0000000
 15.3585615  -8.7654454   0.0000000
 15.3976393  -8.7618567   0.0000000
 15.4367171  -8.7961475   0.0000000
 15.4757948  -8.7959210   0.0000000
 15.5148726  -8.7881620   0.0000000
 15.5539504  -8.8177710   0.0000000
 15.5930281  -8.8328213   0.0000000
 15.6321059  -8.8207917   0.0000000
 15.6711837  -8.8359718   0.0000000
 15.7102614  -8.8644729   0.0000000
 15.7493392  -8.8562856   0.0000000
 15.7884170  -8.8590256   0.0000000
 15.8274947  -8.8917930   0.0000000
 15.8665725  -8.8938183   0.0000000
 15.9056503  -8.8854538   0.0000000
 15.9447280  -8.9096868   0.0000000
 15.9838058  -8.9290642   0.0000000
 16.0228835  -8.9168834   0.0000000
 16.0619613  -8.9274075   0.0000000
 16.1010391  -8.9562890   0.0000000
 16.1401168  -8.9554731   0.0000000
 16.1791946  -8.9498958   0.0000000
 16.2182724  -8.9747939   0.0000000
 16.2573501  -8.9922396   0.0000000
 16.2964279  -8.9841224   0.0000000
 16.3355057  -8.9898391   0.0000000
 16.3745834  -9.0181550   0.0000000
 16.4136612  -9.0231106   0.0000000
 16.4527390  -9.0159355   0.0000000
 16.4918167  -9.0316030   0.0000000
 16.5308945  -9.0541615   0.0000000
 16.5699723  -9.0546603   0.0000000
 16.6090500  -9.0527744   0.0000000
 16.6481278  -9.0680038   0.0000000
 16.6872055  -9.0901765   0.0000000
 16.7262833  -9.0890752   0.0000000
 16.7653611  -9.0852940   0.0000000
 16.8044388  -9.1044491   0.0000000
 16.8435166  -9.1240417   0.0000000
 16.8825944  -9.1240561   0.0000000
 16.9216721  -9.1237791   0.0000000
 16.9607499  -9.1376885   0.0000000
 16.9998277  -9.1567493   0.0000000
 17.0389054  -9.1621471   0.0000000
 17.0779832  -9.1586828   0.0000000
 17.1170610  -9.1701553   0.0000000
 17.1561387  -9.1927430   0.0000000
 17.1952165  -9.1951136   0.0000000
 17.2342943  -9.1881723   0.0000000
 17.2733720  -9.2046404   0.0000000
 17.3124498  -9.2276317   0.0000000
 17.3515275  -9.2213105   0.0000000
 17.3906053  -9.2206403   0.0000000
 17.4296831  -9.2469502   0.0000000
 17.4687608  -9.2596769   0.0000000
 17.5078386  -9.2473855   0.0000000
 17.5469164  -9.2607149   0.0000000
 17.5859941  -9.2876039   0.0000000
 17.6250719  -9.2830546   0.0000000
 17.6641497  -9.2774383   0.0000000
 17.7032274  -9.3073089   0.0000000
 17.7423052  -9.3164608   0.0000000
 17.7813830  -9.3036410   0.0000000
 17.8204607  -9.3198637   0.0000000
 17.8595385  -9.3430015   0.0000000
 17.8986163  -9.3353728   0.0000000
 17.9376940  -9.3348675   0.0000000
 17.9767718  -9.3621065   0.0000000
 18.0158496  -9.3711360   0.0000000
 18.0549273  -9.3584660   0.0000000
 18.0940051  -9.3736355   0.0000000
 18.1330828  -9.3968656   0.0000000
 18.1721606  -9.3947529   0.0000000
 18.2112384  -9.3909532   0.0000000
 18.2503161  -9.4108878   0.0000000
 18.2893939  -9.4262131   0.0000000
 18.3284717  -9.4206289   0.0000000
 18.3675494  -9.4224229   0.0000000
 18.4066272  -9.4400064   0.0000000
 18.4457050  -9.4545368   0.0000000
 18.4847827  -9.4517177   0.0000000
 18.5238605  -9.4521528   0.0000000
 18.5629383  -9.4680673   0.0000000
 18.6020160  -9.4821960   0.0000000
 18.6410938  -9.4851923   0.0000000
 18.6801716  -9.4822287   0.0000000
 18.7192493  -9.4927877   0.0000000
 18.7583271  -9.5098972   0.0000000
 18.7974048  -9.5161575   0.0000000
 18.8364826  -9.5156407   0.0000000
 18.8755604  -9.5194830   0.0000000
 18.9146381  -9.5319440   0.0000000
 18.9537159  -9.5427678   0.0000000
 18.9927937  -9.5485422   0.0000000
 19.0318714  -9.5497315   0.0000000
 19.0709492  -9.5553279   0.0000000
 19.1100270  -9.5669195   0.0000000
 19.1491047  -9.5756792   0.0000000
 19.1881825  -9.5829400   0.0000000
 19.2272603  -9.5849211   0.0000000
 19.2663380  -9.5875503   0.0000000
 19.3054158  -9.5989869   0.0000000
 19.3444936  -9.6077210   0.0000000
 19.3835713  -9.6158371   0.0000000
 19.4226491  -9.6209039   0.0000000
 19.4617268  -9.6257676   0.0000000
 19.5008046  -9.6299398   0.0000000
 19.5398824  -9.6383363   0.0000000
 19.5789601  -9.6474085   0.0000000
 19.6180379  -9.6526920   0.0000000
 19.6571157  -9.6564458   0.0000000
 19.6961934  -9.6623768   0.0000000
 19.7352712  -9.6692092   0.0000000
 19.7743490  -9.6784148   0.0000000
 19.8134267  -9.6839713   0.0000000
 19.8525045  -9.6889577   0.0000000
 19.8915823  -9.6959259   0.0000000
 19.9306600  -9.6990538   0.0000000
 19.9697378  -9.7075518   0.0000000
 20.0088156  -9.7150150   0.0000000
 20.0478933  -9.7185969   0.0000000
 20.0869711  -9.7248735   0.0000000
 20.1260488  -9.7308204   0.0000000
 20.1651266  -9.7359376   0.0000000
 20.2042044  -9.7429576   0.0000000
 20.2432821  -9.7487411   0.0000000
 20.2823599  -9.7557902   0.0000000
 20.3214377  -9.7611717   0.0000000
 20.3605154  -9.7655399   0.0000000
 20.3995932  -9.7716166   0.0000000
 20.4386710  -9.7783989   0.0000000
 20.4777487  -9.7844757   0.0000000
 20.5168265  -9.7876771   0.0000000
 20.5559043  -9.7929300   0.0000000
 20.5949820  -9.7967367   0.0000000
 20.6340598  -9.8030327   0.0000000
 20.6731376  -9.8091399   0.0000000
 20.7122153  -9.8167945   0.0000000
 20.7512931  -9.8232972   0.0000000
 20.7903708  -9.8267959   0.0000000
 20.8294486  -9.8307012   0.0000000
 20.8685264  -9.8348370   0.0000000
 20.9076041  -9.8367703   0.0000000
 20.9466819  -9.8421585   0.0000000
 20.9857597  -9.8499917   0.0000000
