! ListType=Lin
! Comment=Upconverter-125MHz-ADE LO Bandpass Filter
# MHZ S DB R 50
  0.1000000 -12.0759794   0.0000000 -77.8543611   0.0000000 -3000.0000000 -90.0000000 -12.0744017   0.0000000
  0.1749937 -12.0715876   0.0000000 -69.6630745   0.0000000 -3000.0000000 -90.0000000 -12.0720879   0.0000000
  0.2499875 -12.0754890   0.0000000 -77.6095204   0.0000000 -3000.0000000 -90.0000000 -12.0729896   0.0000000
  0.3249812 -12.0740512   0.0000000 -77.9785745   0.0000000 -3000.0000000 -90.0000000 -12.0734820   0.0000000
  0.3999750 -12.0757885   0.0000000 -77.9143887   0.0000000 -3000.0000000 -90.0000000 -12.0724118   0.0000000
  0.4749687 -12.0770836   0.0000000 -78.3609305   0.0000000 -3000.0000000 -90.0000000 -12.0722381   0.0000000
  0.5499625 -12.0797864   0.0000000 -78.2167652   0.0000000 -3000.0000000 -90.0000000 -12.0780571   0.0000000
  0.6249562 -12.0783480   0.0000000 -78.4935327   0.0000000 -3000.0000000 -90.0000000 -12.0746466   0.0000000
  0.6999500 -12.0800529   0.0000000 -77.8249329   0.0000000 -3000.0000000 -90.0000000 -12.0798726   0.0000000
  0.7749437 -12.0849169   0.0000000 -79.0391538   0.0000000 -3000.0000000 -90.0000000 -12.0796312   0.0000000
  0.8499375 -12.0816095   0.0000000 -78.0775684   0.0000000 -3000.0000000 -90.0000000 -12.0779458   0.0000000
  0.9249312 -12.0823831   0.0000000 -78.1325285   0.0000000 -3000.0000000 -90.0000000 -12.0802689   0.0000000
  0.9999250 -12.0840251   0.0000000 -78.1701616   0.0000000 -3000.0000000 -90.0000000 -12.0819406   0.0000000
  1.0749187 -12.0857038   0.0000000 -78.0523990   0.0000000 -3000.0000000 -90.0000000 -12.0800956   0.0000000
  1.1499125 -12.0847945   0.0000000 -78.5452252   0.0000000 -3000.0000000 -90.0000000 -12.0840431   0.0000000
  1.2249062 -12.0890812   0.0000000 -78.1322759   0.0000000 -3000.0000000 -90.0000000 -12.0886500   0.0000000
  1.2999000 -12.0894314   0.0000000 -78.4630248   0.0000000 -3000.0000000 -90.0000000 -12.0840720   0.0000000
  1.3748937 -12.0924561   0.0000000 -78.4045853   0.0000000 -3000.0000000 -90.0000000 -12.0878137   0.0000000
  1.4498875 -12.0923117   0.0000000 -78.4012349   0.0000000 -3000.0000000 -90.0000000 -12.0867850   0.0000000
  1.5248812 -12.0979947   0.0000000 -78.0208232   0.0000000 -3000.0000000 -90.0000000 -12.0946844   0.0000000
  1.5998750 -12.0985331   0.0000000 -78.2026803   0.0000000 -3000.0000000 -90.0000000 -12.0981471   0.0000000
  1.6748687 -12.0972188   0.0000000 -78.1130486   0.0000000 -3000.0000000 -90.0000000 -12.0938001   0.0000000
  1.7498625 -12.0990935   0.0000000 -78.2169192   0.0000000 -3000.0000000 -90.0000000 -12.0954638   0.0000000
  1.8248562 -12.1027358   0.0000000 -78.6904055   0.0000000 -3000.0000000 -90.0000000 -12.1012925   0.0000000
  1.8998500 -12.1034593   0.0000000 -78.5064946   0.0000000 -3000.0000000 -90.0000000 -12.1017622   0.0000000
  1.9748437 -12.1055513   0.0000000 -77.9513227   0.0000000 -3000.0000000 -90.0000000 -12.1037039   0.0000000
  2.0498375 -12.1049057   0.0000000 -78.5263863   0.0000000 -3000.0000000 -90.0000000 -12.1051300   0.0000000
  2.1248312 -12.1030219   0.0000000 -78.4296255   0.0000000 -3000.0000000 -90.0000000 -12.1020677   0.0000000
  2.1998250 -12.1098709   0.0000000 -78.4330534   0.0000000 -3000.0000000 -90.0000000 -12.1054840   0.0000000
  2.2748187 -12.1096875   0.0000000 -78.2529564   0.0000000 -3000.0000000 -90.0000000 -12.1057254   0.0000000
  2.3498125 -12.1150442   0.0000000 -77.9917722   0.0000000 -3000.0000000 -90.0000000 -12.1097163   0.0000000
  2.4248062 -12.1100408   0.0000000 -78.4914266   0.0000000 -3000.0000000 -90.0000000 -12.1085042   0.0000000
  2.4997999 -12.1160920   0.0000000 -78.4943013   0.0000000 -3000.0000000 -90.0000000 -12.1137040   0.0000000
  2.5747937 -12.1172769   0.0000000 -78.4633889   0.0000000 -3000.0000000 -90.0000000 -12.1147094   0.0000000
  2.6497874 -12.1116405   0.0000000 -78.6839385   0.0000000 -3000.0000000 -90.0000000 -12.1069262   0.0000000
  2.7247812 -12.1165345   0.0000000 -77.9934238   0.0000000 -3000.0000000 -90.0000000 -12.1143453   0.0000000
  2.7997749 -12.1195931   0.0000000 -78.1268222   0.0000000 -3000.0000000 -90.0000000 -12.1147888   0.0000000
  2.8747687 -12.1191464   0.0000000 -78.5117163   0.0000000 -3000.0000000 -90.0000000 -12.1152235   0.0000000
  2.9497624 -12.1156006   0.0000000 -78.1536599   0.0000000 -3000.0000000 -90.0000000 -12.1144633   0.0000000
  3.0247562 -12.1213949   0.0000000 -78.5541031   0.0000000 -3000.0000000 -90.0000000 -12.1180272   0.0000000
  3.0997499 -12.1198090   0.0000000 -78.4103410   0.0000000 -3000.0000000 -90.0000000 -12.1209037   0.0000000
  3.1747437 -12.1200590   0.0000000 -78.1820082   0.0000000 -3000.0000000 -90.0000000 -12.1178743   0.0000000
  3.2497374 -12.1214410   0.0000000 -78.1508776   0.0000000 -3000.0000000 -90.0000000 -12.1227842   0.0000000
  3.3247312 -12.1221500   0.0000000 -78.3866955   0.0000000 -3000.0000000 -90.0000000 -12.1188231   0.0000000
  3.3997249 -12.1281352   0.0000000 -78.2216362   0.0000000 -3000.0000000 -90.0000000 -12.1271836   0.0000000
  3.4747187 -12.1261371   0.0000000 -78.4319719   0.0000000 -3000.0000000 -90.0000000 -12.1204043   0.0000000
  3.5497124 -12.1283869   0.0000000 -78.3196077   0.0000000 -3000.0000000 -90.0000000 -12.1262836   0.0000000
  3.6247062 -12.1254541   0.0000000 -78.4088142   0.0000000 -3000.0000000 -90.0000000 -12.1258540   0.0000000
  3.6996999 -12.1309183   0.0000000 -78.0193539   0.0000000 -3000.0000000 -90.0000000 -12.1271776   0.0000000
  3.7746937 -12.1295935   0.0000000 -78.0571245   0.0000000 -3000.0000000 -90.0000000 -12.1268950   0.0000000
  3.8496874 -12.1324935   0.0000000 -78.0773499   0.0000000 -3000.0000000 -90.0000000 -12.1236161   0.0000000
  3.9246812 -12.1324685   0.0000000 -78.7331258   0.0000000 -3000.0000000 -90.0000000 -12.1310083   0.0000000
  3.9996749 -12.1344539   0.0000000 -78.5421623   0.0000000 -3000.0000000 -90.0000000 -12.1318047   0.0000000
  4.0746687 -12.1355164   0.0000000 -78.5269864   0.0000000 -3000.0000000 -90.0000000 -12.1308096   0.0000000
  4.1496624 -12.1362921   0.0000000 -78.1849544   0.0000000 -3000.0000000 -90.0000000 -12.1366506   0.0000000
  4.2246562 -12.1305065   0.0000000 -78.0114214   0.0000000 -3000.0000000 -90.0000000 -12.1304988   0.0000000
  4.2996499 -12.1369262   0.0000000 -78.2531455   0.0000000 -3000.0000000 -90.0000000 -12.1355773   0.0000000
  4.3746437 -12.1383566   0.0000000 -78.4252377   0.0000000 -3000.0000000 -90.0000000 -12.1368521   0.0000000
  4.4496374 -12.1365740   0.0000000 -78.3218506   0.0000000 -3000.0000000 -90.0000000 -12.1349835   0.0000000
  4.5246312 -12.1364302   0.0000000 -78.4512353   0.0000000 -3000.0000000 -90.0000000 -12.1384192   0.0000000
  4.5996249 -12.1417559   0.0000000 -78.3820026   0.0000000 -3000.0000000 -90.0000000 -12.1390601   0.0000000
  4.6746187 -12.1387672   0.0000000 -78.2442810   0.0000000 -3000.0000000 -90.0000000 -12.1387683   0.0000000
  4.7496124 -12.1386978   0.0000000 -78.1796078   0.0000000 -3000.0000000 -90.0000000 -12.1383863   0.0000000
  4.8246062 -12.1389899   0.0000000 -78.5669511   0.0000000 -3000.0000000 -90.0000000 -12.1412057   0.0000000
  4.8995999 -12.1407211   0.0000000 -78.6027575   0.0000000 -3000.0000000 -90.0000000 -12.1404478   0.0000000
  4.9745936 -12.1440926   0.0000000 -78.4791724   0.0000000 -3000.0000000 -90.0000000 -12.1426155   0.0000000
  5.0495874 -12.1410775   0.0000000 -78.4249797   0.0000000 -3000.0000000 -90.0000000 -12.1417315   0.0000000
  5.1245811 -12.1450977   0.0000000 -78.0478618   0.0000000 -3000.0000000 -90.0000000 -12.1428446   0.0000000
  5.1995749 -12.1463675   0.0000000 -78.3571483   0.0000000 -3000.0000000 -90.0000000 -12.1425503   0.0000000
  5.2745686 -12.1477975   0.0000000 -78.7059938   0.0000000 -3000.0000000 -90.0000000 -12.1443851   0.0000000
  5.3495624 -12.1507437   0.0000000 -78.3243607   0.0000000 -3000.0000000 -90.0000000 -12.1495184   0.0000000
  5.4245561 -12.1479282   0.0000000 -78.7285903   0.0000000 -3000.0000000 -90.0000000 -12.1461287   0.0000000
  5.4995499 -12.1462780   0.0000000 -78.1757396   0.0000000 -3000.0000000 -90.0000000 -12.1451390   0.0000000
  5.5745436 -12.1523772   0.0000000 -78.6258396   0.0000000 -3000.0000000 -90.0000000 -12.1488473   0.0000000
  5.6495374 -12.1500008   0.0000000 -78.3427310   0.0000000 -3000.0000000 -90.0000000 -12.1471528   0.0000000
  5.7245311 -12.1505873   0.0000000 -78.3254991   0.0000000 -3000.0000000 -90.0000000 -12.1460989   0.0000000
  5.7995249 -12.1532960   0.0000000 -78.8345640   0.0000000 -3000.0000000 -90.0000000 -12.1531601   0.0000000
  5.8745186 -12.1487271   0.0000000 -78.3648875   0.0000000 -3000.0000000 -90.0000000 -12.1473943   0.0000000
  5.9495124 -12.1524220   0.0000000 -78.5962531   0.0000000 -3000.0000000 -90.0000000 -12.1539240   0.0000000
  6.0245061 -12.1514189   0.0000000 -78.4009205   0.0000000 -3000.0000000 -90.0000000 -12.1518631   0.0000000
  6.0994999 -12.1526055   0.0000000 -78.5336933   0.0000000 -3000.0000000 -90.0000000 -12.1496191   0.0000000
  6.1744936 -12.1548472   0.0000000 -78.1905052   0.0000000 -3000.0000000 -90.0000000 -12.1510117   0.0000000
  6.2494874 -12.1573112   0.0000000 -78.3016296   0.0000000 -3000.0000000 -90.0000000 -12.1543527   0.0000000
  6.3244811 -12.1572209   0.0000000 -78.3293328   0.0000000 -3000.0000000 -90.0000000 -12.1538057   0.0000000
  6.3994749 -12.1591967   0.0000000 -78.8468722   0.0000000 -3000.0000000 -90.0000000 -12.1559691   0.0000000
  6.4744686 -12.1534677   0.0000000 -78.1785073   0.0000000 -3000.0000000 -90.0000000 -12.1553121   0.0000000
  6.5494624 -12.1545007   0.0000000 -78.5824428   0.0000000 -3000.0000000 -90.0000000 -12.1560428   0.0000000
  6.6244561 -12.1568990   0.0000000 -78.3033086   0.0000000 -3000.0000000 -90.0000000 -12.1561786   0.0000000
  6.6994499 -12.1598294   0.0000000 -79.0266056   0.0000000 -3000.0000000 -90.0000000 -12.1601896   0.0000000
  6.7744436 -12.1574420   0.0000000 -78.0724107   0.0000000 -3000.0000000 -90.0000000 -12.1603547   0.0000000
  6.8494374 -12.1586818   0.0000000 -78.6432682   0.0000000 -3000.0000000 -90.0000000 -12.1576959   0.0000000
  6.9244311 -12.1673195   0.0000000 -78.3265563   0.0000000 -3000.0000000 -90.0000000 -12.1630827   0.0000000
  6.9994249 -12.1665446   0.0000000 -78.9497897   0.0000000 -3000.0000000 -90.0000000 -12.1620123   0.0000000
  7.0744186 -12.1586953   0.0000000 -78.5119843   0.0000000 -3000.0000000 -90.0000000 -12.1579551   0.0000000
  7.1494124 -12.1642909   0.0000000 -78.6875704   0.0000000 -3000.0000000 -90.0000000 -12.1618469   0.0000000
  7.2244061 -12.1661556   0.0000000 -78.3046195   0.0000000 -3000.0000000 -90.0000000 -12.1642526   0.0000000
  7.2993998 -12.1613408   0.0000000 -78.5474708   0.0000000 -3000.0000000 -90.0000000 -12.1586709   0.0000000
  7.3743936 -12.1673500   0.0000000 -78.3364443   0.0000000 -3000.0000000 -90.0000000 -12.1608034   0.0000000
  7.4493873 -12.1656642   0.0000000 -77.9054785   0.0000000 -3000.0000000 -90.0000000 -12.1656716   0.0000000
  7.5243811 -12.1643842   0.0000000 -78.3035277   0.0000000 -3000.0000000 -90.0000000 -12.1628235   0.0000000
  7.5993748 -12.1687312   0.0000000 -78.0247922   0.0000000 -3000.0000000 -90.0000000 -12.1654186   0.0000000
  7.6743686 -12.1642055   0.0000000 -78.4437439   0.0000000 -3000.0000000 -90.0000000 -12.1650079   0.0000000
  7.7493623 -12.1665476   0.0000000 -78.6487280   0.0000000 -3000.0000000 -90.0000000 -12.1651127   0.0000000
  7.8243561 -12.1659960   0.0000000 -78.5072364   0.0000000 -3000.0000000 -90.0000000 -12.1671752   0.0000000
  7.8993498 -12.1679350   0.0000000 -78.3781233   0.0000000 -3000.0000000 -90.0000000 -12.1680791   0.0000000
  7.9743436 -12.1700320   0.0000000 -78.7405250   0.0000000 -3000.0000000 -90.0000000 -12.1656118   0.0000000
  8.0493373 -12.1696680   0.0000000 -78.0949091   0.0000000 -3000.0000000 -90.0000000 -12.1636611   0.0000000
  8.1243311 -12.1680726   0.0000000 -78.0160023   0.0000000 -3000.0000000 -90.0000000 -12.1690675   0.0000000
  8.1993248 -12.1674602   0.0000000 -78.5165169   0.0000000 -3000.0000000 -90.0000000 -12.1720317   0.0000000
  8.2743186 -12.1694800   0.0000000 -78.3157764   0.0000000 -3000.0000000 -90.0000000 -12.1678577   0.0000000
  8.3493123 -12.1727635   0.0000000 -78.3497539   0.0000000 -3000.0000000 -90.0000000 -12.1659651   0.0000000
  8.4243061 -12.1723267   0.0000000 -78.9369875   0.0000000 -3000.0000000 -90.0000000 -12.1690107   0.0000000
  8.4992998 -12.1722661   0.0000000 -78.4346349   0.0000000 -3000.0000000 -90.0000000 -12.1665771   0.0000000
  8.5742936 -12.1725438   0.0000000 -78.8354465   0.0000000 -3000.0000000 -90.0000000 -12.1696302   0.0000000
  8.6492873 -12.1739145   0.0000000 -78.5877809   0.0000000 -3000.0000000 -90.0000000 -12.1735701   0.0000000
  8.7242811 -12.1734105   0.0000000 -78.6456842   0.0000000 -3000.0000000 -90.0000000 -12.1721049   0.0000000
  8.7992748 -12.1793511   0.0000000 -78.4499915   0.0000000 -3000.0000000 -90.0000000 -12.1724931   0.0000000
  8.8742686 -12.1766013   0.0000000 -78.4422616   0.0000000 -3000.0000000 -90.0000000 -12.1732077   0.0000000
  8.9492623 -12.1777987   0.0000000 -78.4600879   0.0000000 -3000.0000000 -90.0000000 -12.1759369   0.0000000
  9.0242561 -12.1710518   0.0000000 -78.7270757   0.0000000 -3000.0000000 -90.0000000 -12.1736980   0.0000000
  9.0992498 -12.1753981   0.0000000 -78.4942285   0.0000000 -3000.0000000 -90.0000000 -12.1782246   0.0000000
  9.1742436 -12.1707953   0.0000000 -78.5046532   0.0000000 -3000.0000000 -90.0000000 -12.1729375   0.0000000
  9.2492373 -12.1784618   0.0000000 -78.6001357   0.0000000 -3000.0000000 -90.0000000 -12.1744158   0.0000000
  9.3242311 -12.1768469   0.0000000 -78.4637302   0.0000000 -3000.0000000 -90.0000000 -12.1770405   0.0000000
  9.3992248 -12.1794496   0.0000000 -78.7674251   0.0000000 -3000.0000000 -90.0000000 -12.1814238   0.0000000
  9.4742186 -12.1764902   0.0000000 -78.2785458   0.0000000 -3000.0000000 -90.0000000 -12.1787812   0.0000000
  9.5492123 -12.1798382   0.0000000 -78.0821491   0.0000000 -3000.0000000 -90.0000000 -12.1815114   0.0000000
  9.6242061 -12.1737600   0.0000000 -78.1100312   0.0000000 -3000.0000000 -90.0000000 -12.1754033   0.0000000
  9.6991998 -12.1824792   0.0000000 -78.1981837   0.0000000 -3000.0000000 -90.0000000 -12.1829725   0.0000000
  9.7741935 -12.1760227   0.0000000 -78.1780298   0.0000000 -3000.0000000 -90.0000000 -12.1778766   0.0000000
  9.8491873 -12.1786000   0.0000000 -78.6275505   0.0000000 -3000.0000000 -90.0000000 -12.1789581   0.0000000
  9.9241810 -12.1823886   0.0000000 -78.3235447   0.0000000 -3000.0000000 -90.0000000 -12.1795256   0.0000000
  9.9991748 -12.1800343   0.0000000 -78.7809993   0.0000000 -3000.0000000 -90.0000000 -12.1833047   0.0000000
 10.0741685 -12.1851677   0.0000000 -78.6802837   0.0000000 -3000.0000000 -90.0000000 -12.1828552   0.0000000
 10.1491623 -12.1881938   0.0000000 -78.4572241   0.0000000 -3000.0000000 -90.0000000 -12.1850488   0.0000000
 10.2241560 -12.1879935   0.0000000 -78.2172075   0.0000000 -3000.0000000 -90.0000000 -12.1904491   0.0000000
 10.2991498 -12.1860179   0.0000000 -78.5931816   0.0000000 -3000.0000000 -90.0000000 -12.1839370   0.0000000
 10.3741435 -12.1849223   0.0000000 -78.2993651   0.0000000 -3000.0000000 -90.0000000 -12.1840451   0.0000000
 10.4491373 -12.1855026   0.0000000 -78.4115275   0.0000000 -3000.0000000 -90.0000000 -12.1828674   0.0000000
 10.5241310 -12.1827016   0.0000000 -78.3716395   0.0000000 -3000.0000000 -90.0000000 -12.1857061   0.0000000
 10.5991248 -12.1875642   0.0000000 -78.5249741   0.0000000 -3000.0000000 -90.0000000 -12.1850685   0.0000000
 10.6741185 -12.1901573   0.0000000 -78.3996933   0.0000000 -3000.0000000 -90.0000000 -12.1906896   0.0000000
 10.7491123 -12.1841178   0.0000000 -78.6316928   0.0000000 -3000.0000000 -90.0000000 -12.1862048   0.0000000
 10.8241060 -12.1844557   0.0000000 -78.2718039   0.0000000 -3000.0000000 -90.0000000 -12.1879718   0.0000000
 10.8990998 -12.1903896   0.0000000 -78.7670097   0.0000000 -3000.0000000 -90.0000000 -12.1860973   0.0000000
 10.9740935 -12.1848820   0.0000000 -78.1651537   0.0000000 -3000.0000000 -90.0000000 -12.1824371   0.0000000
 11.0490873 -12.1868232   0.0000000 -77.9800131   0.0000000 -3000.0000000 -90.0000000 -12.1868110   0.0000000
 11.1240810 -12.1860354   0.0000000 -78.3146867   0.0000000 -3000.0000000 -90.0000000 -12.1877177   0.0000000
 11.1990748 -12.1861040   0.0000000 -78.5255509   0.0000000 -3000.0000000 -90.0000000 -12.1877323   0.0000000
 11.2740685 -12.1891126   0.0000000 -78.3386585   0.0000000 -3000.0000000 -90.0000000 -12.1909562   0.0000000
 11.3490623 -12.1880623   0.0000000 -78.4370740   0.0000000 -3000.0000000 -90.0000000 -12.1883865   0.0000000
 11.4240560 -12.1877479   0.0000000 -77.5379813   0.0000000 -3000.0000000 -90.0000000 -12.1886517   0.0000000
 11.4990498 -12.1915580   0.0000000 -78.1386477   0.0000000 -3000.0000000 -90.0000000 -12.1865838   0.0000000
 11.5740435 -12.1941822   0.0000000 -78.3091382   0.0000000 -3000.0000000 -90.0000000 -12.1932724   0.0000000
 11.6490373 -12.1893817   0.0000000 -78.3906792   0.0000000 -3000.0000000 -90.0000000 -12.1955168   0.0000000
 11.7240310 -12.1939828   0.0000000 -78.1690020   0.0000000 -3000.0000000 -90.0000000 -12.1915071   0.0000000
 11.7990248 -12.1909108   0.0000000 -78.3416930   0.0000000 -3000.0000000 -90.0000000 -12.1906667   0.0000000
 11.8740185 -12.1910557   0.0000000 -78.3523826   0.0000000 -3000.0000000 -90.0000000 -12.1908848   0.0000000
 11.9490123 -12.1937917   0.0000000 -78.2232822   0.0000000 -3000.0000000 -90.0000000 -12.1900504   0.0000000
 12.0240060 -12.1918286   0.0000000 -78.2542263   0.0000000 -3000.0000000 -90.0000000 -12.1885055   0.0000000
 12.0989997 -12.1923580   0.0000000 -78.2576224   0.0000000 -3000.0000000 -90.0000000 -12.1939709   0.0000000
 12.1739935 -12.1940860   0.0000000 -78.2395321   0.0000000 -3000.0000000 -90.0000000 -12.1933920   0.0000000
 12.2489872 -12.1941407   0.0000000 -78.0672601   0.0000000 -3000.0000000 -90.0000000 -12.1916491   0.0000000
 12.3239810 -12.1945424   0.0000000 -78.5039576   0.0000000 -3000.0000000 -90.0000000 -12.1984637   0.0000000
 12.3989747 -12.1955028   0.0000000 -78.4213051   0.0000000 -3000.0000000 -90.0000000 -12.1946086   0.0000000
 12.4739685 -12.1948239   0.0000000 -78.1818325   0.0000000 -3000.0000000 -90.0000000 -12.1940088   0.0000000
 12.5489622 -12.1920703   0.0000000 -78.1718025   0.0000000 -3000.0000000 -90.0000000 -12.1932687   0.0000000
 12.6239560 -12.1969725   0.0000000 -78.3081133   0.0000000 -3000.0000000 -90.0000000 -12.1992481   0.0000000
 12.6989497 -12.1950034   0.0000000 -78.0477941   0.0000000 -3000.0000000 -90.0000000 -12.1982663   0.0000000
 12.7739435 -12.1927187   0.0000000 -78.2853642   0.0000000 -3000.0000000 -90.0000000 -12.1971632   0.0000000
 12.8489372 -12.1928725   0.0000000 -78.5132544   0.0000000 -3000.0000000 -90.0000000 -12.1952610   0.0000000
 12.9239310 -12.1982864   0.0000000 -78.6241491   0.0000000 -3000.0000000 -90.0000000 -12.1974632   0.0000000
 12.9989247 -12.1985198   0.0000000 -78.5772500   0.0000000 -3000.0000000 -90.0000000 -12.1994323   0.0000000
 13.0739185 -12.2020459   0.0000000 -78.3183214   0.0000000 -3000.0000000 -90.0000000 -12.1983304   0.0000000
 13.1489122 -12.1948709   0.0000000 -78.3095005   0.0000000 -3000.0000000 -90.0000000 -12.1973515   0.0000000
 13.2239060 -12.2004536   0.0000000 -78.2394352   0.0000000 -3000.0000000 -90.0000000 -12.1978604   0.0000000
 13.2988997 -12.1975486   0.0000000 -78.2647815   0.0000000 -3000.0000000 -90.0000000 -12.1967509   0.0000000
 13.3738935 -12.2003688   0.0000000 -78.6330737   0.0000000 -3000.0000000 -90.0000000 -12.2027078   0.0000000
 13.4488872 -12.2009890   0.0000000 -78.5139296   0.0000000 -3000.0000000 -90.0000000 -12.2019165   0.0000000
