! ListType=Lin
! Comment=Upconverter_125MHz_0.001-1MHz_2560pts_50ms
# MHz S DB R 50
  0.0010000 -23.9699818   0.0000000
  0.0013908 -23.9703488   0.0000000
  0.0017816 -23.9860298   0.0000000
  0.0021723 -24.0115483   0.0000000
  0.0025631 -24.0377140   0.0000000
  0.0029539 -24.0663741   0.0000000
  0.0033447 -24.0958137   0.0000000
  0.0037354 -24.1143985   0.0000000
  0.0041262 -24.1307244   0.0000000
  0.0045170 -24.1521607   0.0000000
  0.0049078 -24.1684878   0.0000000
  0.0052986 -24.2134039   0.0000000
  0.0056893 -24.2640170   0.0000000
  0.0060801 -24.3364189   0.0000000
  0.0064709 -24.4199444   0.0000000
  0.0068617 -24.5027478   0.0000000
  0.0072524 -24.5783724   0.0000000
  0.0076432 -24.6426742   0.0000000
  0.0080340 -24.7061905   0.0000000
  0.0084248 -24.7538413   0.0000000
  0.0088156 -24.8041593   0.0000000
  0.0092063 -24.8542993   0.0000000
  0.0095971 -24.9095554   0.0000000
  0.0099879 -24.9893499   0.0000000
  0.0103787 -25.0758980   0.0000000
  0.0107694 -25.1630671   0.0000000
  0.0111602 -25.2519030   0.0000000
  0.0115510 -25.3407358   0.0000000
  0.0119418 -25.4041749   0.0000000
  0.0123326 -25.4595580   0.0000000
  0.0127233 -25.4974795   0.0000000
  0.0131141 -25.5262716   0.0000000
  0.0135049 -25.5509810   0.0000000
  0.0138957 -25.6095310   0.0000000
  0.0142864 -25.6466864   0.0000000
  0.0146772 -25.6942471   0.0000000
  0.0150680 -25.7469885   0.0000000
  0.0154588 -25.7714635   0.0000000
  0.0158496 -25.7869689   0.0000000
  0.0162403 -25.7871382   0.0000000
  0.0166311 -25.7496609   0.0000000
  0.0170219 -25.7229377   0.0000000
  0.0174127 -25.6863541   0.0000000
  0.0178034 -25.6440148   0.0000000
  0.0181942 -25.6223659   0.0000000
  0.0185850 -25.5978318   0.0000000
  0.0189758 -25.5371618   0.0000000
  0.0193665 -25.5077301   0.0000000
  0.0197573 -25.3869038   0.0000000
  0.0201481 -25.2880515   0.0000000
  0.0205389 -25.2037803   0.0000000
  0.0209297 -25.0700241   0.0000000
  0.0213204 -25.0089317   0.0000000
  0.0217112 -24.9808232   0.0000000
  0.0221020 -24.9782623   0.0000000
  0.0224928 -25.0895580   0.0000000
  0.0228835 -25.1697744   0.0000000
  0.0232743 -25.3086221   0.0000000
  0.0236651 -25.4606504   0.0000000
  0.0240559 -25.4321550   0.0000000
  0.0244467 -25.4345834   0.0000000
  0.0248374 -25.3086782   0.0000000
  0.0252282 -25.0451734   0.0000000
  0.0256190 -24.8748946   0.0000000
  0.0260098 -24.5669264   0.0000000
  0.0264005 -24.2529774   0.0000000
  0.0267913 -24.0467850   0.0000000
  0.0271821 -23.7096350   0.0000000
  0.0275729 -23.4452087   0.0000000
  0.0279637 -23.2255490   0.0000000
  0.0283544 -22.8995101   0.0000000
  0.0287452 -22.6428246   0.0000000
  0.0291360 -22.4263608   0.0000000
  0.0295268 -22.1090153   0.0000000
  0.0299175 -21.8795435   0.0000000
  0.0303083 -21.6732490   0.0000000
  0.0306991 -21.3591366   0.0000000
  0.0310899 -21.1468334   0.0000000
  0.0314807 -20.9465226   0.0000000
  0.0318714 -20.6460668   0.0000000
  0.0322622 -20.4199113   0.0000000
  0.0326530 -20.2442317   0.0000000
  0.0330438 -19.9627974   0.0000000
  0.0334345 -19.7197519   0.0000000
  0.0338253 -19.5552392   0.0000000
  0.0342161 -19.3232351   0.0000000
  0.0346069 -19.0565814   0.0000000
  0.0349977 -18.8907111   0.0000000
  0.0353884 -18.6888183   0.0000000
  0.0357792 -18.4131682   0.0000000
  0.0361700 -18.2441433   0.0000000
  0.0365608 -18.0598753   0.0000000
  0.0369515 -17.8064951   0.0000000
  0.0373423 -17.6090830   0.0000000
  0.0377331 -17.4821077   0.0000000
  0.0381239 -17.2812792   0.0000000
  0.0385147 -17.1119036   0.0000000
  0.0389054 -17.0204985   0.0000000
  0.0392962 -16.8316737   0.0000000
  0.0396870 -16.6634617   0.0000000
  0.0400778 -16.5852081   0.0000000
  0.0404685 -16.4230613   0.0000000
  0.0408593 -16.2338322   0.0000000
  0.0412501 -16.1616789   0.0000000
  0.0416409 -16.0113136   0.0000000
  0.0420317 -15.8343188   0.0000000
  0.0424224 -15.7694727   0.0000000
  0.0428132 -15.6164166   0.0000000
  0.0432040 -15.4501501   0.0000000
  0.0435948 -15.3904283   0.0000000
  0.0439855 -15.2382879   0.0000000
  0.0443763 -15.0824353   0.0000000
  0.0447671 -15.0308669   0.0000000
  0.0451579 -14.8782924   0.0000000
  0.0455487 -14.7294012   0.0000000
  0.0459394 -14.6760221   0.0000000
  0.0463302 -14.5308826   0.0000000
  0.0467210 -14.3994018   0.0000000
  0.0471118 -14.3471860   0.0000000
  0.0475025 -14.2165584   0.0000000
  0.0478933 -14.0709642   0.0000000
  0.0482841 -14.0258863   0.0000000
  0.0486749 -13.9098105   0.0000000
  0.0490657 -13.7634186   0.0000000
  0.0494564 -13.7069402   0.0000000
  0.0498472 -13.6312429   0.0000000
  0.0502380 -13.4787869   0.0000000
  0.0506288 -13.3912115   0.0000000
  0.0510195 -13.3484551   0.0000000
  0.0514103 -13.2401855   0.0000000
  0.0518011 -13.1046041   0.0000000
  0.0521919 -13.0355287   0.0000000
  0.0525826 -12.9885552   0.0000000
  0.0529734 -12.8813575   0.0000000
  0.0533642 -12.7595048   0.0000000
  0.0537550 -12.6968023   0.0000000
  0.0541458 -12.6438891   0.0000000
  0.0545365 -12.5688223   0.0000000
  0.0549273 -12.4617034   0.0000000
  0.0553181 -12.3594850   0.0000000
  0.0557089 -12.2916601   0.0000000
  0.0560996 -12.2495260   0.0000000
  0.0564904 -12.1920563   0.0000000
  0.0568812 -12.1010530   0.0000000
  0.0572720 -12.0071770   0.0000000
  0.0576628 -11.9164945   0.0000000
  0.0580535 -11.8499431   0.0000000
  0.0584443 -11.8001202   0.0000000
  0.0588351 -11.7480175   0.0000000
  0.0592259 -11.6946786   0.0000000
  0.0596166 -11.6255296   0.0000000
  0.0600074 -11.5508646   0.0000000
  0.0603982 -11.4720048   0.0000000
  0.0607890 -11.3983875   0.0000000
  0.0611798 -11.3324380   0.0000000
  0.0615705 -11.2693007   0.0000000
  0.0619613 -11.2153601   0.0000000
  0.0623521 -11.1632314   0.0000000
  0.0627429 -11.1117270   0.0000000
  0.0631336 -11.0586454   0.0000000
  0.0635244 -11.0078647   0.0000000
  0.0639152 -10.9581286   0.0000000
  0.0643060 -10.9050342   0.0000000
  0.0646968 -10.8526658   0.0000000
  0.0650875 -10.8023966   0.0000000
  0.0654783 -10.7528100   0.0000000
  0.0658691 -10.6984165   0.0000000
  0.0662599 -10.6553934   0.0000000
  0.0666506 -10.6042607   0.0000000
  0.0670414 -10.5558141   0.0000000
  0.0674322 -10.5072514   0.0000000
  0.0678230 -10.4606490   0.0000000
  0.0682138 -10.4125640   0.0000000
  0.0686045 -10.3681399   0.0000000
  0.0689953 -10.3255973   0.0000000
  0.0693861 -10.2838021   0.0000000
  0.0697769 -10.2390225   0.0000000
  0.0701676 -10.1965745   0.0000000
  0.0705584 -10.1530662   0.0000000
  0.0709492 -10.1125927   0.0000000
  0.0713400 -10.0714065   0.0000000
  0.0717308 -10.0319514   0.0000000
  0.0721215  -9.9915585   0.0000000
  0.0725123  -9.9537494   0.0000000
  0.0729031  -9.9130161   0.0000000
  0.0732939  -9.8736926   0.0000000
  0.0736846  -9.8404077   0.0000000
  0.0740754  -9.8019632   0.0000000
  0.0744662  -9.7652578   0.0000000
  0.0748570  -9.7324826   0.0000000
  0.0752478  -9.6892196   0.0000000
  0.0756385  -9.6603894   0.0000000
  0.0760293  -9.6245066   0.0000000
  0.0764201  -9.5876829   0.0000000
  0.0768109  -9.5547147   0.0000000
  0.0772016  -9.5230768   0.0000000
  0.0775924  -9.4877920   0.0000000
  0.0779832  -9.4573657   0.0000000
  0.0783740  -9.4236580   0.0000000
  0.0787648  -9.3928883   0.0000000
  0.0791555  -9.3597721   0.0000000
  0.0795463  -9.3326317   0.0000000
  0.0799371  -9.3005808   0.0000000
  0.0803279  -9.2717048   0.0000000
  0.0807186  -9.2457368   0.0000000
  0.0811094  -9.2197678   0.0000000
  0.0815002  -9.1931279   0.0000000
  0.0818910  -9.1693485   0.0000000
  0.0822818  -9.1456638   0.0000000
  0.0826725  -9.1191475   0.0000000
  0.0830633  -9.0961509   0.0000000
  0.0834541  -9.0723956   0.0000000
  0.0838449  -9.0506608   0.0000000
  0.0842356  -9.0283238   0.0000000
  0.0846264  -9.0087497   0.0000000
  0.0850172  -8.9847186   0.0000000
  0.0854080  -8.9640755   0.0000000
  0.0857987  -8.9409375   0.0000000
  0.0861895  -8.9172537   0.0000000
  0.0865803  -8.8982883   0.0000000
  0.0869711  -8.8758625   0.0000000
  0.0873619  -8.8557485   0.0000000
  0.0877526  -8.8339426   0.0000000
  0.0881434  -8.8122592   0.0000000
  0.0885342  -8.7890100   0.0000000
  0.0889250  -8.7658945   0.0000000
  0.0893157  -8.7425065   0.0000000
  0.0897065  -8.7200465   0.0000000
  0.0900973  -8.7022957   0.0000000
  0.0904881  -8.6820862   0.0000000
  0.0908789  -8.6656279   0.0000000
  0.0912696  -8.6509202   0.0000000
  0.0916604  -8.6338465   0.0000000
  0.0920512  -8.6140207   0.0000000
  0.0924420  -8.5962131   0.0000000
  0.0928327  -8.5795723   0.0000000
  0.0932235  -8.5630641   0.0000000
  0.0936143  -8.5419272   0.0000000
  0.0940051  -8.5270447   0.0000000
  0.0943959  -8.5110924   0.0000000
  0.0947866  -8.4962943   0.0000000
  0.0951774  -8.4792496   0.0000000
  0.0955682  -8.4652006   0.0000000
  0.0959590  -8.4487636   0.0000000
  0.0963497  -8.4337256   0.0000000
  0.0967405  -8.4205177   0.0000000
  0.0971313  -8.4061654   0.0000000
  0.0975221  -8.3903343   0.0000000
  0.0979129  -8.3754963   0.0000000
  0.0983036  -8.3634166   0.0000000
  0.0986944  -8.3494602   0.0000000
  0.0990852  -8.3360155   0.0000000
  0.0994760  -8.3221413   0.0000000
  0.0998667  -8.3089566   0.0000000
  0.1002575  -8.2965044   0.0000000
  0.1006483  -8.2823485   0.0000000
  0.1010391  -8.2718707   0.0000000
  0.1014299  -8.2574993   0.0000000
  0.1018206  -8.2449288   0.0000000
  0.1022114  -8.2326744   0.0000000
  0.1026022  -8.2174435   0.0000000
  0.1029930  -8.2054990   0.0000000
  0.1033837  -8.1968514   0.0000000
  0.1037745  -8.1877459   0.0000000
  0.1041653  -8.1772075   0.0000000
  0.1045561  -8.1688045   0.0000000
  0.1049469  -8.1603233   0.0000000
  0.1053376  -8.1497770   0.0000000
  0.1057284  -8.1403105   0.0000000
  0.1061192  -8.1259185   0.0000000
  0.1065100  -8.1137805   0.0000000
  0.1069007  -8.0987663   0.0000000
  0.1072915  -8.0869119   0.0000000
  0.1076823  -8.0758531   0.0000000
  0.1080731  -8.0651126   0.0000000
  0.1084639  -8.0534844   0.0000000
  0.1088546  -8.0455582   0.0000000
  0.1092454  -8.0350773   0.0000000
  0.1096362  -8.0282560   0.0000000
  0.1100270  -8.0201547   0.0000000
  0.1104177  -8.0163578   0.0000000
  0.1108085  -8.0085051   0.0000000
  0.1111993  -8.0016472   0.0000000
  0.1115901  -7.9936398   0.0000000
  0.1119809  -7.9855290   0.0000000
  0.1123716  -7.9761023   0.0000000
  0.1127624  -7.9620093   0.0000000
  0.1131532  -7.9518051   0.0000000
  0.1135440  -7.9397553   0.0000000
  0.1139347  -7.9301279   0.0000000
  0.1143255  -7.9232577   0.0000000
  0.1147163  -7.9141571   0.0000000
  0.1151071  -7.9056354   0.0000000
  0.1154979  -7.9004531   0.0000000
  0.1158886  -7.8899734   0.0000000
  0.1162794  -7.8810125   0.0000000
  0.1166702  -7.8736362   0.0000000
  0.1170610  -7.8645737   0.0000000
  0.1174517  -7.8637054   0.0000000
  0.1178425  -7.8523103   0.0000000
  0.1182333  -7.8383908   0.0000000
  0.1186241  -7.8284925   0.0000000
  0.1190148  -7.8266226   0.0000000
  0.1194056  -7.8292884   0.0000000
  0.1197964  -7.8198816   0.0000000
  0.1201872  -7.7999453   0.0000000
  0.1205780  -7.7874854   0.0000000
  0.1209687  -7.7967624   0.0000000
  0.1213595  -7.7956400   0.0000000
  0.1217503  -7.7705441   0.0000000
  0.1221411  -7.7566058   0.0000000
  0.1225318  -7.7757343   0.0000000
  0.1229226  -7.7651065   0.0000000
  0.1233134  -7.7307422   0.0000000
  0.1237042  -7.7445772   0.0000000
  0.1240950  -7.7541358   0.0000000
  0.1244857  -7.7126772   0.0000000
  0.1248765  -7.7191102   0.0000000
  0.1252673  -7.7379023   0.0000000
  0.1256581  -7.6918001   0.0000000
  0.1260488  -7.7066080   0.0000000
  0.1264396  -7.7156044   0.0000000
  0.1268304  -7.6697353   0.0000000
  0.1272212  -7.6957294   0.0000000
  0.1276120  -7.6911929   0.0000000
  0.1280027  -7.6511888   0.0000000
  0.1283935  -7.6884877   0.0000000
  0.1287843  -7.6582784   0.0000000
  0.1291751  -7.6451644   0.0000000
  0.1295658  -7.6753323   0.0000000
  0.1299566  -7.6248735   0.0000000
  0.1303474  -7.6513479   0.0000000
  0.1307382  -7.6398927   0.0000000
  0.1311290  -7.6075576   0.0000000
  0.1315197  -7.6501201   0.0000000
  0.1319105  -7.6018128   0.0000000
  0.1323013  -7.6194383   0.0000000
  0.1326921  -7.6188499   0.0000000
  0.1330828  -7.5786517   0.0000000
  0.1334736  -7.6267676   0.0000000
  0.1338644  -7.5711123   0.0000000
  0.1342552  -7.6010069   0.0000000
  0.1346460  -7.5851619   0.0000000
  0.1350367  -7.5621010   0.0000000
  0.1354275  -7.5999244   0.0000000
  0.1358183  -7.5408351   0.0000000
  0.1362091  -7.5908414   0.0000000
  0.1365998  -7.5451627   0.0000000
  0.1369906  -7.5601571   0.0000000
  0.1373814  -7.5566012   0.0000000
  0.1377722  -7.5287690   0.0000000
  0.1381630  -7.5670571   0.0000000
  0.1385537  -7.5091275   0.0000000
  0.1389445  -7.5629092   0.0000000
  0.1393353  -7.5000406   0.0000000
  0.1397261  -7.5487209   0.0000000
  0.1401168  -7.5036428   0.0000000
  0.1405076  -7.5229839   0.0000000
  0.1408984  -7.5147522   0.0000000
  0.1412892  -7.4962134   0.0000000
  0.1416800  -7.5238461   0.0000000
  0.1420707  -7.4728173   0.0000000
  0.1424615  -7.5234706   0.0000000
  0.1428523  -7.4604743   0.0000000
  0.1432431  -7.5114140   0.0000000
  0.1436338  -7.4649229   0.0000000
  0.1440246  -7.4854210   0.0000000
  0.1444154  -7.4831885   0.0000000
  0.1448062  -7.4529166   0.0000000
  0.1451970  -7.4935075   0.0000000
  0.1455877  -7.4361166   0.0000000
  0.1459785  -7.4878850   0.0000000
  0.1463693  -7.4353308   0.0000000
  0.1467601  -7.4658045   0.0000000
  0.1471508  -7.4510457   0.0000000
  0.1475416  -7.4356647   0.0000000
  0.1479324  -7.4662428   0.0000000
  0.1483232  -7.4117753   0.0000000
  0.1487140  -7.4665422   0.0000000
  0.1491047  -7.4022884   0.0000000
  0.1494955  -7.4609107   0.0000000
  0.1498863  -7.4013767   0.0000000
  0.1502771  -7.4485528   0.0000000
  0.1506678  -7.4009458   0.0000000
  0.1510586  -7.4370191   0.0000000
  0.1514494  -7.4017741   0.0000000
  0.1518402  -7.4267163   0.0000000
  0.1522309  -7.3988475   0.0000000
  0.1526217  -7.4218599   0.0000000
  0.1530125  -7.3900481   0.0000000
  0.1534033  -7.4183301   0.0000000
  0.1537941  -7.3815165   0.0000000
  0.1541848  -7.4181554   0.0000000
  0.1545756  -7.3695490   0.0000000
  0.1549664  -7.4194730   0.0000000
  0.1553572  -7.3598299   0.0000000
  0.1557479  -7.4187951   0.0000000
  0.1561387  -7.3505498   0.0000000
  0.1565295  -7.4155472   0.0000000
  0.1569203  -7.3454282   0.0000000
  0.1573111  -7.4085813   0.0000000
  0.1577018  -7.3451609   0.0000000
  0.1580926  -7.3961459   0.0000000
  0.1584834  -7.3525230   0.0000000
  0.1588742  -7.3787622   0.0000000
  0.1592649  -7.3579277   0.0000000
  0.1596557  -7.3552271   0.0000000
  0.1600465  -7.3722484   0.0000000
  0.1604373  -7.3365739   0.0000000
  0.1608281  -7.3805166   0.0000000
  0.1612188  -7.3208290   0.0000000
  0.1616096  -7.3851073   0.0000000
  0.1620004  -7.3138241   0.0000000
  0.1623912  -7.3779665   0.0000000
  0.1627819  -7.3174591   0.0000000
  0.1631727  -7.3560715   0.0000000
  0.1635635  -7.3346980   0.0000000
  0.1639543  -7.3295804   0.0000000
  0.1643451  -7.3526365   0.0000000
  0.1647358  -7.3069744   0.0000000
  0.1651266  -7.3645584   0.0000000
  0.1655174  -7.2928305   0.0000000
  0.1659082  -7.3591078   0.0000000
  0.1662989  -7.3021485   0.0000000
  0.1666897  -7.3305575   0.0000000
  0.1670805  -7.3267975   0.0000000
  0.1674713  -7.2960378   0.0000000
  0.1678621  -7.3480919   0.0000000
  0.1682528  -7.2794880   0.0000000
  0.1686436  -7.3437373   0.0000000
  0.1690344  -7.2945299   0.0000000
  0.1694252  -7.3089455   0.0000000
  0.1698159  -7.3297259   0.0000000
  0.1702067  -7.2705068   0.0000000
  0.1705975  -7.3376748   0.0000000
  0.1709883  -7.2766872   0.0000000
  0.1713791  -7.3054223   0.0000000
  0.1717698  -7.3129185   0.0000000
  0.1721606  -7.2656236   0.0000000
  0.1725514  -7.3312347   0.0000000
  0.1729422  -7.2672703   0.0000000
  0.1733329  -7.2920394   0.0000000
  0.1737237  -7.3110379   0.0000000
  0.1741145  -7.2517384   0.0000000
  0.1745053  -7.3157496   0.0000000
  0.1748961  -7.2747546   0.0000000
  0.1752868  -7.2629835   0.0000000
  0.1756776  -7.3156690   0.0000000
  0.1760684  -7.2481063   0.0000000
  0.1764592  -7.2798929   0.0000000
  0.1768499  -7.3006355   0.0000000
  0.1772407  -7.2390408   0.0000000
  0.1776315  -7.2923709   0.0000000
  0.1780223  -7.2828268   0.0000000
  0.1784131  -7.2343992   0.0000000
  0.1788038  -7.2921910   0.0000000
  0.1791946  -7.2737742   0.0000000
  0.1795854  -7.2328013   0.0000000
  0.1799762  -7.2887015   0.0000000
  0.1803669  -7.2704275   0.0000000
  0.1807577  -7.2255642   0.0000000
  0.1811485  -7.2829238   0.0000000
  0.1815393  -7.2673312   0.0000000
  0.1819301  -7.2205042   0.0000000
  0.1823208  -7.2737262   0.0000000
  0.1827116  -7.2717581   0.0000000
  0.1831024  -7.2172123   0.0000000
  0.1834932  -7.2507833   0.0000000
  0.1838839  -7.2814320   0.0000000
  0.1842747  -7.2212214   0.0000000
  0.1846655  -7.2357083   0.0000000
  0.1850563  -7.2786288   0.0000000
  0.1854470  -7.2309414   0.0000000
  0.1858378  -7.2134622   0.0000000
  0.1862286  -7.2672756   0.0000000
  0.1866194  -7.2507316   0.0000000
  0.1870102  -7.2038448   0.0000000
  0.1874009  -7.2397312   0.0000000
  0.1877917  -7.2679595   0.0000000
  0.1881825  -7.2160366   0.0000000
  0.1885733  -7.2084170   0.0000000
  0.1889640  -7.2593755   0.0000000
  0.1893548  -7.2470834   0.0000000
  0.1897456  -7.1963577   0.0000000
  0.1901364  -7.2151368   0.0000000
  0.1905272  -7.2605249   0.0000000
  0.1909179  -7.2293588   0.0000000
  0.1913087  -7.1914827   0.0000000
  0.1916995  -7.2240536   0.0000000
  0.1920903  -7.2561144   0.0000000
  0.1924810  -7.2149643   0.0000000
  0.1928718  -7.1886082   0.0000000
  0.1932626  -7.2293796   0.0000000
  0.1936534  -7.2500843   0.0000000
  0.1940442  -7.2082643   0.0000000
  0.1944349  -7.1835291   0.0000000
  0.1948257  -7.2156233   0.0000000
  0.1952165  -7.2467055   0.0000000
  0.1956073  -7.2135015   0.0000000
  0.1959980  -7.1783973   0.0000000
  0.1963888  -7.2003312   0.0000000
  0.1967796  -7.2376417   0.0000000
  0.1971704  -7.2291740   0.0000000
  0.1975612  -7.1887595   0.0000000
  0.1979519  -7.1778638   0.0000000
  0.1983427  -7.2104762   0.0000000
  0.1987335  -7.2343181   0.0000000
  0.1991243  -7.2161160   0.0000000
  0.1995150  -7.1813561   0.0000000
  0.1999058  -7.1721370   0.0000000
  0.2002966  -7.1960233   0.0000000
  0.2006874  -7.2252210   0.0000000
  0.2010782  -7.2225846   0.0000000
  0.2014689  -7.1939628   0.0000000
  0.2018597  -7.1686061   0.0000000
  0.2022505  -7.1737936   0.0000000
  0.2026413  -7.2009644   0.0000000
  0.2030320  -7.2200385   0.0000000
  0.2034228  -7.2123972   0.0000000
  0.2038136  -7.1845044   0.0000000
  0.2042044  -7.1626517   0.0000000
  0.2045952  -7.1684514   0.0000000
  0.2049859  -7.1934273   0.0000000
  0.2053767  -7.2135770   0.0000000
  0.2057675  -7.2083540   0.0000000
  0.2061583  -7.1789567   0.0000000
  0.2065490  -7.1577573   0.0000000
  0.2069398  -7.1635567   0.0000000
  0.2073306  -7.1901395   0.0000000
  0.2077214  -7.2087951   0.0000000
  0.2081122  -7.2004439   0.0000000
  0.2085029  -7.1682745   0.0000000
  0.2088937  -7.1493604   0.0000000
  0.2092845  -7.1633777   0.0000000
  0.2096753  -7.1938858   0.0000000
  0.2100660  -7.2061700   0.0000000
  0.2104568  -7.1842217   0.0000000
  0.2108476  -7.1590923   0.0000000
