! ListType=Lin
# MHz S DB R 50
  0.1000000  -8.2578239   0.0000000
  0.1256257  -7.3851809   0.0000000
  0.1512514  -6.9293671   0.0000000
  0.1768771  -6.6872405   0.0000000
  0.2025027  -6.5527830   0.0000000
  0.2281284  -6.4389769   0.0000000
  0.2537541  -6.3618589   0.0000000
  0.2793798  -6.3193843   0.0000000
  0.3050055  -6.2611010   0.0000000
  0.3306312  -6.2114714   0.0000000
  0.3562569  -6.1942879   0.0000000
  0.3818826  -6.1599384   0.0000000
  0.4075082  -6.1229917   0.0000000
  0.4331339  -6.1152594   0.0000000
  0.4587596  -6.0793415   0.0000000
  0.4843853  -6.0575517   0.0000000
  0.5100110  -6.0544447   0.0000000
  0.5356367  -6.0254243   0.0000000
  0.5612624  -6.0002930   0.0000000
  0.5868880  -5.9983447   0.0000000
  0.6125137  -5.9764765   0.0000000
  0.6381394  -5.9503601   0.0000000
  0.6637651  -5.9480595   0.0000000
  0.6893908  -5.9374969   0.0000000
  0.7150165  -5.9072979   0.0000000
  0.7406422  -5.9000767   0.0000000
  0.7662679  -5.8971505   0.0000000
  0.7918935  -5.8692926   0.0000000
  0.8175192  -5.8486516   0.0000000
  0.8431449  -5.8471753   0.0000000
  0.8687706  -5.8410838   0.0000000
  0.8943963  -5.8233773   0.0000000
  0.9200220  -5.8004344   0.0000000
  0.9456477  -5.7859615   0.0000000
  0.9712733  -5.7825725   0.0000000
  0.9968990  -5.7794625   0.0000000
  1.0225247  -5.7655896   0.0000000
  1.0481504  -5.7463036   0.0000000
  1.0737761  -5.7260803   0.0000000
  1.0994018  -5.7154484   0.0000000
  1.1250275  -5.7104742   0.0000000
  1.1506532  -5.7097525   0.0000000
  1.1762788  -5.6967604   0.0000000
  1.2019045  -5.6742965   0.0000000
  1.2275302  -5.6573586   0.0000000
  1.2531559  -5.6537309   0.0000000
  1.2787816  -5.6553731   0.0000000
  1.3044073  -5.6447920   0.0000000
  1.3300330  -5.6241446   0.0000000
  1.3556586  -5.6084529   0.0000000
  1.3812843  -5.6013049   0.0000000
  1.4069100  -5.5982581   0.0000000
  1.4325357  -5.5964715   0.0000000
  1.4581614  -5.5884252   0.0000000
  1.4837871  -5.5739516   0.0000000
  1.5094128  -5.5582749   0.0000000
  1.5350385  -5.5457236   0.0000000
  1.5606641  -5.5382599   0.0000000
  1.5862898  -5.5422400   0.0000000
  1.6119155  -5.5395101   0.0000000
  1.6375412  -5.5246908   0.0000000
  1.6631669  -5.5063927   0.0000000
  1.6887926  -5.4980115   0.0000000
  1.7144183  -5.4959164   0.0000000
  1.7400440  -5.4973052   0.0000000
  1.7656696  -5.4945015   0.0000000
  1.7912953  -5.4858826   0.0000000
  1.8169210  -5.4745741   0.0000000
  1.8425467  -5.4643564   0.0000000
  1.8681724  -5.4559905   0.0000000
  1.8937981  -5.4502574   0.0000000
  1.9194238  -5.4443613   0.0000000
  1.9450494  -5.4381452   0.0000000
  1.9706751  -5.4315669   0.0000000
  1.9963008  -5.4247497   0.0000000
  2.0219265  -5.4197594   0.0000000
  2.0475522  -5.4135268   0.0000000
  2.0731779  -5.4078437   0.0000000
  2.0988036  -5.4038865   0.0000000
  2.1244293  -5.3965301   0.0000000
  2.1500549  -5.3912576   0.0000000
  2.1756806  -5.3860735   0.0000000
  2.2013063  -5.3798622   0.0000000
  2.2269320  -5.3739851   0.0000000
  2.2525577  -5.3682119   0.0000000
  2.2781834  -5.3625272   0.0000000
  2.3038091  -5.3572459   0.0000000
  2.3294347  -5.3486181   0.0000000
  2.3550604  -5.3401822   0.0000000
  2.3806861  -5.3347100   0.0000000
  2.4063118  -5.3298358   0.0000000
  2.4319375  -5.3267626   0.0000000
  2.4575632  -5.3222512   0.0000000
  2.4831889  -5.3197346   0.0000000
  2.5088146  -5.3146111   0.0000000
  2.5344402  -5.3104317   0.0000000
  2.5600659  -5.3048597   0.0000000
  2.5856916  -5.3020179   0.0000000
  2.6113173  -5.2993790   0.0000000
  2.6369430  -5.2930526   0.0000000
  2.6625687  -5.2898182   0.0000000
  2.6881944  -5.2913239   0.0000000
  2.7138200  -5.2789625   0.0000000
  2.7394457  -5.2815875   0.0000000
  2.7650714  -5.2755900   0.0000000
  2.7906971  -5.2744245   0.0000000
  2.8163228  -5.2666911   0.0000000
  2.8419485  -5.2748755   0.0000000
  2.8675742  -5.2558721   0.0000000
  2.8931999  -5.2692482   0.0000000
  2.9188255  -5.2599617   0.0000000
  2.9444512  -5.2481861   0.0000000
  2.9700769  -5.2593414   0.0000000
  2.9957026  -5.2613592   0.0000000
  3.0213283  -5.2440138   0.0000000
  3.0469540  -5.2392313   0.0000000
  3.0725797  -5.2491806   0.0000000
  3.0982053  -5.2526236   0.0000000
  3.1238310  -5.2354790   0.0000000
  3.1494567  -5.2311267   0.0000000
  3.1750824  -5.2428356   0.0000000
  3.2007081  -5.2463261   0.0000000
  3.2263338  -5.2339400   0.0000000
  3.2519595  -5.2245531   0.0000000
  3.2775852  -5.2232503   0.0000000
  3.3032108  -5.2326698   0.0000000
  3.3288365  -5.2389628   0.0000000
  3.3544622  -5.2314466   0.0000000
  3.3800879  -5.2197023   0.0000000
  3.4057136  -5.2166424   0.0000000
  3.4313393  -5.2279586   0.0000000
  3.4569650  -5.2320032   0.0000000
  3.4825906  -5.2226273   0.0000000
  3.5082163  -5.2133185   0.0000000
  3.5338420  -5.2159815   0.0000000
  3.5594677  -5.2276110   0.0000000
  3.5850934  -5.2262359   0.0000000
  3.6107191  -5.2120922   0.0000000
  3.6363448  -5.2122162   0.0000000
  3.6619705  -5.2228600   0.0000000
  3.6875961  -5.2289556   0.0000000
  3.7132218  -5.2185154   0.0000000
  3.7388475  -5.2093936   0.0000000
  3.7644732  -5.2245332   0.0000000
  3.7900989  -5.2201213   0.0000000
  3.8157246  -5.2132597   0.0000000
  3.8413503  -5.2298414   0.0000000
  3.8669759  -5.2135928   0.0000000
  3.8926016  -5.2235766   0.0000000
  3.9182273  -5.2289255   0.0000000
  3.9438530  -5.2147994   0.0000000
  3.9694787  -5.2276070   0.0000000
  3.9951044  -5.2318601   0.0000000
  4.0207301  -5.2315935   0.0000000
  4.0463558  -5.2173246   0.0000000
  4.0719814  -5.2284894   0.0000000
  4.0976071  -5.2397784   0.0000000
  4.1232328  -5.2320388   0.0000000
  4.1488585  -5.2343011   0.0000000
  4.1744842  -5.2361208   0.0000000
  4.2001099  -5.2385161   0.0000000
  4.2257356  -5.2386838   0.0000000
  4.2513613  -5.2393144   0.0000000
  4.2769869  -5.2384804   0.0000000
  4.3026126  -5.2372416   0.0000000
  4.3282383  -5.2381326   0.0000000
  4.3538640  -5.2396394   0.0000000
  4.3794897  -5.2420176   0.0000000
  4.4051154  -5.2465793   0.0000000
  4.4307411  -5.2505692   0.0000000
  4.4563667  -5.2552863   0.0000000
  4.4819924  -5.2596126   0.0000000
  4.5076181  -5.2629513   0.0000000
  4.5332438  -5.2654181   0.0000000
  4.5588695  -5.2668750   0.0000000
  4.5844952  -5.2673337   0.0000000
  4.6101209  -5.2679425   0.0000000
  4.6357466  -5.2682531   0.0000000
  4.6613722  -5.2728544   0.0000000
  4.6869979  -5.2775805   0.0000000
  4.7126236  -5.2826590   0.0000000
  4.7382493  -5.2846511   0.0000000
  4.7638750  -5.2867163   0.0000000
  4.7895007  -5.2869252   0.0000000
  4.8151264  -5.2879586   0.0000000
  4.8407520  -5.2925840   0.0000000
  4.8663777  -5.2971830   0.0000000
  4.8920034  -5.3019862   0.0000000
  4.9176291  -5.3039977   0.0000000
  4.9432548  -5.3022401   0.0000000
  4.9688805  -5.3015075   0.0000000
  4.9945062  -5.3008136   0.0000000
  5.0201319  -5.3029329   0.0000000
  5.0457575  -5.3066895   0.0000000
  5.0713832  -5.3083179   0.0000000
  5.0970089  -5.3117348   0.0000000
  5.1226346  -5.3150573   0.0000000
  5.1482603  -5.3190951   0.0000000
  5.1738860  -5.3221457   0.0000000
  5.1995117  -5.3242136   0.0000000
  5.2251373  -5.3271050   0.0000000
  5.2507630  -5.3295446   0.0000000
  5.2763887  -5.3326591   0.0000000
  5.3020144  -5.3333552   0.0000000
  5.3276401  -5.3366336   0.0000000
  5.3532658  -5.3383857   0.0000000
  5.3788915  -5.3401642   0.0000000
  5.4045172  -5.3429531   0.0000000
  5.4301428  -5.3443548   0.0000000
  5.4557685  -5.3473622   0.0000000
  5.4813942  -5.3509420   0.0000000
  5.5070199  -5.3548034   0.0000000
  5.5326456  -5.3589657   0.0000000
  5.5582713  -5.3618279   0.0000000
  5.5838970  -5.3652384   0.0000000
  5.6095226  -5.3695238   0.0000000
  5.6351483  -5.3705581   0.0000000
  5.6607740  -5.3730392   0.0000000
  5.6863997  -5.3726189   0.0000000
  5.7120254  -5.3738637   0.0000000
  5.7376511  -5.3750426   0.0000000
  5.7632768  -5.3767858   0.0000000
  5.7889025  -5.3812084   0.0000000
  5.8145281  -5.3855193   0.0000000
  5.8401538  -5.3907728   0.0000000
  5.8657795  -5.3958976   0.0000000
  5.8914052  -5.4001852   0.0000000
  5.9170309  -5.4035364   0.0000000
  5.9426566  -5.4065946   0.0000000
  5.9682823  -5.4076278   0.0000000
  5.9939079  -5.4081908   0.0000000
  6.0195336  -5.4100837   0.0000000
  6.0451593  -5.4143898   0.0000000
  6.0707850  -5.4189359   0.0000000
  6.0964107  -5.4243273   0.0000000
  6.1220364  -5.4309506   0.0000000
  6.1476621  -5.4324123   0.0000000
  6.1732878  -5.4331208   0.0000000
  6.1989134  -5.4366469   0.0000000
  6.2245391  -5.4401930   0.0000000
  6.2501648  -5.4470750   0.0000000
  6.2757905  -5.4500620   0.0000000
  6.3014162  -5.4543835   0.0000000
  6.3270419  -5.4547786   0.0000000
  6.3526676  -5.4601810   0.0000000
  6.3782932  -5.4648958   0.0000000
  6.4039189  -5.4665306   0.0000000
  6.4295446  -5.4713460   0.0000000
  6.4551703  -5.4732924   0.0000000
  6.4807960  -5.4770070   0.0000000
  6.5064217  -5.4811070   0.0000000
  6.5320474  -5.4845734   0.0000000
  6.5576731  -5.4873378   0.0000000
  6.5832987  -5.4930487   0.0000000
  6.6089244  -5.4938827   0.0000000
  6.6345501  -5.4975562   0.0000000
  6.6601758  -5.5003956   0.0000000
  6.6858015  -5.5064086   0.0000000
  6.7114272  -5.5110049   0.0000000
  6.7370529  -5.5130908   0.0000000
  6.7626785  -5.5147338   0.0000000
  6.7883042  -5.5167563   0.0000000
  6.8139299  -5.5215905   0.0000000
  6.8395556  -5.5270108   0.0000000
  6.8651813  -5.5298979   0.0000000
  6.8908070  -5.5312191   0.0000000
  6.9164327  -5.5328545   0.0000000
  6.9420584  -5.5366719   0.0000000
  6.9676840  -5.5411524   0.0000000
  6.9933097  -5.5463382   0.0000000
  7.0189354  -5.5516655   0.0000000
  7.0445611  -5.5573390   0.0000000
  7.0701868  -5.5569389   0.0000000
  7.0958125  -5.5567294   0.0000000
  7.1214382  -5.5591614   0.0000000
  7.1470639  -5.5590383   0.0000000
  7.1726895  -5.5589197   0.0000000
  7.1983152  -5.5607251   0.0000000
  7.2239409  -5.5636468   0.0000000
  7.2495666  -5.5654609   0.0000000
  7.2751923  -5.5706907   0.0000000
  7.3008180  -5.5756748   0.0000000
  7.3264437  -5.5787714   0.0000000
  7.3520693  -5.5824328   0.0000000
  7.3776950  -5.5854312   0.0000000
  7.4033207  -5.5859206   0.0000000
  7.4289464  -5.5868148   0.0000000
  7.4545721  -5.5863501   0.0000000
  7.4801978  -5.5869631   0.0000000
  7.5058235  -5.5865000   0.0000000
  7.5314492  -5.5872223   0.0000000
  7.5570748  -5.5884670   0.0000000
  7.5827005  -5.5925273   0.0000000
  7.6083262  -5.5949862   0.0000000
  7.6339519  -5.5982407   0.0000000
  7.6595776  -5.6012983   0.0000000
  7.6852033  -5.6051606   0.0000000
  7.7108290  -5.6092669   0.0000000
  7.7364546  -5.6104815   0.0000000
  7.7620803  -5.6142326   0.0000000
  7.7877060  -5.6160671   0.0000000
  7.8133317  -5.6174629   0.0000000
  7.8389574  -5.6192786   0.0000000
  7.8645831  -5.6204830   0.0000000
  7.8902088  -5.6208452   0.0000000
  7.9158345  -5.6234221   0.0000000
  7.9414601  -5.6253167   0.0000000
  7.9670858  -5.6266644   0.0000000
  7.9927115  -5.6260932   0.0000000
  8.0183372  -5.6300254   0.0000000
  8.0439629  -5.6318316   0.0000000
  8.0695886  -5.6349719   0.0000000
  8.0952143  -5.6346010   0.0000000
  8.1208399  -5.6344520   0.0000000
  8.1464656  -5.6295057   0.0000000
  8.1720913  -5.6287352   0.0000000
  8.1977170  -5.6245582   0.0000000
  8.2233427  -5.6261583   0.0000000
  8.2489684  -5.6340268   0.0000000
  8.2745941  -5.6434309   0.0000000
  8.3002198  -5.6450517   0.0000000
  8.3258454  -5.6336840   0.0000000
  8.3514711  -5.6306128   0.0000000
  8.3770968  -5.6455101   0.0000000
  8.4027225  -5.6518879   0.0000000
  8.4283482  -5.6350417   0.0000000
  8.4539739  -5.6426000   0.0000000
  8.4795996  -5.6567623   0.0000000
  8.5052252  -5.6427463   0.0000000
  8.5308509  -5.6433864   0.0000000
  8.5564766  -5.6608696   0.0000000
  8.5821023  -5.6459846   0.0000000
  8.6077280  -5.6491528   0.0000000
  8.6333537  -5.6645919   0.0000000
  8.6589794  -5.6515902   0.0000000
  8.6846051  -5.6524617   0.0000000
  8.7102307  -5.6690133   0.0000000
  8.7358564  -5.6545232   0.0000000
  8.7614821  -5.6622535   0.0000000
  8.7871078  -5.6738773   0.0000000
  8.8127335  -5.6572906   0.0000000
  8.8383592  -5.6706816   0.0000000
  8.8639849  -5.6747253   0.0000000
  8.8896105  -5.6606370   0.0000000
  8.9152362  -5.6791712   0.0000000
  8.9408619  -5.6792882   0.0000000
  8.9664876  -5.6671924   0.0000000
  8.9921133  -5.6834495   0.0000000
  9.0177390  -5.6840683   0.0000000
  9.0433647  -5.6727115   0.0000000
  9.0689904  -5.6890776   0.0000000
  9.0946160  -5.6929939   0.0000000
  9.1202417  -5.6781014   0.0000000
  9.1458674  -5.6850049   0.0000000
  9.1714931  -5.6993261   0.0000000
  9.1971188  -5.6899330   0.0000000
  9.2227445  -5.6840145   0.0000000
  9.2483702  -5.6896217   0.0000000
  9.2739958  -5.7004540   0.0000000
  9.2996215  -5.6895423   0.0000000
  9.3252472  -5.7074349   0.0000000
  9.3508729  -5.6921119   0.0000000
  9.3764986  -5.7097826   0.0000000
  9.4021243  -5.7001003   0.0000000
  9.4277500  -5.7130659   0.0000000
  9.4533757  -5.7044595   0.0000000
  9.4790013  -5.7172065   0.0000000
  9.5046270  -5.7078159   0.0000000
  9.5302527  -5.7206630   0.0000000
  9.5558784  -5.7109873   0.0000000
  9.5815041  -5.7254174   0.0000000
  9.6071298  -5.7163085   0.0000000
  9.6327555  -5.7305490   0.0000000
  9.6583812  -5.7319586   0.0000000
  9.6840068  -5.7358533   0.0000000
  9.7096325  -5.7257037   0.0000000
  9.7352582  -5.7313561   0.0000000
  9.7608839  -5.7418479   0.0000000
  9.7865096  -5.7507492   0.0000000
  9.8121353  -5.7365962   0.0000000
  9.8377610  -5.7569430   0.0000000
  9.8633866  -5.7446181   0.0000000
  9.8890123  -5.7612113   0.0000000
  9.9146380  -5.7531221   0.0000000
  9.9402637  -5.7648904   0.0000000
  9.9658894  -5.7604552   0.0000000
  9.9915151  -5.7643143   0.0000000
 10.0171408  -5.7804407   0.0000000
 10.0427665  -5.7706035   0.0000000
 10.0683921  -5.7685971   0.0000000
 10.0940178  -5.7847319   0.0000000
 10.1196435  -5.7799641   0.0000000
 10.1452692  -5.7925508   0.0000000
 10.1708949  -5.7835685   0.0000000
 10.1965206  -5.8020045   0.0000000
 10.2221463  -5.7892875   0.0000000
 10.2477719  -5.8103171   0.0000000
 10.2733976  -5.7979157   0.0000000
 10.2990233  -5.8140354   0.0000000
 10.3246490  -5.8098579   0.0000000
 10.3502747  -5.8197026   0.0000000
 10.3759004  -5.8223806   0.0000000
 10.4015261  -5.8200445   0.0000000
 10.4271518  -5.8368392   0.0000000
 10.4527774  -5.8274130   0.0000000
 10.4784031  -5.8461556   0.0000000
 10.5040288  -5.8371752   0.0000000
 10.5296545  -5.8510533   0.0000000
 10.5552802  -5.8529063   0.0000000
 10.5809059  -5.8518003   0.0000000
 10.6065316  -5.8680942   0.0000000
 10.6321572  -5.8565198   0.0000000
 10.6577829  -5.8641919   0.0000000
 10.6834086  -5.8816583   0.0000000
 10.7090343  -5.8825391   0.0000000
 10.7346600  -5.8725793   0.0000000
 10.7602857  -5.8872703   0.0000000
 10.7859114  -5.9015705   0.0000000
 10.8115371  -5.8920122   0.0000000
 10.8371627  -5.9007097   0.0000000
 10.8627884  -5.9032499   0.0000000
 10.8884141  -5.9150355   0.0000000
 10.9140398  -5.9169087   0.0000000
 10.9396655  -5.9201068   0.0000000
 10.9652912  -5.9315700   0.0000000
 10.9909169  -5.9278429   0.0000000
 11.0165425  -5.9368751   0.0000000
 11.0421682  -5.9433305   0.0000000
 11.0677939  -5.9434305   0.0000000
 11.0934196  -5.9582555   0.0000000
 11.1190453  -5.9512064   0.0000000
 11.1446710  -5.9696885   0.0000000
 11.1702967  -5.9595732   0.0000000
 11.1959224  -5.9815758   0.0000000
 11.2215480  -5.9688662   0.0000000
 11.2471737  -5.9920759   0.0000000
 11.2727994  -5.9832502   0.0000000
 11.2984251  -5.9987738   0.0000000
 11.3240508  -5.9992368   0.0000000
 11.3496765  -6.0054982   0.0000000
 11.3753022  -6.0146379   0.0000000
 11.4009278  -6.0122868   0.0000000
 11.4265535  -6.0300374   0.0000000
 11.4521792  -6.0208052   0.0000000
 11.4778049  -6.0406256   0.0000000
 11.5034306  -6.0304913   0.0000000
 11.5290563  -6.0520887   0.0000000
 11.5546820  -6.0441789   0.0000000
 11.5803077  -6.0642542   0.0000000
 11.6059333  -6.0560130   0.0000000
 11.6315590  -6.0727153   0.0000000
 11.6571847  -6.0707351   0.0000000
 11.6828104  -6.0816159   0.0000000
 11.7084361  -6.0848248   0.0000000
 11.7340618  -6.0881078   0.0000000
 11.7596875  -6.1034257   0.0000000
 11.7853131  -6.0950657   0.0000000
 11.8109388  -6.1188787   0.0000000
 11.8365645  -6.1094680   0.0000000
 11.8621902  -6.1212179   0.0000000
 11.8878159  -6.1355425   0.0000000
 11.9134416  -6.1237056   0.0000000
 11.9390673  -6.1414593   0.0000000
 11.9646930  -6.1520901   0.0000000
 11.9903186  -6.1395292   0.0000000
 12.0159443  -6.1551725   0.0000000
 12.0415700  -6.1726939   0.0000000
 12.0671957  -6.1646904   0.0000000
 12.0928214  -6.1631815   0.0000000
 12.1184471  -6.1839727   0.0000000
 12.1440728  -6.1932495   0.0000000
 12.1696984  -6.1847967   0.0000000
 12.1953241  -6.1920590   0.0000000
 12.2209498  -6.2134422   0.0000000
 12.2465755  -6.2171978   0.0000000
 12.2722012  -6.2099517   0.0000000
 12.2978269  -6.2169792   0.0000000
 12.3234526  -6.2363861   0.0000000
 12.3490783  -6.2422635   0.0000000
 12.3747039  -6.2352936   0.0000000
 12.4003296  -6.2373507   0.0000000
 12.4259553  -6.2503212   0.0000000
 12.4515810  -6.2659541   0.0000000
 12.4772067  -6.2741907   0.0000000
 12.5028324  -6.2744497   0.0000000
 12.5284581  -6.2728816   0.0000000
 12.5540838  -6.2762096   0.0000000
 12.5797094  -6.2811631   0.0000000
 12.6053351  -6.2901581   0.0000000
 12.6309608  -6.3032579   0.0000000
 12.6565865  -6.3151919   0.0000000
 12.6822122  -6.3218358   0.0000000
 12.7078379  -6.3253233   0.0000000
 12.7334636  -6.3230880   0.0000000
 12.7590892  -6.3234024   0.0000000
 12.7847149  -6.3312757   0.0000000
 12.8103406  -6.3432519   0.0000000
 12.8359663  -6.3572470   0.0000000
 12.8615920  -6.3650423   0.0000000
 12.8872177  -6.3662982   0.0000000
 12.9128434  -6.3602403   0.0000000
 12.9384691  -6.3667299   0.0000000
 12.9640947  -6.3845036   0.0000000
 12.9897204  -6.3961732   0.0000000
 13.0153461  -6.3950645   0.0000000
 13.0409718  -6.3882681   0.0000000
 13.0665975  -6.3992491   0.0000000
 13.0922232  -6.4186435   0.0000000
 13.1178489  -6.4191511   0.0000000
 13.1434745  -6.4129778   0.0000000
 13.1691002  -6.4265542   0.0000000
 13.1947259  -6.4447121   0.0000000
 13.2203516  -6.4369216   0.0000000
 13.2459773  -6.4399159   0.0000000
 13.2716030  -6.4621252   0.0000000
 13.2972287  -6.4584397   0.0000000
 13.3228544  -6.4546609   0.0000000
 13.3484800  -6.4767644   0.0000000
 13.3741057  -6.4786022   0.0000000
 13.3997314  -6.4708536   0.0000000
 13.4253571  -6.4933316   0.0000000
 13.4509828  -6.4995710   0.0000000
 13.4766085  -6.4894369   0.0000000
 13.5022342  -6.5104049   0.0000000
 13.5278598  -6.5109163   0.0000000
 13.5534855  -6.5118081   0.0000000
 13.5791112  -6.5299157   0.0000000
 13.6047369  -6.5185757   0.0000000
 13.6303626  -6.5422601   0.0000000
 13.6559883  -6.5315817   0.0000000
 13.6816140  -6.5507287   0.0000000
 13.7072397  -6.5468305   0.0000000
 13.7328653  -6.5580794   0.0000000
 13.7584910  -6.5654528   0.0000000
 13.7841167  -6.5629027   0.0000000
 13.8097424  -6.5821971   0.0000000
 13.8353681  -6.5714550   0.0000000
 13.8609938  -6.5941686   0.0000000
 13.8866195  -6.5831093   0.0000000
