! ListType=Lin
# MHZ S DB R 50
  0.1000000  -5.8314904 -55.1456977  -1.7289106  30.6521587 -3000.0000000 -90.0000000 -3000.0000000 -90.0000000
  0.4174359 -16.6032095 -64.9743731  -0.5164314   7.8819487 -3000.0000000 -90.0000000 -3000.0000000 -90.0000000
  0.7348718 -20.6639989 -57.6650877  -0.4622119   4.2770778 -3000.0000000 -90.0000000 -3000.0000000 -90.0000000
  1.0523077 -22.7903880 -50.5544353  -0.4526797   2.7632149 -3000.0000000 -90.0000000 -3000.0000000 -90.0000000
  1.3697436 -24.0759673 -44.8731322  -0.4519124   1.8993882 -3000.0000000 -90.0000000 -3000.0000000 -90.0000000
  1.6871795 -24.9155111 -40.3340501  -0.4539942   1.3269728 -3000.0000000 -90.0000000 -3000.0000000 -90.0000000
  2.0046154 -25.5141386 -36.6759043  -0.4575154   0.9069346 -3000.0000000 -90.0000000 -3000.0000000 -90.0000000
  2.3220513 -25.9418924 -33.8112701  -0.4611523   0.5785398 -3000.0000000 -90.0000000 -3000.0000000 -90.0000000
  2.6394872 -26.2902032 -31.3642885  -0.4640923   0.3088607 -3000.0000000 -90.0000000 -3000.0000000 -90.0000000
  2.9569231 -26.5562485 -29.3734716  -0.4673879   0.0812425 -3000.0000000 -90.0000000 -3000.0000000 -90.0000000
  3.2743590 -26.7675552 -27.5635674  -0.4703809  -0.1170379 -3000.0000000 -90.0000000 -3000.0000000 -90.0000000
  3.5917949 -26.9408351 -26.0344319  -0.4728418  -0.2973261 -3000.0000000 -90.0000000 -3000.0000000 -90.0000000
  3.9092308 -27.0846203 -24.8033003  -0.4753643  -0.4599620 -3000.0000000 -90.0000000 -3000.0000000 -90.0000000
  4.2266667 -27.2033856 -23.6987157  -0.4772002  -0.6106402 -3000.0000000 -90.0000000 -3000.0000000 -90.0000000
  4.5441026 -27.2982971 -22.6744536  -0.4791624  -0.7517526 -3000.0000000 -90.0000000 -3000.0000000 -90.0000000
  4.8615385 -27.3936175 -21.7703100  -0.4811314  -0.8866232 -3000.0000000 -90.0000000 -3000.0000000 -90.0000000
  5.1789744 -27.4624358 -20.9987876  -0.4821895  -1.0152098 -3000.0000000 -90.0000000 -3000.0000000 -90.0000000
  5.4964103 -27.5247374 -20.3391577  -0.4834614  -1.1395960 -3000.0000000 -90.0000000 -3000.0000000 -90.0000000
  5.8138462 -27.5781319 -19.7874165  -0.4852333  -1.2591098 -3000.0000000 -90.0000000 -3000.0000000 -90.0000000
  6.1312821 -27.6229085 -19.1561635  -0.4863924  -1.3751749 -3000.0000000 -90.0000000 -3000.0000000 -90.0000000
  6.4487179 -27.6657949 -18.7328511  -0.4875445  -1.4900966 -3000.0000000 -90.0000000 -3000.0000000 -90.0000000
  6.7661538 -27.6950989 -18.2937623  -0.4885698  -1.6002936 -3000.0000000 -90.0000000 -3000.0000000 -90.0000000
  7.0835897 -27.7238281 -17.9402662  -0.4896637  -1.7087659 -3000.0000000 -90.0000000 -3000.0000000 -90.0000000
  7.4010256 -27.7571685 -17.6854466  -0.4907167  -1.8168065 -3000.0000000 -90.0000000 -3000.0000000 -90.0000000
  7.7184615 -27.7748865 -17.3273615  -0.4916126  -1.9214309 -3000.0000000 -90.0000000 -3000.0000000 -90.0000000
  8.0358974 -27.7866343 -17.1562063  -0.4923436  -2.0249221 -3000.0000000 -90.0000000 -3000.0000000 -90.0000000
  8.3533333 -27.8069214 -16.8603452  -0.4929554  -2.1296295 -3000.0000000 -90.0000000 -3000.0000000 -90.0000000
  8.6707692 -27.8313669 -16.6360827  -0.4940700  -2.2304385 -3000.0000000 -90.0000000 -3000.0000000 -90.0000000
  8.9882051 -27.8426720 -16.5096159  -0.4946447  -2.3308042 -3000.0000000 -90.0000000 -3000.0000000 -90.0000000
  9.3056410 -27.8473900 -16.2845589  -0.4954970  -2.4299649 -3000.0000000 -90.0000000 -3000.0000000 -90.0000000
  9.6230769 -27.8615134 -16.2006725  -0.4960684  -2.5297893 -3000.0000000 -90.0000000 -3000.0000000 -90.0000000
  9.9405128 -27.8664548 -16.1125522  -0.4968822  -2.6298500 -3000.0000000 -90.0000000 -3000.0000000 -90.0000000
 10.2579487 -27.8684256 -16.0497047  -0.4976165  -2.7285372 -3000.0000000 -90.0000000 -3000.0000000 -90.0000000
 10.5753846 -27.8823597 -15.8533445  -0.4985614  -2.8237484 -3000.0000000 -90.0000000 -3000.0000000 -90.0000000
 10.8928205 -27.8956238 -15.9197569  -0.4991935  -2.9217139 -3000.0000000 -90.0000000 -3000.0000000 -90.0000000
 11.2102564 -27.8890148 -15.8852937  -0.4997522  -3.0180358 -3000.0000000 -90.0000000 -3000.0000000 -90.0000000
 11.5276923 -27.9036230 -15.8825321  -0.5006482  -3.1131961 -3000.0000000 -90.0000000 -3000.0000000 -90.0000000
 11.8451282 -27.8976789 -15.8286006  -0.5014475  -3.2086793 -3000.0000000 -90.0000000 -3000.0000000 -90.0000000
 12.1625641 -27.8946913 -15.7953590  -0.5020557  -3.3050571 -3000.0000000 -90.0000000 -3000.0000000 -90.0000000
 12.4800000 -27.9003396 -15.7839223  -0.5030846  -3.3986300 -3000.0000000 -90.0000000 -3000.0000000 -90.0000000
 12.7974359 -27.9052083 -15.7156806  -0.5037852  -3.4936105 -3000.0000000 -90.0000000 -3000.0000000 -90.0000000
 13.1148718 -27.9063889 -15.7549899  -0.5041875  -3.5869901 -3000.0000000 -90.0000000 -3000.0000000 -90.0000000
 13.4323077 -27.9053213 -15.7662983  -0.5047575  -3.6801451 -3000.0000000 -90.0000000 -3000.0000000 -90.0000000
 13.7497436 -27.8982402 -15.9096455  -0.5052413  -3.7756657 -3000.0000000 -90.0000000 -3000.0000000 -90.0000000
 14.0671795 -27.9073587 -15.9642335  -0.5061140  -3.8676804 -3000.0000000 -90.0000000 -3000.0000000 -90.0000000
 14.3846154 -27.9004651 -15.8704257  -0.5067049  -3.9601265 -3000.0000000 -90.0000000 -3000.0000000 -90.0000000
 14.7020513 -27.8945725 -16.0247052  -0.5073063  -4.0532325 -3000.0000000 -90.0000000 -3000.0000000 -90.0000000
 15.0194872 -27.9064878 -15.9885725  -0.5082997  -4.1456707 -3000.0000000 -90.0000000 -3000.0000000 -90.0000000
 15.3369231 -27.8993616 -16.0304927  -0.5083812  -4.2368726 -3000.0000000 -90.0000000 -3000.0000000 -90.0000000
 15.6543590 -27.8931373 -16.1944481  -0.5089835  -4.3290300 -3000.0000000 -90.0000000 -3000.0000000 -90.0000000
 15.9717949 -27.9024041 -16.2532907  -0.5093448  -4.4206855 -3000.0000000 -90.0000000 -3000.0000000 -90.0000000
 16.2892308 -27.8884390 -16.2909359  -0.5104426  -4.5122901 -3000.0000000 -90.0000000 -3000.0000000 -90.0000000
 16.6066667 -27.8949631 -16.3911364  -0.5105743  -4.6046042 -3000.0000000 -90.0000000 -3000.0000000 -90.0000000
 16.9241026 -27.8933115 -16.5214241  -0.5111562  -4.6967384 -3000.0000000 -90.0000000 -3000.0000000 -90.0000000
 17.2415385 -27.8806173 -16.5577350  -0.5120360  -4.7871542 -3000.0000000 -90.0000000 -3000.0000000 -90.0000000
 17.5589744 -27.8702494 -16.7534558  -0.5126262  -4.8769696 -3000.0000000 -90.0000000 -3000.0000000 -90.0000000
 17.8764103 -27.8752200 -16.6967383  -0.5134255  -4.9680514 -3000.0000000 -90.0000000 -3000.0000000 -90.0000000
 18.1938462 -27.8720650 -16.8295002  -0.5139364  -5.0590960 -3000.0000000 -90.0000000 -3000.0000000 -90.0000000
 18.5112821 -27.8651263 -16.9838023  -0.5146102  -5.1493593 -3000.0000000 -90.0000000 -3000.0000000 -90.0000000
 18.8287179 -27.8676062 -17.0479796  -0.5151979  -5.2397631 -3000.0000000 -90.0000000 -3000.0000000 -90.0000000
 19.1461538 -27.8586574 -17.0992387  -0.5156354  -5.3305016 -3000.0000000 -90.0000000 -3000.0000000 -90.0000000
 19.4635897 -27.8603343 -17.2003770  -0.5163168  -5.4211391 -3000.0000000 -90.0000000 -3000.0000000 -90.0000000
 19.7810256 -27.8516112 -17.3404435  -0.5164850  -5.5109962 -3000.0000000 -90.0000000 -3000.0000000 -90.0000000
 20.0984615 -27.8487130 -17.3928227  -0.5170110  -5.6010700 -3000.0000000 -90.0000000 -3000.0000000 -90.0000000
 20.4158974 -27.8319207 -17.6054795  -0.5176190  -5.6896286 -3000.0000000 -90.0000000 -3000.0000000 -90.0000000
 20.7333333 -27.8372176 -17.6702612  -0.5183616  -5.7814121 -3000.0000000 -90.0000000 -3000.0000000 -90.0000000
 21.0507692 -27.8310726 -17.7516615  -0.5187355  -5.8697694 -3000.0000000 -90.0000000 -3000.0000000 -90.0000000
 21.3682051 -27.8244236 -17.8671616  -0.5191467  -5.9600564 -3000.0000000 -90.0000000 -3000.0000000 -90.0000000
 21.6856410 -27.8332314 -18.0446877  -0.5199261  -6.0507230 -3000.0000000 -90.0000000 -3000.0000000 -90.0000000
 22.0030769 -27.8051103 -18.1055222  -0.5207568  -6.1389655 -3000.0000000 -90.0000000 -3000.0000000 -90.0000000
 22.3205128 -27.8075943 -18.2646157  -0.5211826  -6.2282525 -3000.0000000 -90.0000000 -3000.0000000 -90.0000000
 22.6379487 -27.7990457 -18.3876791  -0.5216254  -6.3159443 -3000.0000000 -90.0000000 -3000.0000000 -90.0000000
 22.9553846 -27.7909745 -18.4488281  -0.5223137  -6.4065042 -3000.0000000 -90.0000000 -3000.0000000 -90.0000000
 23.2728205 -27.7775993 -18.6352324  -0.5229263  -6.4948391 -3000.0000000 -90.0000000 -3000.0000000 -90.0000000
 23.5902564 -27.7734701 -18.8070376  -0.5233490  -6.5839338 -3000.0000000 -90.0000000 -3000.0000000 -90.0000000
 23.9076923 -27.7708572 -18.8382663  -0.5236380  -6.6732721 -3000.0000000 -90.0000000 -3000.0000000 -90.0000000
 24.2251282 -27.7547265 -18.9670212  -0.5242167  -6.7622021 -3000.0000000 -90.0000000 -3000.0000000 -90.0000000
 24.5425641 -27.7459336 -19.1032696  -0.5251342  -6.8515524 -3000.0000000 -90.0000000 -3000.0000000 -90.0000000
 24.8600000 -27.7370141 -19.2615760  -0.5251007  -6.9386519 -3000.0000000 -90.0000000 -3000.0000000 -90.0000000
 25.1774359 -27.7452620 -19.3539369  -0.5257475  -7.0272112 -3000.0000000 -90.0000000 -3000.0000000 -90.0000000
 25.4948718 -27.7381294 -19.5195534  -0.5265688  -7.1167098 -3000.0000000 -90.0000000 -3000.0000000 -90.0000000
 25.8123077 -27.7227821 -19.6043710  -0.5267452  -7.2063146 -3000.0000000 -90.0000000 -3000.0000000 -90.0000000
 26.1297436 -27.7145193 -19.7938082  -0.5272472  -7.2959113 -3000.0000000 -90.0000000 -3000.0000000 -90.0000000
 26.4471795 -27.7092761 -19.8913498  -0.5282509  -7.3832097 -3000.0000000 -90.0000000 -3000.0000000 -90.0000000
 26.7646154 -27.6987283 -19.9741451  -0.5286281  -7.4727085 -3000.0000000 -90.0000000 -3000.0000000 -90.0000000
 27.0820513 -27.6909765 -20.1109360  -0.5291011  -7.5616691 -3000.0000000 -90.0000000 -3000.0000000 -90.0000000
 27.3994872 -27.6841600 -20.3423192  -0.5294982  -7.6493758 -3000.0000000 -90.0000000 -3000.0000000 -90.0000000
 27.7169231 -27.6760854 -20.3865519  -0.5298686  -7.7374185 -3000.0000000 -90.0000000 -3000.0000000 -90.0000000
 28.0343590 -27.6666262 -20.5171178  -0.5305148  -7.8253662 -3000.0000000 -90.0000000 -3000.0000000 -90.0000000
 28.3517949 -27.6581650 -20.7006021  -0.5309435  -7.9148335 -3000.0000000 -90.0000000 -3000.0000000 -90.0000000
 28.6692308 -27.6428560 -20.8539107  -0.5313906  -8.0020091 -3000.0000000 -90.0000000 -3000.0000000 -90.0000000
 28.9866667 -27.6333019 -20.9074416  -0.5319858  -8.0907834 -3000.0000000 -90.0000000 -3000.0000000 -90.0000000
 29.3041026 -27.6277660 -21.0566315  -0.5325521  -8.1782681 -3000.0000000 -90.0000000 -3000.0000000 -90.0000000
 29.6215385 -27.6149765 -21.2521963  -0.5332594  -8.2664325 -3000.0000000 -90.0000000 -3000.0000000 -90.0000000
 29.9389744 -27.6004518 -21.3406995  -0.5336017  -8.3531529 -3000.0000000 -90.0000000 -3000.0000000 -90.0000000
 30.2564103 -27.5959570 -21.5088351  -0.5340498  -8.4426991 -3000.0000000 -90.0000000 -3000.0000000 -90.0000000
 30.5738462 -27.5917285 -21.5398773  -0.5345184  -8.5305518 -3000.0000000 -90.0000000 -3000.0000000 -90.0000000
 30.8912821 -27.5744550 -21.7418529  -0.5352020  -8.6198495 -3000.0000000 -90.0000000 -3000.0000000 -90.0000000
 31.2087179 -27.5677658 -21.8965118  -0.5354817  -8.7070693 -3000.0000000 -90.0000000 -3000.0000000 -90.0000000
 31.5261538 -27.5516036 -22.0629696  -0.5362968  -8.7950227 -3000.0000000 -90.0000000 -3000.0000000 -90.0000000
 31.8435897 -27.5495126 -22.1971492  -0.5366147  -8.8829118 -3000.0000000 -90.0000000 -3000.0000000 -90.0000000
 32.1610256 -27.5325625 -22.3066995  -0.5367665  -8.9702801 -3000.0000000 -90.0000000 -3000.0000000 -90.0000000
 32.4784615 -27.5170047 -22.4189139  -0.5373418  -9.0597702 -3000.0000000 -90.0000000 -3000.0000000 -90.0000000
 32.7958974 -27.5104355 -22.5244020  -0.5380738  -9.1468808 -3000.0000000 -90.0000000 -3000.0000000 -90.0000000
 33.1133333 -27.5053461 -22.7045187  -0.5386851  -9.2356318 -3000.0000000 -90.0000000 -3000.0000000 -90.0000000
 33.4307692 -27.4942768 -22.7995265  -0.5394941  -9.3230116 -3000.0000000 -90.0000000 -3000.0000000 -90.0000000
 33.7482051 -27.4834346 -22.9562681  -0.5397837  -9.4094470 -3000.0000000 -90.0000000 -3000.0000000 -90.0000000
 34.0656410 -27.4692055 -23.0916165  -0.5401511  -9.4981712 -3000.0000000 -90.0000000 -3000.0000000 -90.0000000
 34.3830769 -27.4497458 -23.1874590  -0.5407076  -9.5870167 -3000.0000000 -90.0000000 -3000.0000000 -90.0000000
 34.7005128 -27.4427645 -23.3533616  -0.5411558  -9.6748209 -3000.0000000 -90.0000000 -3000.0000000 -90.0000000
 35.0179487 -27.4383682 -23.4961565  -0.5418103  -9.7612556 -3000.0000000 -90.0000000 -3000.0000000 -90.0000000
 35.3353846 -27.4214164 -23.6336403  -0.5425694  -9.8490347 -3000.0000000 -90.0000000 -3000.0000000 -90.0000000
 35.6528205 -27.4061860 -23.7712428  -0.5430338  -9.9371067 -3000.0000000 -90.0000000 -3000.0000000 -90.0000000
 35.9702564 -27.3997307 -23.8394828  -0.5431316 -10.0255748 -3000.0000000 -90.0000000 -3000.0000000 -90.0000000
 36.2876923 -27.3826993 -24.0043211  -0.5437300 -10.1132928 -3000.0000000 -90.0000000 -3000.0000000 -90.0000000
 36.6051282 -27.3696623 -24.1435827  -0.5447207 -10.2005326 -3000.0000000 -90.0000000 -3000.0000000 -90.0000000
 36.9225641 -27.3618439 -24.2350105  -0.5452115 -10.2865119 -3000.0000000 -90.0000000 -3000.0000000 -90.0000000
 37.2400000 -27.3388547 -24.3874884  -0.5454918 -10.3750307 -3000.0000000 -90.0000000 -3000.0000000 -90.0000000
 37.5574359 -27.3424510 -24.5154226  -0.5459354 -10.4631885 -3000.0000000 -90.0000000 -3000.0000000 -90.0000000
 37.8748718 -27.3310122 -24.5504654  -0.5463356 -10.5498197 -3000.0000000 -90.0000000 -3000.0000000 -90.0000000
 38.1923077 -27.3173526 -24.7607968  -0.5474227 -10.6377534 -3000.0000000 -90.0000000 -3000.0000000 -90.0000000
 38.5097436 -27.2943164 -24.8618021  -0.5477392 -10.7255640 -3000.0000000 -90.0000000 -3000.0000000 -90.0000000
 38.8271795 -27.2869691 -25.0068908  -0.5482824 -10.8126830 -3000.0000000 -90.0000000 -3000.0000000 -90.0000000
 39.1446154 -27.2589227 -25.1306286  -0.5484539 -10.8987781 -3000.0000000 -90.0000000 -3000.0000000 -90.0000000
 39.4620513 -27.2545645 -25.2679950  -0.5489875 -10.9891863 -3000.0000000 -90.0000000 -3000.0000000 -90.0000000
 39.7794872 -27.2446061 -25.3094828  -0.5492304 -11.0758474 -3000.0000000 -90.0000000 -3000.0000000 -90.0000000
 40.0969231 -27.2283082 -25.5091189  -0.5499261 -11.1626102 -3000.0000000 -90.0000000 -3000.0000000 -90.0000000
 40.4143590 -27.2077123 -25.6028652  -0.5509027 -11.2494525 -3000.0000000 -90.0000000 -3000.0000000 -90.0000000
 40.7317949 -27.1974382 -25.7295877  -0.5512255 -11.3390304 -3000.0000000 -90.0000000 -3000.0000000 -90.0000000
 41.0492308 -27.1722625 -25.8782109  -0.5514776 -11.4257564 -3000.0000000 -90.0000000 -3000.0000000 -90.0000000
 41.3666667 -27.1631478 -25.9861620  -0.5523954 -11.5140594 -3000.0000000 -90.0000000 -3000.0000000 -90.0000000
 41.6841026 -27.1411388 -26.0619806  -0.5527602 -11.6008747 -3000.0000000 -90.0000000 -3000.0000000 -90.0000000
 42.0015385 -27.1380502 -26.2311294  -0.5532761 -11.6883004 -3000.0000000 -90.0000000 -3000.0000000 -90.0000000
 42.3189744 -27.1106037 -26.3018008  -0.5539914 -11.7755265 -3000.0000000 -90.0000000 -3000.0000000 -90.0000000
 42.6364103 -27.1068195 -26.4169830  -0.5543392 -11.8641362 -3000.0000000 -90.0000000 -3000.0000000 -90.0000000
 42.9538462 -27.0923655 -26.5850607  -0.5550321 -11.9534068 -3000.0000000 -90.0000000 -3000.0000000 -90.0000000
 43.2712821 -27.0683933 -26.7208256  -0.5556579 -12.0398222 -3000.0000000 -90.0000000 -3000.0000000 -90.0000000
 43.5887179 -27.0582835 -26.7708067  -0.5566140 -12.1275753 -3000.0000000 -90.0000000 -3000.0000000 -90.0000000
 43.9061538 -27.0381668 -26.8386888  -0.5568945 -12.2156143 -3000.0000000 -90.0000000 -3000.0000000 -90.0000000
 44.2235897 -27.0173895 -26.9941334  -0.5574318 -12.3018341 -3000.0000000 -90.0000000 -3000.0000000 -90.0000000
 44.5410256 -26.9932640 -27.1403526  -0.5581817 -12.3900763 -3000.0000000 -90.0000000 -3000.0000000 -90.0000000
 44.8584615 -26.9820722 -27.2371336  -0.5588504 -12.4745551 -3000.0000000 -90.0000000 -3000.0000000 -90.0000000
 45.1758974 -26.9595271 -27.3068985  -0.5596699 -12.5608789 -3000.0000000 -90.0000000 -3000.0000000 -90.0000000
 45.4933333 -26.9422372 -27.3919351  -0.5624183 -12.6633656 -3000.0000000 -90.0000000 -3000.0000000 -90.0000000
 45.8107692 -26.9315801 -27.5613689  -0.5616940 -12.7466123 -3000.0000000 -90.0000000 -3000.0000000 -90.0000000
 46.1282051 -26.8926738 -27.6189828  -0.5620608 -12.8370011 -3000.0000000 -90.0000000 -3000.0000000 -90.0000000
 46.4456410 -26.8812402 -27.6949361  -0.5629748 -12.9285184 -3000.0000000 -90.0000000 -3000.0000000 -90.0000000
 46.7630769 -26.8665710 -27.8543101  -0.5633215 -13.0114804 -3000.0000000 -90.0000000 -3000.0000000 -90.0000000
 47.0805128 -26.8353048 -27.9300315  -0.5643926 -13.0982096 -3000.0000000 -90.0000000 -3000.0000000 -90.0000000
 47.3979487 -26.8125430 -28.0381861  -0.5642901 -13.1724161 -3000.0000000 -90.0000000 -3000.0000000 -90.0000000
 47.7153846 -26.7980797 -28.1707836  -0.5650582 -13.2614933 -3000.0000000 -90.0000000 -3000.0000000 -90.0000000
 48.0328205 -26.7663140 -28.2649295  -0.5661872 -13.3481775 -3000.0000000 -90.0000000 -3000.0000000 -90.0000000
 48.3502564 -26.7413309 -28.3175633  -0.5673286 -13.4357847 -3000.0000000 -90.0000000 -3000.0000000 -90.0000000
 48.6676923 -26.7161673 -28.4537132  -0.5687662 -13.5208746 -3000.0000000 -90.0000000 -3000.0000000 -90.0000000
 48.9851282 -26.6904526 -28.5640291  -0.5697539 -13.6086525 -3000.0000000 -90.0000000 -3000.0000000 -90.0000000
 49.3025641 -26.6552622 -28.7087343  -0.5709351 -13.6948597 -3000.0000000 -90.0000000 -3000.0000000 -90.0000000
 49.6200000 -26.6245419 -28.8468792  -0.5720810 -13.7816200 -3000.0000000 -90.0000000 -3000.0000000 -90.0000000
 49.9374359 -26.5968668 -28.9633504  -0.5734436 -13.8664910 -3000.0000000 -90.0000000 -3000.0000000 -90.0000000
 50.2548718 -26.5634195 -29.1040508  -0.5741846 -13.9513691 -3000.0000000 -90.0000000 -3000.0000000 -90.0000000
 50.5723077 -26.5326019 -29.2419593  -0.5757456 -14.0374446 -3000.0000000 -90.0000000 -3000.0000000 -90.0000000
 50.8897436 -26.4981614 -29.3359148  -0.5769244 -14.1198751 -3000.0000000 -90.0000000 -3000.0000000 -90.0000000
 51.2071795 -26.4605274 -29.5308456  -0.5783574 -14.2049139 -3000.0000000 -90.0000000 -3000.0000000 -90.0000000
 51.5246154 -26.4272836 -29.7081419  -0.5793036 -14.2873080 -3000.0000000 -90.0000000 -3000.0000000 -90.0000000
 51.8420513 -26.4012321 -29.8592542  -0.5809516 -14.3702374 -3000.0000000 -90.0000000 -3000.0000000 -90.0000000
 52.1594872 -26.3612934 -30.1027553  -0.5824146 -14.4502607 -3000.0000000 -90.0000000 -3000.0000000 -90.0000000
 52.4769231 -26.3224728 -30.3115911  -0.5835606 -14.5305461 -3000.0000000 -90.0000000 -3000.0000000 -90.0000000
 52.7943590 -26.2839350 -30.5716329  -0.5848888 -14.6115080 -3000.0000000 -90.0000000 -3000.0000000 -90.0000000
 53.1117949 -26.2554863 -30.8071622  -0.5861267 -14.6880411 -3000.0000000 -90.0000000 -3000.0000000 -90.0000000
 53.4292308 -26.2236381 -31.0116012  -0.5872197 -14.7685832 -3000.0000000 -90.0000000 -3000.0000000 -90.0000000
 53.7466667 -26.1889137 -31.3213675  -0.5879708 -14.8455614 -3000.0000000 -90.0000000 -3000.0000000 -90.0000000
 54.0641026 -26.1672936 -31.5615995  -0.5884394 -14.9249821 -3000.0000000 -90.0000000 -3000.0000000 -90.0000000
 54.3815385 -26.1545810 -31.8820892  -0.5889609 -15.0021979 -3000.0000000 -90.0000000 -3000.0000000 -90.0000000
 54.6989744 -26.1266483 -32.1550410  -0.5897462 -15.0807595 -3000.0000000 -90.0000000 -3000.0000000 -90.0000000
 55.0164103 -26.1068174 -32.4603088  -0.5900425 -15.1539885 -3000.0000000 -90.0000000 -3000.0000000 -90.0000000
 55.3338462 -26.0868453 -32.7840557  -0.5901034 -15.2346354 -3000.0000000 -90.0000000 -3000.0000000 -90.0000000
 55.6512821 -26.0684001 -33.0330095  -0.5902369 -15.3127316 -3000.0000000 -90.0000000 -3000.0000000 -90.0000000
