! ListType=Lin
# MHZ S DB R 50
 40.0000000  -4.0868038 153.8988461 -55.3642685 -126.9032196 -3000.0000000 -90.0000000 -3000.0000000 -90.0000000
 40.1173021  -4.0854172 153.7827389 -55.2835174 -126.8810634 -3000.0000000 -90.0000000 -3000.0000000 -90.0000000
 40.2346041  -4.0844927 153.6696073 -55.2018260 -126.9332240 -3000.0000000 -90.0000000 -3000.0000000 -90.0000000
 40.3519062  -4.0841655 153.5575201 -55.0793612 -127.1264130 -3000.0000000 -90.0000000 -3000.0000000 -90.0000000
 40.4692082  -4.0837929 153.4483941 -54.9887543 -127.2482338 -3000.0000000 -90.0000000 -3000.0000000 -90.0000000
 40.5865103  -4.0839872 153.3291240 -54.8973624 -127.2440320 -3000.0000000 -90.0000000 -3000.0000000 -90.0000000
 40.7038123  -4.0838396 153.2156961 -54.7857326 -127.3328377 -3000.0000000 -90.0000000 -3000.0000000 -90.0000000
 40.8211144  -4.0839333 153.1014748 -54.6965209 -127.4715848 -3000.0000000 -90.0000000 -3000.0000000 -90.0000000
 40.9384164  -4.0841442 152.9882772 -54.5983982 -127.5374383 -3000.0000000 -90.0000000 -3000.0000000 -90.0000000
 41.0557185  -4.0837099 152.8720649 -54.4658996 -127.6860570 -3000.0000000 -90.0000000 -3000.0000000 -90.0000000
 41.1730205  -4.0842388 152.7568019 -54.3697984 -127.6784686 -3000.0000000 -90.0000000 -3000.0000000 -90.0000000
 41.2903226  -4.0835041 152.6425711 -54.2750841 -127.9863857 -3000.0000000 -90.0000000 -3000.0000000 -90.0000000
 41.4076246  -4.0835090 152.5237275 -54.1751495 -128.0196569 -3000.0000000 -90.0000000 -3000.0000000 -90.0000000
 41.5249267  -4.0835013 152.4114415 -54.0734910 -127.9834209 -3000.0000000 -90.0000000 -3000.0000000 -90.0000000
 41.6422287  -4.0843816 152.2910264 -53.9620680 -128.0549727 -3000.0000000 -90.0000000 -3000.0000000 -90.0000000
 41.7595308  -4.0838784 152.1742478 -53.8943191 -128.1752292 -3000.0000000 -90.0000000 -3000.0000000 -90.0000000
 41.8768328  -4.0835607 152.0555493 -53.7923379 -128.4475392 -3000.0000000 -90.0000000 -3000.0000000 -90.0000000
 41.9941349  -4.0841916 151.9389298 -53.6764575 -128.4211028 -3000.0000000 -90.0000000 -3000.0000000 -90.0000000
 42.1114370  -4.0843492 151.8218862 -53.5674988 -128.6339676 -3000.0000000 -90.0000000 -3000.0000000 -90.0000000
 42.2287390  -4.0840183 151.6974744 -53.4801542 -128.6586370 -3000.0000000 -90.0000000 -3000.0000000 -90.0000000
 42.3460411  -4.0836613 151.5803300 -53.3843578 -128.8210601 -3000.0000000 -90.0000000 -3000.0000000 -90.0000000
 42.4633431  -4.0844623 151.4582146 -53.2861722 -128.8183298 -3000.0000000 -90.0000000 -3000.0000000 -90.0000000
 42.5806452  -4.0838391 151.3394615 -53.1738999 -128.9221061 -3000.0000000 -90.0000000 -3000.0000000 -90.0000000
 42.6979472  -4.0837474 151.2151725 -53.0841669 -129.1508496 -3000.0000000 -90.0000000 -3000.0000000 -90.0000000
 42.8152493  -4.0842117 151.0955304 -52.9806303 -129.1734619 -3000.0000000 -90.0000000 -3000.0000000 -90.0000000
 42.9325513  -4.0836297 150.9728080 -52.8947672 -129.2869661 -3000.0000000 -90.0000000 -3000.0000000 -90.0000000
 43.0498534  -4.0839353 150.8481569 -52.7940977 -129.3974933 -3000.0000000 -90.0000000 -3000.0000000 -90.0000000
 43.1671554  -4.0839316 150.7256922 -52.6729697 -129.4624167 -3000.0000000 -90.0000000 -3000.0000000 -90.0000000
 43.2844575  -4.0847389 150.6065559 -52.5823684 -129.6012848 -3000.0000000 -90.0000000 -3000.0000000 -90.0000000
 43.4017595  -4.0836738 150.4760713 -52.4896673 -129.6764083 -3000.0000000 -90.0000000 -3000.0000000 -90.0000000
 43.5190616  -4.0837009 150.3492758 -52.3785392 -129.7739574 -3000.0000000 -90.0000000 -3000.0000000 -90.0000000
 43.6363636  -4.0847733 150.2337886 -52.2859985 -129.8406866 -3000.0000000 -90.0000000 -3000.0000000 -90.0000000
 43.7536657  -4.0836068 150.1066761 -52.1996656 -130.0388652 -3000.0000000 -90.0000000 -3000.0000000 -90.0000000
 43.8709677  -4.0838394 149.9771959 -52.1021444 -130.1079359 -3000.0000000 -90.0000000 -3000.0000000 -90.0000000
 43.9882698  -4.0835251 149.8559750 -51.9812658 -130.2295577 -3000.0000000 -90.0000000 -3000.0000000 -90.0000000
 44.1055718  -4.0835165 149.7239417 -51.8940139 -130.2405112 -3000.0000000 -90.0000000 -3000.0000000 -90.0000000
 44.2228739  -4.0840968 149.5970849 -51.7960075 -130.3987083 -3000.0000000 -90.0000000 -3000.0000000 -90.0000000
 44.3401760  -4.0836081 149.4709871 -51.6981826 -130.5189800 -3000.0000000 -90.0000000 -3000.0000000 -90.0000000
 44.4574780  -4.0835004 149.3422986 -51.5924800 -130.6346203 -3000.0000000 -90.0000000 -3000.0000000 -90.0000000
 44.5747801  -4.0838332 149.2145993 -51.5038543 -130.8185555 -3000.0000000 -90.0000000 -3000.0000000 -90.0000000
 44.6920821  -4.0832172 149.0848188 -51.4182940 -130.8648922 -3000.0000000 -90.0000000 -3000.0000000 -90.0000000
 44.8093842  -4.0834920 148.9592217 -51.2888787 -130.9949487 -3000.0000000 -90.0000000 -3000.0000000 -90.0000000
 44.9266862  -4.0831106 148.8242044 -51.2069096 -131.0875368 -3000.0000000 -90.0000000 -3000.0000000 -90.0000000
 45.0439883  -4.0839884 148.6939572 -51.1094663 -131.2826853 -3000.0000000 -90.0000000 -3000.0000000 -90.0000000
 45.1612903  -4.0834702 148.5654247 -51.0118320 -131.3582312 -3000.0000000 -90.0000000 -3000.0000000 -90.0000000
 45.2785924  -4.0837646 148.4360380 -50.9040628 -131.3932133 -3000.0000000 -90.0000000 -3000.0000000 -90.0000000
 45.3958944  -4.0863309 148.3039100 -50.8057064 -131.4684672 -3000.0000000 -90.0000000 -3000.0000000 -90.0000000
 45.5131965  -4.0898122 148.1340646 -50.7112584 -131.6948843 -3000.0000000 -90.0000000 -3000.0000000 -90.0000000
 45.6304985  -4.0860737 148.0062211 -50.6231709 -131.7730878 -3000.0000000 -90.0000000 -3000.0000000 -90.0000000
 45.7478006  -4.0863454 147.8780525 -50.5150105 -131.8639740 -3000.0000000 -90.0000000 -3000.0000000 -90.0000000
 45.8651026  -4.0852834 147.7378178 -50.4342290 -131.9135055 -3000.0000000 -90.0000000 -3000.0000000 -90.0000000
 45.9824047  -4.0848568 147.6024621 -50.3287164 -132.0668835 -3000.0000000 -90.0000000 -3000.0000000 -90.0000000
 46.0997067  -4.0847955 147.4626224 -50.2280153 -132.2370572 -3000.0000000 -90.0000000 -3000.0000000 -90.0000000
 46.2170088  -4.0845761 147.3229535 -50.1297827 -132.2641405 -3000.0000000 -90.0000000 -3000.0000000 -90.0000000
 46.3343109  -4.0848638 147.1879257 -50.0302142 -132.4259114 -3000.0000000 -90.0000000 -3000.0000000 -90.0000000
 46.4516129  -4.0848852 147.0510658 -49.9286973 -132.5748842 -3000.0000000 -90.0000000 -3000.0000000 -90.0000000
 46.5689150  -4.0858323 146.9167258 -49.8406327 -132.7004750 -3000.0000000 -90.0000000 -3000.0000000 -90.0000000
 46.6862170  -4.0850766 146.7681626 -49.7418754 -132.7804961 -3000.0000000 -90.0000000 -3000.0000000 -90.0000000
 46.8035191  -4.0871048 146.6400674 -49.6404931 -132.8921651 -3000.0000000 -90.0000000 -3000.0000000 -90.0000000
 46.9208211  -4.0864723 146.5011096 -49.5384902 -133.0540348 -3000.0000000 -90.0000000 -3000.0000000 -90.0000000
 47.0381232  -4.0868236 146.3621672 -49.4395320 -133.1619833 -3000.0000000 -90.0000000 -3000.0000000 -90.0000000
 47.1554252  -4.0857302 146.2131253 -49.3415740 -133.3150923 -3000.0000000 -90.0000000 -3000.0000000 -90.0000000
 47.2727273  -4.0869556 146.0754583 -49.2428054 -133.3584859 -3000.0000000 -90.0000000 -3000.0000000 -90.0000000
 47.3900293  -4.0867811 145.9352496 -49.1407856 -133.5551895 -3000.0000000 -90.0000000 -3000.0000000 -90.0000000
 47.5073314  -4.0875844 145.7884220 -49.0389229 -133.6655210 -3000.0000000 -90.0000000 -3000.0000000 -90.0000000
 47.6246334  -4.0865342 145.6423382 -48.9461226 -133.6863119 -3000.0000000 -90.0000000 -3000.0000000 -90.0000000
 47.7419355  -4.0866953 145.4978967 -48.8491385 -133.9151309 -3000.0000000 -90.0000000 -3000.0000000 -90.0000000
 47.8592375  -4.0869317 145.3487818 -48.7598468 -133.9416065 -3000.0000000 -90.0000000 -3000.0000000 -90.0000000
 47.9765396  -4.0865105 145.2053039 -48.6535823 -134.0819513 -3000.0000000 -90.0000000 -3000.0000000 -90.0000000
 48.0938416  -4.0875338 145.0606388 -48.5525439 -134.2343538 -3000.0000000 -90.0000000 -3000.0000000 -90.0000000
 48.2111437  -4.0873531 144.9132422 -48.4601078 -134.2862222 -3000.0000000 -90.0000000 -3000.0000000 -90.0000000
 48.3284457  -4.0874970 144.7626786 -48.3548169 -134.5219976 -3000.0000000 -90.0000000 -3000.0000000 -90.0000000
 48.4457478  -4.0871868 144.6111161 -48.2581196 -134.6269117 -3000.0000000 -90.0000000 -3000.0000000 -90.0000000
 48.5630499  -4.0877005 144.4650525 -48.1630088 -134.7440913 -3000.0000000 -90.0000000 -3000.0000000 -90.0000000
 48.6803519  -4.0881167 144.3136743 -48.0642763 -134.8499195 -3000.0000000 -90.0000000 -3000.0000000 -90.0000000
 48.7976540  -4.0880608 144.1613386 -47.9729588 -134.9718692 -3000.0000000 -90.0000000 -3000.0000000 -90.0000000
 48.9149560  -4.0880510 144.0127411 -47.8667239 -135.0701479 -3000.0000000 -90.0000000 -3000.0000000 -90.0000000
 49.0322581  -4.0880856 143.8585075 -47.7771695 -135.1904643 -3000.0000000 -90.0000000 -3000.0000000 -90.0000000
 49.1495601  -4.0889939 143.7050842 -47.6737540 -135.3214440 -3000.0000000 -90.0000000 -3000.0000000 -90.0000000
 49.2668622  -4.0884570 143.5510920 -47.5765485 -135.4804743 -3000.0000000 -90.0000000 -3000.0000000 -90.0000000
 49.3841642  -4.0889881 143.3931314 -47.4772054 -135.6168336 -3000.0000000 -90.0000000 -3000.0000000 -90.0000000
 49.5014663  -4.0891509 143.2414031 -47.3810733 -135.7076949 -3000.0000000 -90.0000000 -3000.0000000 -90.0000000
 49.6187683  -4.0894626 143.0888826 -47.2836720 -135.8631712 -3000.0000000 -90.0000000 -3000.0000000 -90.0000000
 49.7360704  -4.0893352 142.9293038 -47.1837492 -136.0201844 -3000.0000000 -90.0000000 -3000.0000000 -90.0000000
 49.8533724  -4.0890534 142.7731818 -47.0859249 -136.1410230 -3000.0000000 -90.0000000 -3000.0000000 -90.0000000
 49.9706745  -4.0903534 142.6141374 -46.9865204 -136.2438427 -3000.0000000 -90.0000000 -3000.0000000 -90.0000000
 50.0879765  -4.0894780 142.4545364 -46.8952869 -136.3776933 -3000.0000000 -90.0000000 -3000.0000000 -90.0000000
 50.2052786  -4.0900677 142.2994659 -46.8014455 -136.5052007 -3000.0000000 -90.0000000 -3000.0000000 -90.0000000
 50.3225806  -4.0902229 142.1324478 -46.6947829 -136.6309114 -3000.0000000 -90.0000000 -3000.0000000 -90.0000000
 50.4398827  -4.0910238 141.9706461 -46.5964597 -136.7841385 -3000.0000000 -90.0000000 -3000.0000000 -90.0000000
 50.5571848  -4.0906197 141.8107088 -46.5059445 -136.9290461 -3000.0000000 -90.0000000 -3000.0000000 -90.0000000
 50.6744868  -4.0905880 141.6480073 -46.4095412 -137.0519861 -3000.0000000 -90.0000000 -3000.0000000 -90.0000000
 50.7917889  -4.0909174 141.4788891 -46.3051591 -137.1447411 -3000.0000000 -90.0000000 -3000.0000000 -90.0000000
 50.9090909  -4.0912021 141.3176695 -46.2112566 -137.3176175 -3000.0000000 -90.0000000 -3000.0000000 -90.0000000
 51.0263930  -4.0913885 141.1469911 -46.1161869 -137.4559214 -3000.0000000 -90.0000000 -3000.0000000 -90.0000000
 51.1436950  -4.0909926 140.9880178 -46.0155079 -137.5935413 -3000.0000000 -90.0000000 -3000.0000000 -90.0000000
 51.2609971  -4.0917476 140.8198624 -45.9191466 -137.7327325 -3000.0000000 -90.0000000 -3000.0000000 -90.0000000
 51.3782991  -4.0922672 140.6533485 -45.8225759 -137.8759029 -3000.0000000 -90.0000000 -3000.0000000 -90.0000000
 51.4956012  -4.0929891 140.4821609 -45.7205455 -137.9694314 -3000.0000000 -90.0000000 -3000.0000000 -90.0000000
 51.6129032  -4.0928689 140.3113202 -45.6210756 -138.1487064 -3000.0000000 -90.0000000 -3000.0000000 -90.0000000
 51.7302053  -4.0930882 140.1431143 -45.5271247 -138.2695992 -3000.0000000 -90.0000000 -3000.0000000 -90.0000000
 51.8475073  -4.0932632 139.9706530 -45.4259636 -138.4044481 -3000.0000000 -90.0000000 -3000.0000000 -90.0000000
 51.9648094  -4.0947592 139.7988977 -45.3312811 -138.5824524 -3000.0000000 -90.0000000 -3000.0000000 -90.0000000
 52.0821114  -4.0942448 139.6258123 -45.2261292 -138.6650084 -3000.0000000 -90.0000000 -3000.0000000 -90.0000000
 52.1994135  -4.0946253 139.4516027 -45.1281902 -138.8222231 -3000.0000000 -90.0000000 -3000.0000000 -90.0000000
 52.3167155  -4.0961665 139.2718493 -45.0293332 -138.9355935 -3000.0000000 -90.0000000 -3000.0000000 -90.0000000
 52.4340176  -4.0950552 139.0978450 -44.9343043 -139.1062775 -3000.0000000 -90.0000000 -3000.0000000 -90.0000000
 52.5513196  -4.0957110 138.9229702 -44.8301291 -139.2728352 -3000.0000000 -90.0000000 -3000.0000000 -90.0000000
 52.6686217  -4.0958296 138.7417965 -44.7357071 -139.3898050 -3000.0000000 -90.0000000 -3000.0000000 -90.0000000
 52.7859238  -4.0964256 138.5665125 -44.6375183 -139.5549655 -3000.0000000 -90.0000000 -3000.0000000 -90.0000000
 52.9032258  -4.0968332 138.3872471 -44.5408086 -139.7004325 -3000.0000000 -90.0000000 -3000.0000000 -90.0000000
 53.0205279  -4.0972176 138.2054854 -44.4422757 -139.8578446 -3000.0000000 -90.0000000 -3000.0000000 -90.0000000
 53.1378299  -4.0973445 138.0231258 -44.3439074 -139.9499788 -3000.0000000 -90.0000000 -3000.0000000 -90.0000000
 53.2551320  -4.0975823 137.8441969 -44.2415394 -140.1222741 -3000.0000000 -90.0000000 -3000.0000000 -90.0000000
 53.3724340  -4.0978411 137.6665963 -44.1436361 -140.2449875 -3000.0000000 -90.0000000 -3000.0000000 -90.0000000
 53.4897361  -4.0987480 137.4739886 -44.0460877 -140.4246336 -3000.0000000 -90.0000000 -3000.0000000 -90.0000000
 53.6070381  -4.0991671 137.2914710 -43.9466820 -140.5571736 -3000.0000000 -90.0000000 -3000.0000000 -90.0000000
 53.7243402  -4.0998099 137.1026692 -43.8462838 -140.7013401 -3000.0000000 -90.0000000 -3000.0000000 -90.0000000
 53.8416422  -4.1002116 136.9172921 -43.7524475 -140.8673073 -3000.0000000 -90.0000000 -3000.0000000 -90.0000000
 53.9589443  -4.1006765 136.7308556 -43.6539893 -141.0225729 -3000.0000000 -90.0000000 -3000.0000000 -90.0000000
 54.0762463  -4.1012764 136.5394165 -43.5523906 -141.1622591 -3000.0000000 -90.0000000 -3000.0000000 -90.0000000
 54.1935484  -4.1018195 136.3499037 -43.4549594 -141.2908759 -3000.0000000 -90.0000000 -3000.0000000 -90.0000000
 54.3108504  -4.1015677 136.1566581 -43.3539252 -141.4746370 -3000.0000000 -90.0000000 -3000.0000000 -90.0000000
 54.4281525  -4.1025815 135.9652466 -43.2523503 -141.6334052 -3000.0000000 -90.0000000 -3000.0000000 -90.0000000
 54.5454545  -4.1033764 135.7721575 -43.1602450 -141.7859230 -3000.0000000 -90.0000000 -3000.0000000 -90.0000000
 54.6627566  -4.1039429 135.5748815 -43.0551499 -141.9100744 -3000.0000000 -90.0000000 -3000.0000000 -90.0000000
 54.7800587  -4.1036496 135.3776776 -42.9532600 -142.0387624 -3000.0000000 -90.0000000 -3000.0000000 -90.0000000
 54.8973607  -4.1047063 135.1848162 -42.8542373 -142.2583796 -3000.0000000 -90.0000000 -3000.0000000 -90.0000000
 55.0146628  -4.1056003 134.9893245 -42.7583262 -142.4032880 -3000.0000000 -90.0000000 -3000.0000000 -90.0000000
 55.1319648  -4.1057232 134.7888416 -42.6556032 -142.5410795 -3000.0000000 -90.0000000 -3000.0000000 -90.0000000
 55.2492669  -4.1055185 134.5839530 -42.5543195 -142.6887472 -3000.0000000 -90.0000000 -3000.0000000 -90.0000000
 55.3665689  -4.1070167 134.3864663 -42.4619217 -142.8722869 -3000.0000000 -90.0000000 -3000.0000000 -90.0000000
 55.4838710  -4.1066741 134.1834493 -42.3590840 -143.0435506 -3000.0000000 -90.0000000 -3000.0000000 -90.0000000
 55.6011730  -4.1080808 133.9801695 -42.2573538 -143.1776382 -3000.0000000 -90.0000000 -3000.0000000 -90.0000000
 55.7184751  -4.1082759 133.7754564 -42.1605428 -143.3375442 -3000.0000000 -90.0000000 -3000.0000000 -90.0000000
 55.8357771  -4.1085244 133.5731021 -42.0570064 -143.5050061 -3000.0000000 -90.0000000 -3000.0000000 -90.0000000
 55.9530792  -4.1096036 133.3625962 -41.9526025 -143.6706155 -3000.0000000 -90.0000000 -3000.0000000 -90.0000000
 56.0703812  -4.1102150 133.1559406 -41.8553187 -143.8467333 -3000.0000000 -90.0000000 -3000.0000000 -90.0000000
 56.1876833  -4.1108481 132.9422225 -41.7572813 -144.0001879 -3000.0000000 -90.0000000 -3000.0000000 -90.0000000
 56.3049853  -4.1116568 132.7384384 -41.6580731 -144.1703107 -3000.0000000 -90.0000000 -3000.0000000 -90.0000000
 56.4222874  -4.1123937 132.5227797 -41.5569086 -144.3248429 -3000.0000000 -90.0000000 -3000.0000000 -90.0000000
 56.5395894  -4.1126892 132.3099741 -41.4554398 -144.4963275 -3000.0000000 -90.0000000 -3000.0000000 -90.0000000
 56.6568915  -4.1137717 132.0955878 -41.3541653 -144.6593911 -3000.0000000 -90.0000000 -3000.0000000 -90.0000000
 56.7741935  -4.1145480 131.8783340 -41.2582429 -144.8279664 -3000.0000000 -90.0000000 -3000.0000000 -90.0000000
 56.8914956  -4.1151869 131.6653101 -41.1548607 -144.9878684 -3000.0000000 -90.0000000 -3000.0000000 -90.0000000
 57.0087977  -4.1161325 131.4512016 -41.0497665 -145.1572409 -3000.0000000 -90.0000000 -3000.0000000 -90.0000000
 57.1260997  -4.1169178 131.2283240 -40.9526589 -145.3374862 -3000.0000000 -90.0000000 -3000.0000000 -90.0000000
 57.2434018  -4.1177152 131.0089574 -40.8479651 -145.5300433 -3000.0000000 -90.0000000 -3000.0000000 -90.0000000
 57.3607038  -4.1188364 130.7877163 -40.7540605 -145.6815601 -3000.0000000 -90.0000000 -3000.0000000 -90.0000000
 57.4780059  -4.1190259 130.5643931 -40.6494386 -145.8729982 -3000.0000000 -90.0000000 -3000.0000000 -90.0000000
 57.5953079  -4.1205622 130.3386217 -40.5466109 -146.0265770 -3000.0000000 -90.0000000 -3000.0000000 -90.0000000
 57.7126100  -4.1208830 130.1144237 -40.4477140 -146.1977323 -3000.0000000 -90.0000000 -3000.0000000 -90.0000000
 57.8299120  -4.1219056 129.8852688 -40.3416247 -146.3797841 -3000.0000000 -90.0000000 -3000.0000000 -90.0000000
 57.9472141  -4.1224277 129.6526460 -40.2422631 -146.5633941 -3000.0000000 -90.0000000 -3000.0000000 -90.0000000
 58.0645161  -4.1234553 129.4292762 -40.1416586 -146.7145429 -3000.0000000 -90.0000000 -3000.0000000 -90.0000000
 58.1818182  -4.1246197 129.1920280 -40.0374906 -146.9005163 -3000.0000000 -90.0000000 -3000.0000000 -90.0000000
 58.2991202  -4.1256292 128.9651715 -39.9351401 -147.0751514 -3000.0000000 -90.0000000 -3000.0000000 -90.0000000
 58.4164223  -4.1263212 128.7254117 -39.8352057 -147.2798895 -3000.0000000 -90.0000000 -3000.0000000 -90.0000000
 58.5337243  -4.1271481 128.4878935 -39.7340860 -147.4486557 -3000.0000000 -90.0000000 -3000.0000000 -90.0000000
 58.6510264  -4.1285537 128.2578626 -39.6307348 -147.6114998 -3000.0000000 -90.0000000 -3000.0000000 -90.0000000
 58.7683284  -4.1294490 128.0205548 -39.5276323 -147.7984741 -3000.0000000 -90.0000000 -3000.0000000 -90.0000000
 58.8856305  -4.1311519 127.7756368 -39.4216540 -147.9949543 -3000.0000000 -90.0000000 -3000.0000000 -90.0000000
 59.0029326  -4.1312148 127.5319204 -39.3233813 -148.1628007 -3000.0000000 -90.0000000 -3000.0000000 -90.0000000
 59.1202346  -4.1316271 127.2862742 -39.2178714 -148.3695672 -3000.0000000 -90.0000000 -3000.0000000 -90.0000000
 59.2375367  -4.1343931 127.0425155 -39.1167903 -148.5376463 -3000.0000000 -90.0000000 -3000.0000000 -90.0000000
 59.3548387  -4.1349531 126.7966769 -39.0144116 -148.7304411 -3000.0000000 -90.0000000 -3000.0000000 -90.0000000
 59.4721408  -4.1358975 126.5496996 -38.9089227 -148.9040380 -3000.0000000 -90.0000000 -3000.0000000 -90.0000000
 59.5894428  -4.1363414 126.2998742 -38.8037047 -149.1264593 -3000.0000000 -90.0000000 -3000.0000000 -90.0000000
 59.7067449  -4.1375422 126.0492512 -38.7038983 -149.2925282 -3000.0000000 -90.0000000 -3000.0000000 -90.0000000
 59.8240469  -4.1389284 125.7975662 -38.6022112 -149.4982960 -3000.0000000 -90.0000000 -3000.0000000 -90.0000000
 59.9413490  -4.1404476 125.5392639 -38.4962043 -149.6889230 -3000.0000000 -90.0000000 -3000.0000000 -90.0000000
 60.0586510  -4.1416679 125.2874611 -38.3930025 -149.8729526 -3000.0000000 -90.0000000 -3000.0000000 -90.0000000
 60.1759531  -4.1433675 125.0261315 -38.2874605 -150.0839546 -3000.0000000 -90.0000000 -3000.0000000 -90.0000000
 60.2932551  -4.1442802 124.7687485 -38.1865746 -150.2581822 -3000.0000000 -90.0000000 -3000.0000000 -90.0000000
 60.4105572  -4.1449903 124.5097515 -38.0819886 -150.4526521 -3000.0000000 -90.0000000 -3000.0000000 -90.0000000
