! ListType=Lin
# MHZ S DB R 50
  0.1000000 -10.6910772 -68.1673779  -0.6937190  16.3627832 -3000.0000000 -90.0000000 -3000.0000000 -90.0000000
  0.1585735 -14.2974394 -71.3611073  -0.4770209  10.0099683 -3000.0000000 -90.0000000 -3000.0000000 -90.0000000
  0.2171470 -16.7161317 -71.5809737  -0.4053532   6.8944038 -3000.0000000 -90.0000000 -3000.0000000 -90.0000000
  0.2757206 -18.4556045 -70.8511364  -0.3745819   4.9689642 -3000.0000000 -90.0000000 -3000.0000000 -90.0000000
  0.3342941 -19.7605160 -69.8092776  -0.3585672   3.6195491 -3000.0000000 -90.0000000 -3000.0000000 -90.0000000
  0.3928676 -20.7550198 -68.7500145  -0.3494668   2.5901789 -3000.0000000 -90.0000000 -3000.0000000 -90.0000000
  0.4514411 -21.5320620 -67.7651994  -0.3441128   1.7597428 -3000.0000000 -90.0000000 -3000.0000000 -90.0000000
  0.5100147 -22.1354991 -66.9202187  -0.3402482   1.0565631 -3000.0000000 -90.0000000 -3000.0000000 -90.0000000
  0.5685882 -22.5961113 -66.2302168  -0.3382682   0.4453322 -3000.0000000 -90.0000000 -3000.0000000 -90.0000000
  0.6271617 -22.9733400 -65.7229534  -0.3364791  -0.1029186 -3000.0000000 -90.0000000 -3000.0000000 -90.0000000
  0.6857352 -23.2527878 -65.4062213  -0.3353279  -0.6031595 -3000.0000000 -90.0000000 -3000.0000000 -90.0000000
  0.7443087 -23.4713815 -65.1417120  -0.3352610  -1.0646857 -3000.0000000 -90.0000000 -3000.0000000 -90.0000000
  0.8028823 -23.6336655 -65.0532716  -0.3351170  -1.4970789 -3000.0000000 -90.0000000 -3000.0000000 -90.0000000
  0.8614558 -23.7497818 -65.0865967  -0.3350413  -1.9063670 -3000.0000000 -90.0000000 -3000.0000000 -90.0000000
  0.9200293 -23.8328286 -65.2495334  -0.3351762  -2.2988156 -3000.0000000 -90.0000000 -3000.0000000 -90.0000000
  0.9786028 -23.8712793 -65.5085829  -0.3355272  -2.6740622 -3000.0000000 -90.0000000 -3000.0000000 -90.0000000
  1.0371764 -23.9034531 -65.7525694  -0.3358022  -3.0372455 -3000.0000000 -90.0000000 -3000.0000000 -90.0000000
  1.0957499 -23.9106413 -66.1478518  -0.3366675  -3.3885228 -3000.0000000 -90.0000000 -3000.0000000 -90.0000000
  1.1543234 -23.8893425 -66.5679112  -0.3373931  -3.7308997 -3000.0000000 -90.0000000 -3000.0000000 -90.0000000
  1.2128969 -23.8593683 -67.0196555  -0.3379638  -4.0676693 -3000.0000000 -90.0000000 -3000.0000000 -90.0000000
  1.2714704 -23.8100152 -67.5459272  -0.3387146  -4.3945328 -3000.0000000 -90.0000000 -3000.0000000 -90.0000000
  1.3300440 -23.7551109 -68.1370367  -0.3397031  -4.7167650 -3000.0000000 -90.0000000 -3000.0000000 -90.0000000
  1.3886175 -23.6892066 -68.6069156  -0.3406497  -5.0341050 -3000.0000000 -90.0000000 -3000.0000000 -90.0000000
  1.4471910 -23.6150953 -69.2296311  -0.3419126  -5.3455928 -3000.0000000 -90.0000000 -3000.0000000 -90.0000000
  1.5057645 -23.5234677 -69.8360383  -0.3425362  -5.6556773 -3000.0000000 -90.0000000 -3000.0000000 -90.0000000
  1.5643381 -23.4361719 -70.4029290  -0.3433767  -5.9578955 -3000.0000000 -90.0000000 -3000.0000000 -90.0000000
  1.6229116 -23.3484552 -71.0717204  -0.3443611  -6.2612173 -3000.0000000 -90.0000000 -3000.0000000 -90.0000000
  1.6814851 -23.2498515 -71.6850155  -0.3451235  -6.5579990 -3000.0000000 -90.0000000 -3000.0000000 -90.0000000
  1.7400586 -23.1422506 -72.2781669  -0.3466522  -6.8535303 -3000.0000000 -90.0000000 -3000.0000000 -90.0000000
  1.7986321 -23.0389141 -72.9043105  -0.3480487  -7.1473574 -3000.0000000 -90.0000000 -3000.0000000 -90.0000000
  1.8572057 -22.9310579 -73.5593269  -0.3493277  -7.4377986 -3000.0000000 -90.0000000 -3000.0000000 -90.0000000
  1.9157792 -22.8243452 -74.1488718  -0.3504775  -7.7275604 -3000.0000000 -90.0000000 -3000.0000000 -90.0000000
  1.9743527 -22.7112266 -74.7884248  -0.3518519  -8.0149905 -3000.0000000 -90.0000000 -3000.0000000 -90.0000000
  2.0329262 -22.5975736 -75.4248708  -0.3528186  -8.3028120 -3000.0000000 -90.0000000 -3000.0000000 -90.0000000
  2.0914998 -22.4830731 -75.9855301  -0.3543931  -8.5851250 -3000.0000000 -90.0000000 -3000.0000000 -90.0000000
  2.1500733 -22.3650280 -76.6062940  -0.3555442  -8.8687131 -3000.0000000 -90.0000000 -3000.0000000 -90.0000000
  2.2086468 -22.2466137 -77.2082764  -0.3569647  -9.1495779 -3000.0000000 -90.0000000 -3000.0000000 -90.0000000
  2.2672203 -22.1334209 -77.8183421  -0.3581800  -9.4300111 -3000.0000000 -90.0000000 -3000.0000000 -90.0000000
  2.3257938 -22.0134310 -78.3936306  -0.3591583  -9.7085791 -3000.0000000 -90.0000000 -3000.0000000 -90.0000000
  2.3843674 -21.9004347 -78.9502172  -0.3604697  -9.9863102 -3000.0000000 -90.0000000 -3000.0000000 -90.0000000
  2.4429409 -21.7849028 -79.5588127  -0.3620439 -10.2637090 -3000.0000000 -90.0000000 -3000.0000000 -90.0000000
  2.5015144 -21.6701102 -80.0885057  -0.3634985 -10.5381844 -3000.0000000 -90.0000000 -3000.0000000 -90.0000000
  2.5600879 -21.5527083 -80.6746806  -0.3652308 -10.8131138 -3000.0000000 -90.0000000 -3000.0000000 -90.0000000
  2.6186615 -21.4356647 -81.2142124  -0.3665026 -11.0874562 -3000.0000000 -90.0000000 -3000.0000000 -90.0000000
  2.6772350 -21.3240874 -81.7667691  -0.3679325 -11.3609086 -3000.0000000 -90.0000000 -3000.0000000 -90.0000000
  2.7358085 -21.2015437 -82.3079067  -0.3687651 -11.6346133 -3000.0000000 -90.0000000 -3000.0000000 -90.0000000
  2.7943820 -21.0922221 -82.8363451  -0.3707236 -11.9077180 -3000.0000000 -90.0000000 -3000.0000000 -90.0000000
  2.8529555 -20.9788116 -83.3476369  -0.3721245 -12.1767627 -3000.0000000 -90.0000000 -3000.0000000 -90.0000000
  2.9115291 -20.8636620 -83.8609195  -0.3737935 -12.4497194 -3000.0000000 -90.0000000 -3000.0000000 -90.0000000
  2.9701026 -20.7492065 -84.3812771  -0.3752834 -12.7197531 -3000.0000000 -90.0000000 -3000.0000000 -90.0000000
  3.0286761 -20.6397717 -84.8942376  -0.3765169 -12.9889188 -3000.0000000 -90.0000000 -3000.0000000 -90.0000000
  3.0872496 -20.5268120 -85.3833358  -0.3781647 -13.2571563 -3000.0000000 -90.0000000 -3000.0000000 -90.0000000
  3.1458232 -20.4237794 -85.8637839  -0.3795102 -13.5261393 -3000.0000000 -90.0000000 -3000.0000000 -90.0000000
  3.2043967 -20.3097372 -86.3349562  -0.3812280 -13.7944529 -3000.0000000 -90.0000000 -3000.0000000 -90.0000000
  3.2629702 -20.2008458 -86.8195104  -0.3825380 -14.0638016 -3000.0000000 -90.0000000 -3000.0000000 -90.0000000
  3.3215437 -20.0938324 -87.3235852  -0.3841456 -14.3307572 -3000.0000000 -90.0000000 -3000.0000000 -90.0000000
  3.3801172 -19.9913706 -87.7384057  -0.3857962 -14.5984456 -3000.0000000 -90.0000000 -3000.0000000 -90.0000000
  3.4386908 -19.8870025 -88.2015421  -0.3872243 -14.8637411 -3000.0000000 -90.0000000 -3000.0000000 -90.0000000
  3.4972643 -19.7826100 -88.6908276  -0.3888099 -15.1300162 -3000.0000000 -90.0000000 -3000.0000000 -90.0000000
  3.5558378 -19.6803418 -89.1226336  -0.3907347 -15.3952699 -3000.0000000 -90.0000000 -3000.0000000 -90.0000000
  3.6144113 -19.5776991 -89.5531590  -0.3923467 -15.6607567 -3000.0000000 -90.0000000 -3000.0000000 -90.0000000
  3.6729849 -19.4755268 -89.9849080  -0.3939018 -15.9267984 -3000.0000000 -90.0000000 -3000.0000000 -90.0000000
  3.7315584 -19.3774866 -90.4585862  -0.3957096 -16.1912297 -3000.0000000 -90.0000000 -3000.0000000 -90.0000000
  3.7901319 -19.2777333 -90.8792447  -0.3973145 -16.4576245 -3000.0000000 -90.0000000 -3000.0000000 -90.0000000
  3.8487054 -19.1808483 -91.2957019  -0.3992463 -16.7195752 -3000.0000000 -90.0000000 -3000.0000000 -90.0000000
  3.9072789 -19.0810029 -91.7263911  -0.4009420 -16.9829648 -3000.0000000 -90.0000000 -3000.0000000 -90.0000000
  3.9658525 -18.9866762 -92.1390449  -0.4026154 -17.2461722 -3000.0000000 -90.0000000 -3000.0000000 -90.0000000
  4.0244260 -18.8930796 -92.5445614  -0.4042674 -17.5081421 -3000.0000000 -90.0000000 -3000.0000000 -90.0000000
  4.0829995 -18.7971413 -92.9364479  -0.4060900 -17.7730523 -3000.0000000 -90.0000000 -3000.0000000 -90.0000000
  4.1415730 -18.7063059 -93.3691871  -0.4079216 -18.0372791 -3000.0000000 -90.0000000 -3000.0000000 -90.0000000
  4.2001466 -18.6147751 -93.7515437  -0.4095626 -18.2971273 -3000.0000000 -90.0000000 -3000.0000000 -90.0000000
  4.2587201 -18.5211039 -94.1421189  -0.4116457 -18.5592430 -3000.0000000 -90.0000000 -3000.0000000 -90.0000000
  4.3172936 -18.4288665 -94.5597220  -0.4135825 -18.8228323 -3000.0000000 -90.0000000 -3000.0000000 -90.0000000
  4.3758671 -18.3412716 -94.9443065  -0.4153131 -19.0835976 -3000.0000000 -90.0000000 -3000.0000000 -90.0000000
  4.4344406 -18.2568251 -95.3316721  -0.4172664 -19.3446492 -3000.0000000 -90.0000000 -3000.0000000 -90.0000000
  4.4930142 -18.1621844 -95.7034006  -0.4188853 -19.6075842 -3000.0000000 -90.0000000 -3000.0000000 -90.0000000
  4.5515877 -18.0805575 -96.0748655  -0.4208289 -19.8674170 -3000.0000000 -90.0000000 -3000.0000000 -90.0000000
  4.6101612 -17.9947441 -96.4553180  -0.4224075 -20.1275446 -3000.0000000 -90.0000000 -3000.0000000 -90.0000000
  4.6687347 -17.9094148 -96.8129941  -0.4244290 -20.3870675 -3000.0000000 -90.0000000 -3000.0000000 -90.0000000
  4.7273083 -17.8238867 -97.2178473  -0.4267217 -20.6460394 -3000.0000000 -90.0000000 -3000.0000000 -90.0000000
  4.7858818 -17.7443216 -97.5593887  -0.4289368 -20.9077803 -3000.0000000 -90.0000000 -3000.0000000 -90.0000000
  4.8444553 -17.6608195 -97.9234688  -0.4307368 -21.1660127 -3000.0000000 -90.0000000 -3000.0000000 -90.0000000
  4.9030288 -17.5783238 -98.2959784  -0.4327264 -21.4295113 -3000.0000000 -90.0000000 -3000.0000000 -90.0000000
  4.9616023 -17.4961147 -98.6461780  -0.4345471 -21.6910767 -3000.0000000 -90.0000000 -3000.0000000 -90.0000000
  5.0201759 -17.4221483 -98.9954682  -0.4363775 -21.9488439 -3000.0000000 -90.0000000 -3000.0000000 -90.0000000
  5.0787494 -17.3403917 -99.3519022  -0.4386853 -22.2093440 -3000.0000000 -90.0000000 -3000.0000000 -90.0000000
  5.1373229 -17.2632996 -99.7288119  -0.4402385 -22.4691431 -3000.0000000 -90.0000000 -3000.0000000 -90.0000000
  5.1958964 -17.1837971 -100.0622317  -0.4423735 -22.7290638 -3000.0000000 -90.0000000 -3000.0000000 -90.0000000
  5.2544700 -17.1108417 -100.4151708  -0.4445886 -22.9869004 -3000.0000000 -90.0000000 -3000.0000000 -90.0000000
  5.3130435 -17.0356022 -100.7585014  -0.4460745 -23.2457768 -3000.0000000 -90.0000000 -3000.0000000 -90.0000000
  5.3716170 -16.9579415 -101.0992663  -0.4485448 -23.5034713 -3000.0000000 -90.0000000 -3000.0000000 -90.0000000
  5.4301905 -16.8849891 -101.4417523  -0.4505346 -23.7640780 -3000.0000000 -90.0000000 -3000.0000000 -90.0000000
  5.4887640 -16.8139287 -101.7678293  -0.4526326 -24.0213819 -3000.0000000 -90.0000000 -3000.0000000 -90.0000000
  5.5473376 -16.7384335 -102.0906765  -0.4546012 -24.2783128 -3000.0000000 -90.0000000 -3000.0000000 -90.0000000
  5.6059111 -16.6707945 -102.4401415  -0.4567969 -24.5363341 -3000.0000000 -90.0000000 -3000.0000000 -90.0000000
  5.6644846 -16.5993308 -102.7691626  -0.4590587 -24.7932390 -3000.0000000 -90.0000000 -3000.0000000 -90.0000000
  5.7230581 -16.5278087 -103.0799864  -0.4607886 -25.0521349 -3000.0000000 -90.0000000 -3000.0000000 -90.0000000
  5.7816317 -16.4598622 -103.4366720  -0.4631382 -25.3086748 -3000.0000000 -90.0000000 -3000.0000000 -90.0000000
  5.8402052 -16.3914006 -103.7475524  -0.4651468 -25.5656216 -3000.0000000 -90.0000000 -3000.0000000 -90.0000000
  5.8987787 -16.3218647 -104.0819542  -0.4672430 -25.8231121 -3000.0000000 -90.0000000 -3000.0000000 -90.0000000
  5.9573522 -16.2559490 -104.3989581  -0.4693985 -26.0803281 -3000.0000000 -90.0000000 -3000.0000000 -90.0000000
  6.0159257 -16.1886047 -104.7025001  -0.4717932 -26.3368387 -3000.0000000 -90.0000000 -3000.0000000 -90.0000000
  6.0744993 -16.1255028 -105.0233111  -0.4741690 -26.5928446 -3000.0000000 -90.0000000 -3000.0000000 -90.0000000
  6.1330728 -16.0612805 -105.3614408  -0.4761794 -26.8493280 -3000.0000000 -90.0000000 -3000.0000000 -90.0000000
  6.1916463 -15.9939723 -105.6660480  -0.4781253 -27.1052600 -3000.0000000 -90.0000000 -3000.0000000 -90.0000000
  6.2502198 -15.9333422 -105.9965476  -0.4804337 -27.3625000 -3000.0000000 -90.0000000 -3000.0000000 -90.0000000
  6.3087934 -15.8682339 -106.2926448  -0.4827605 -27.6167857 -3000.0000000 -90.0000000 -3000.0000000 -90.0000000
  6.3673669 -15.8054600 -106.6102448  -0.4849041 -27.8737352 -3000.0000000 -90.0000000 -3000.0000000 -90.0000000
  6.4259404 -15.7442227 -106.9146963  -0.4873100 -28.1304617 -3000.0000000 -90.0000000 -3000.0000000 -90.0000000
  6.4845139 -15.6833725 -107.2289696  -0.4892296 -28.3849578 -3000.0000000 -90.0000000 -3000.0000000 -90.0000000
  6.5430874 -15.6234397 -107.5265404  -0.4916277 -28.6386531 -3000.0000000 -90.0000000 -3000.0000000 -90.0000000
  6.6016610 -15.5632545 -107.8469945  -0.4939277 -28.8949810 -3000.0000000 -90.0000000 -3000.0000000 -90.0000000
  6.6602345 -15.5048409 -108.1349110  -0.4964962 -29.1503044 -3000.0000000 -90.0000000 -3000.0000000 -90.0000000
  6.7188080 -15.4430284 -108.4345123  -0.4986540 -29.4060885 -3000.0000000 -90.0000000 -3000.0000000 -90.0000000
  6.7773815 -15.3868986 -108.7519374  -0.5005900 -29.6601020 -3000.0000000 -90.0000000 -3000.0000000 -90.0000000
  6.8359551 -15.3318553 -109.0517209  -0.5030046 -29.9153872 -3000.0000000 -90.0000000 -3000.0000000 -90.0000000
  6.8945286 -15.2725640 -109.3495171  -0.5055889 -30.1695011 -3000.0000000 -90.0000000 -3000.0000000 -90.0000000
  6.9531021 -15.2181891 -109.6455694  -0.5077025 -30.4246560 -3000.0000000 -90.0000000 -3000.0000000 -90.0000000
  7.0116756 -15.1600332 -109.9411317  -0.5097935 -30.6784342 -3000.0000000 -90.0000000 -3000.0000000 -90.0000000
  7.0702491 -15.1047869 -110.2293430  -0.5123035 -30.9323764 -3000.0000000 -90.0000000 -3000.0000000 -90.0000000
  7.1288227 -15.0510346 -110.5317050  -0.5144038 -31.1871343 -3000.0000000 -90.0000000 -3000.0000000 -90.0000000
  7.1873962 -14.9970363 -110.8205369  -0.5166172 -31.4406673 -3000.0000000 -90.0000000 -3000.0000000 -90.0000000
  7.2459697 -14.9409983 -111.1251267  -0.5188198 -31.6937596 -3000.0000000 -90.0000000 -3000.0000000 -90.0000000
  7.3045432 -14.8897829 -111.4184131  -0.5214123 -31.9472087 -3000.0000000 -90.0000000 -3000.0000000 -90.0000000
  7.3631168 -14.8385189 -111.6950158  -0.5236505 -32.2010245 -3000.0000000 -90.0000000 -3000.0000000 -90.0000000
  7.4216903 -14.7856085 -111.9831240  -0.5260954 -32.4543930 -3000.0000000 -90.0000000 -3000.0000000 -90.0000000
  7.4802638 -14.7358651 -112.2927741  -0.5282336 -32.7081955 -3000.0000000 -90.0000000 -3000.0000000 -90.0000000
  7.5388373 -14.6857339 -112.5647168  -0.5304966 -32.9604605 -3000.0000000 -90.0000000 -3000.0000000 -90.0000000
  7.5974108 -14.6344434 -112.8444991  -0.5330850 -33.2141110 -3000.0000000 -90.0000000 -3000.0000000 -90.0000000
  7.6559844 -14.5852160 -113.1328682  -0.5352366 -33.4653037 -3000.0000000 -90.0000000 -3000.0000000 -90.0000000
  7.7145579 -14.5366529 -113.4125316  -0.5379750 -33.7197256 -3000.0000000 -90.0000000 -3000.0000000 -90.0000000
  7.7731314 -14.4887772 -113.7023605  -0.5403550 -33.9707400 -3000.0000000 -90.0000000 -3000.0000000 -90.0000000
  7.8317049 -14.4390323 -113.9841040  -0.5428315 -34.2241080 -3000.0000000 -90.0000000 -3000.0000000 -90.0000000
  7.8902785 -14.3905636 -114.2508047  -0.5451767 -34.4757964 -3000.0000000 -90.0000000 -3000.0000000 -90.0000000
  7.9488520 -14.3457808 -114.5501359  -0.5475347 -34.7287926 -3000.0000000 -90.0000000 -3000.0000000 -90.0000000
  8.0074255 -14.2998598 -114.8317411  -0.5503498 -34.9796766 -3000.0000000 -90.0000000 -3000.0000000 -90.0000000
  8.0659990 -14.2516603 -115.1162837  -0.5524977 -35.2311025 -3000.0000000 -90.0000000 -3000.0000000 -90.0000000
  8.1245725 -14.2047694 -115.3802397  -0.5549498 -35.4845666 -3000.0000000 -90.0000000 -3000.0000000 -90.0000000
  8.1831461 -14.1606907 -115.6579868  -0.5575061 -35.7357187 -3000.0000000 -90.0000000 -3000.0000000 -90.0000000
  8.2417196 -14.1160536 -115.9306190  -0.5601138 -35.9876254 -3000.0000000 -90.0000000 -3000.0000000 -90.0000000
  8.3002931 -14.0709610 -116.2261218  -0.5622580 -36.2380999 -3000.0000000 -90.0000000 -3000.0000000 -90.0000000
  8.3588666 -14.0292794 -116.4795624  -0.5647833 -36.4904177 -3000.0000000 -90.0000000 -3000.0000000 -90.0000000
  8.4174402 -13.9834297 -116.7682271  -0.5673296 -36.7405663 -3000.0000000 -90.0000000 -3000.0000000 -90.0000000
  8.4760137 -13.9414043 -117.0295806  -0.5697025 -36.9927321 -3000.0000000 -90.0000000 -3000.0000000 -90.0000000
  8.5345872 -13.9007610 -117.2939290  -0.5720704 -37.2423006 -3000.0000000 -90.0000000 -3000.0000000 -90.0000000
  8.5931607 -13.8575136 -117.5736863  -0.5743884 -37.4928790 -3000.0000000 -90.0000000 -3000.0000000 -90.0000000
  8.6517342 -13.8150926 -117.8389445  -0.5767590 -37.7447083 -3000.0000000 -90.0000000 -3000.0000000 -90.0000000
  8.7103078 -13.7755667 -118.1170056  -0.5791855 -37.9959283 -3000.0000000 -90.0000000 -3000.0000000 -90.0000000
  8.7688813 -13.7335469 -118.3895537  -0.5819405 -38.2469798 -3000.0000000 -90.0000000 -3000.0000000 -90.0000000
  8.8274548 -13.6938702 -118.6617985  -0.5842717 -38.4980834 -3000.0000000 -90.0000000 -3000.0000000 -90.0000000
  8.8860283 -13.6551641 -118.9434300  -0.5863493 -38.7480566 -3000.0000000 -90.0000000 -3000.0000000 -90.0000000
  8.9446019 -13.6160211 -119.2056509  -0.5888791 -38.9964463 -3000.0000000 -90.0000000 -3000.0000000 -90.0000000
  9.0031754 -13.5749040 -119.4679086  -0.5912173 -39.2480462 -3000.0000000 -90.0000000 -3000.0000000 -90.0000000
  9.0617489 -13.5365712 -119.7270233  -0.5936088 -39.4974232 -3000.0000000 -90.0000000 -3000.0000000 -90.0000000
  9.1203224 -13.4980953 -120.0113225  -0.5958496 -39.7481272 -3000.0000000 -90.0000000 -3000.0000000 -90.0000000
  9.1788959 -13.4602427 -120.2690393  -0.5987908 -39.9982125 -3000.0000000 -90.0000000 -3000.0000000 -90.0000000
  9.2374695 -13.4226714 -120.5322705  -0.6010088 -40.2470213 -3000.0000000 -90.0000000 -3000.0000000 -90.0000000
  9.2960430 -13.3863724 -120.7920411  -0.6037469 -40.4964151 -3000.0000000 -90.0000000 -3000.0000000 -90.0000000
  9.3546165 -13.3494873 -121.0561051  -0.6060504 -40.7459443 -3000.0000000 -90.0000000 -3000.0000000 -90.0000000
  9.4131900 -13.3130577 -121.3251065  -0.6082826 -40.9963228 -3000.0000000 -90.0000000 -3000.0000000 -90.0000000
  9.4717636 -13.2786178 -121.5973518  -0.6105966 -41.2440042 -3000.0000000 -90.0000000 -3000.0000000 -90.0000000
  9.5303371 -13.2423303 -121.8527295  -0.6132155 -41.4925147 -3000.0000000 -90.0000000 -3000.0000000 -90.0000000
  9.5889106 -13.2073026 -122.1036430  -0.6153105 -41.7416079 -3000.0000000 -90.0000000 -3000.0000000 -90.0000000
  9.6474841 -13.1741811 -122.3603123  -0.6175674 -41.9889264 -3000.0000000 -90.0000000 -3000.0000000 -90.0000000
  9.7060576 -13.1393403 -122.6314070  -0.6203851 -42.2395422 -3000.0000000 -90.0000000 -3000.0000000 -90.0000000
  9.7646312 -13.1044524 -122.8883226  -0.6224908 -42.4894370 -3000.0000000 -90.0000000 -3000.0000000 -90.0000000
  9.8232047 -13.0711095 -123.1444323  -0.6248333 -42.7380875 -3000.0000000 -90.0000000 -3000.0000000 -90.0000000
  9.8817782 -13.0375771 -123.4042388  -0.6275758 -42.9864682 -3000.0000000 -90.0000000 -3000.0000000 -90.0000000
  9.9403517 -13.0042618 -123.6583899  -0.6299228 -43.2334205 -3000.0000000 -90.0000000 -3000.0000000 -90.0000000
  9.9989253 -12.9730856 -123.9051079  -0.6322276 -43.4812713 -3000.0000000 -90.0000000 -3000.0000000 -90.0000000
 10.0574988 -12.9415603 -124.1930353  -0.6346250 -43.7292218 -3000.0000000 -90.0000000 -3000.0000000 -90.0000000
 10.1160723 -12.9087951 -124.4349438  -0.6374127 -43.9790883 -3000.0000000 -90.0000000 -3000.0000000 -90.0000000
 10.1746458 -12.8777189 -124.7073428  -0.6394404 -44.2265523 -3000.0000000 -90.0000000 -3000.0000000 -90.0000000
 10.2332193 -12.8473701 -124.9447856  -0.6421695 -44.4726809 -3000.0000000 -90.0000000 -3000.0000000 -90.0000000
 10.2917929 -12.8171866 -125.2084407  -0.6445612 -44.7220052 -3000.0000000 -90.0000000 -3000.0000000 -90.0000000
