! ListType=Lin
# MHZ S DB R 50
 70.0000000  -0.5890213  62.5338622 -50.8666322 130.4866529 -3000.0000000 -90.0000000 -3000.0000000 -90.0000000
 70.0635076  -0.5892842  62.3359487 -50.7644699 130.3071816 -3000.0000000 -90.0000000 -3000.0000000 -90.0000000
 70.1270151  -0.5906074  62.1262544 -50.6646711 130.0338571 -3000.0000000 -90.0000000 -3000.0000000 -90.0000000
 70.1905227  -0.5920595  61.9111479 -50.5479775 129.8035560 -3000.0000000 -90.0000000 -3000.0000000 -90.0000000
 70.2540303  -0.5939553  61.6989156 -50.4465227 129.5464580 -3000.0000000 -90.0000000 -3000.0000000 -90.0000000
 70.3175379  -0.5945375  61.4821414 -50.3334215 129.2852242 -3000.0000000 -90.0000000 -3000.0000000 -90.0000000
 70.3810454  -0.5959863  61.2685746 -50.2251982 129.0893687 -3000.0000000 -90.0000000 -3000.0000000 -90.0000000
 70.4445530  -0.5975941  61.0578528 -50.1214065 128.8799488 -3000.0000000 -90.0000000 -3000.0000000 -90.0000000
 70.5080606  -0.5994147  60.8386809 -50.0094189 128.6461460 -3000.0000000 -90.0000000 -3000.0000000 -90.0000000
 70.5715681  -0.6001419  60.6254311 -49.9087435 128.5370035 -3000.0000000 -90.0000000 -3000.0000000 -90.0000000
 70.6350757  -0.6017137  60.4069173 -49.7999510 128.1470292 -3000.0000000 -90.0000000 -3000.0000000 -90.0000000
 70.6985833  -0.6029237  60.1898432 -49.6968142 127.9229785 -3000.0000000 -90.0000000 -3000.0000000 -90.0000000
 70.7620909  -0.6060095  59.9716889 -49.5827928 127.7360800 -3000.0000000 -90.0000000 -3000.0000000 -90.0000000
 70.8255984  -0.6060961  59.7594567 -49.4790998 127.4672076 -3000.0000000 -90.0000000 -3000.0000000 -90.0000000
 70.8891060  -0.6078781  59.5375658 -49.3646320 127.2815845 -3000.0000000 -90.0000000 -3000.0000000 -90.0000000
 70.9526136  -0.6088802  59.3150174 -49.2541774 127.0005475 -3000.0000000 -90.0000000 -3000.0000000 -90.0000000
 71.0161212  -0.6107339  59.0941702 -49.1490566 126.7652868 -3000.0000000 -90.0000000 -3000.0000000 -90.0000000
 71.0796287  -0.6122263  58.8799620 -49.0448700 126.5020684 -3000.0000000 -90.0000000 -3000.0000000 -90.0000000
 71.1431363  -0.6128032  58.6542671 -48.9433467 126.2507080 -3000.0000000 -90.0000000 -3000.0000000 -90.0000000
 71.2066439  -0.6144490  58.4353692 -48.8225707 126.0547465 -3000.0000000 -90.0000000 -3000.0000000 -90.0000000
 71.2701514  -0.6166894  58.2087877 -48.7251386 125.8310770 -3000.0000000 -90.0000000 -3000.0000000 -90.0000000
 71.3336590  -0.6174453  57.9873851 -48.6213131 125.5401833 -3000.0000000 -90.0000000 -3000.0000000 -90.0000000
 71.3971666  -0.6200492  57.7680333 -48.5035333 125.3126041 -3000.0000000 -90.0000000 -3000.0000000 -90.0000000
 71.4606742  -0.6204431  57.5434308 -48.3986707 125.0907337 -3000.0000000 -90.0000000 -3000.0000000 -90.0000000
 71.5241817  -0.6224475  57.3228423 -48.2817688 124.8388601 -3000.0000000 -90.0000000 -3000.0000000 -90.0000000
 71.5876893  -0.6234520  57.0990382 -48.1761239 124.6029948 -3000.0000000 -90.0000000 -3000.0000000 -90.0000000
 71.6511969  -0.6257835  56.8696203 -48.0618699 124.3574011 -3000.0000000 -90.0000000 -3000.0000000 -90.0000000
 71.7147044  -0.6269561  56.6471067 -47.9609879 124.1583181 -3000.0000000 -90.0000000 -3000.0000000 -90.0000000
 71.7782120  -0.6281100  56.4175406 -47.8526791 123.8262716 -3000.0000000 -90.0000000 -3000.0000000 -90.0000000
 71.8417196  -0.6296859  56.1918883 -47.7525242 123.6006207 -3000.0000000 -90.0000000 -3000.0000000 -90.0000000
 71.9052272  -0.6320059  55.9624076 -47.6288620 123.3462958 -3000.0000000 -90.0000000 -3000.0000000 -90.0000000
 71.9687347  -0.6333107  55.7376200 -47.5253793 123.1166991 -3000.0000000 -90.0000000 -3000.0000000 -90.0000000
 72.0322423  -0.6349051  55.5097643 -47.4179330 122.9181100 -3000.0000000 -90.0000000 -3000.0000000 -90.0000000
 72.0957499  -0.6363246  55.2767802 -47.3131653 122.6843777 -3000.0000000 -90.0000000 -3000.0000000 -90.0000000
 72.1592574  -0.6376318  55.0516043 -47.1999877 122.3860787 -3000.0000000 -90.0000000 -3000.0000000 -90.0000000
 72.2227650  -0.6381429  54.8085336 -47.0906761 122.1972458 -3000.0000000 -90.0000000 -3000.0000000 -90.0000000
 72.2862726  -0.6396046  54.5713535 -46.9894190 121.8912784 -3000.0000000 -90.0000000 -3000.0000000 -90.0000000
 72.3497802  -0.6417071  54.3458285 -46.8809868 121.6434293 -3000.0000000 -90.0000000 -3000.0000000 -90.0000000
 72.4132877  -0.6440874  54.1118529 -46.7737972 121.4068731 -3000.0000000 -90.0000000 -3000.0000000 -90.0000000
 72.4767953  -0.6450507  53.8844865 -46.6598582 121.0994539 -3000.0000000 -90.0000000 -3000.0000000 -90.0000000
 72.5403029  -0.6465297  53.6477689 -46.5543131 120.8757154 -3000.0000000 -90.0000000 -3000.0000000 -90.0000000
 72.6038105  -0.6480574  53.4148922 -46.4474758 120.6401449 -3000.0000000 -90.0000000 -3000.0000000 -90.0000000
 72.6673180  -0.6498123  53.1794475 -46.3388891 120.3580417 -3000.0000000 -90.0000000 -3000.0000000 -90.0000000
 72.7308256  -0.6513550  52.9472574 -46.2292383 120.1032017 -3000.0000000 -90.0000000 -3000.0000000 -90.0000000
 72.7943332  -0.6531380  52.7118602 -46.1162398 119.9030061 -3000.0000000 -90.0000000 -3000.0000000 -90.0000000
 72.8578407  -0.6545583  52.4824794 -46.0046118 119.6123535 -3000.0000000 -90.0000000 -3000.0000000 -90.0000000
 72.9213483  -0.6562406  52.2382454 -45.8992543 119.3574282 -3000.0000000 -90.0000000 -3000.0000000 -90.0000000
 72.9848559  -0.6582151  51.9999817 -45.7955679 119.0909016 -3000.0000000 -90.0000000 -3000.0000000 -90.0000000
 73.0483635  -0.6589796  51.7634238 -45.6791945 118.8213275 -3000.0000000 -90.0000000 -3000.0000000 -90.0000000
 73.1118710  -0.6611363  51.5248833 -45.5709059 118.5725580 -3000.0000000 -90.0000000 -3000.0000000 -90.0000000
 73.1753786  -0.6632023  51.2850341 -45.4665959 118.2948174 -3000.0000000 -90.0000000 -3000.0000000 -90.0000000
 73.2388862  -0.6642353  51.0431098 -45.3517586 118.0444494 -3000.0000000 -90.0000000 -3000.0000000 -90.0000000
 73.3023937  -0.6661988  50.8048979 -45.2470754 117.7981656 -3000.0000000 -90.0000000 -3000.0000000 -90.0000000
 73.3659013  -0.6683562  50.5632601 -45.1305929 117.5751821 -3000.0000000 -90.0000000 -3000.0000000 -90.0000000
 73.4294089  -0.6692404  50.3285412 -45.0323735 117.2249930 -3000.0000000 -90.0000000 -3000.0000000 -90.0000000
 73.4929165  -0.6715434  50.0809209 -44.9208288 116.9985181 -3000.0000000 -90.0000000 -3000.0000000 -90.0000000
 73.5564240  -0.6732081  49.8305707 -44.8015604 116.7540194 -3000.0000000 -90.0000000 -3000.0000000 -90.0000000
 73.6199316  -0.6753121  49.5910624 -44.6967199 116.4920267 -3000.0000000 -90.0000000 -3000.0000000 -90.0000000
 73.6834392  -0.6767448  49.3492451 -44.5859971 116.2260806 -3000.0000000 -90.0000000 -3000.0000000 -90.0000000
 73.7469468  -0.6786246  49.1052891 -44.4741608 115.9511155 -3000.0000000 -90.0000000 -3000.0000000 -90.0000000
 73.8104543  -0.6804049  48.8565564 -44.3633528 115.6569846 -3000.0000000 -90.0000000 -3000.0000000 -90.0000000
 73.8739619  -0.6823181  48.6142213 -44.2588101 115.4079187 -3000.0000000 -90.0000000 -3000.0000000 -90.0000000
 73.9374695  -0.6836823  48.3660019 -44.1448000 115.1782863 -3000.0000000 -90.0000000 -3000.0000000 -90.0000000
 74.0009770  -0.6857283  48.1165386 -44.0368392 114.9175469 -3000.0000000 -90.0000000 -3000.0000000 -90.0000000
 74.0644846  -0.6867333  47.8667782 -43.9264434 114.6023740 -3000.0000000 -90.0000000 -3000.0000000 -90.0000000
 74.1279922  -0.6893030  47.6174610 -43.8160093 114.3170233 -3000.0000000 -90.0000000 -3000.0000000 -90.0000000
 74.1914998  -0.6916256  47.3725262 -43.7077516 114.0632032 -3000.0000000 -90.0000000 -3000.0000000 -90.0000000
 74.2550073  -0.6927442  47.1237690 -43.5952485 113.8361739 -3000.0000000 -90.0000000 -3000.0000000 -90.0000000
 74.3185149  -0.6940462  46.8668868 -43.4851316 113.5483415 -3000.0000000 -90.0000000 -3000.0000000 -90.0000000
 74.3820225  -0.6958672  46.6184903 -43.3722280 113.2657722 -3000.0000000 -90.0000000 -3000.0000000 -90.0000000
 74.4455300  -0.6981900  46.3652602 -43.2672757 112.9553259 -3000.0000000 -90.0000000 -3000.0000000 -90.0000000
 74.5090376  -0.6995795  46.1151542 -43.1538003 112.7305214 -3000.0000000 -90.0000000 -3000.0000000 -90.0000000
 74.5725452  -0.7022056  45.8586320 -43.0442155 112.4315844 -3000.0000000 -90.0000000 -3000.0000000 -90.0000000
 74.6360528  -0.7039704  45.6053840 -42.9350855 112.1404210 -3000.0000000 -90.0000000 -3000.0000000 -90.0000000
 74.6995603  -0.7055280  45.3425784 -42.8258695 111.8716547 -3000.0000000 -90.0000000 -3000.0000000 -90.0000000
 74.7630679  -0.7074707  45.0953248 -42.7170217 111.5617788 -3000.0000000 -90.0000000 -3000.0000000 -90.0000000
 74.8265755  -0.7095432  44.8376055 -42.6057149 111.3002581 -3000.0000000 -90.0000000 -3000.0000000 -90.0000000
 74.8900830  -0.7118239  44.5813369 -42.4907383 111.0492597 -3000.0000000 -90.0000000 -3000.0000000 -90.0000000
 74.9535906  -0.7129890  44.3178982 -42.3822345 110.7281541 -3000.0000000 -90.0000000 -3000.0000000 -90.0000000
 75.0170982  -0.7157900  44.0609933 -42.2679877 110.4343425 -3000.0000000 -90.0000000 -3000.0000000 -90.0000000
 75.0806058  -0.7169579  43.8038674 -42.1598583 110.1931732 -3000.0000000 -90.0000000 -3000.0000000 -90.0000000
 75.1441133  -0.7194473  43.5454990 -42.0498804 109.8859229 -3000.0000000 -90.0000000 -3000.0000000 -90.0000000
 75.2076209  -0.7212958  43.2836596 -41.9389205 109.6359882 -3000.0000000 -90.0000000 -3000.0000000 -90.0000000
 75.2711285  -0.7235354  43.0231364 -41.8282695 109.3497183 -3000.0000000 -90.0000000 -3000.0000000 -90.0000000
 75.3346361  -0.7254615  42.7609314 -41.7148863 109.0606907 -3000.0000000 -90.0000000 -3000.0000000 -90.0000000
 75.3981436  -0.7275312  42.4945634 -41.6040094 108.7721662 -3000.0000000 -90.0000000 -3000.0000000 -90.0000000
 75.4616512  -0.7296785  42.2355764 -41.4914031 108.4992711 -3000.0000000 -90.0000000 -3000.0000000 -90.0000000
 75.5251588  -0.7318089  41.9660030 -41.3811246 108.1855186 -3000.0000000 -90.0000000 -3000.0000000 -90.0000000
 75.5886663  -0.7330190  41.7016802 -41.2685061 107.9226050 -3000.0000000 -90.0000000 -3000.0000000 -90.0000000
 75.6521739  -0.7356942  41.4367995 -41.1573772 107.6270495 -3000.0000000 -90.0000000 -3000.0000000 -90.0000000
 75.7156815  -0.7384595  41.1695421 -41.0465713 107.3297437 -3000.0000000 -90.0000000 -3000.0000000 -90.0000000
 75.7791891  -0.7398906  40.9005050 -40.9335084 107.0266268 -3000.0000000 -90.0000000 -3000.0000000 -90.0000000
 75.8426966  -0.7422782  40.6364233 -40.8206434 106.7477438 -3000.0000000 -90.0000000 -3000.0000000 -90.0000000
 75.9062042  -0.7441819  40.3684715 -40.7100589 106.4514897 -3000.0000000 -90.0000000 -3000.0000000 -90.0000000
 75.9697118  -0.7467090  40.0932810 -40.5951271 106.1386636 -3000.0000000 -90.0000000 -3000.0000000 -90.0000000
 76.0332193  -0.7484500  39.8241166 -40.4822248 105.8689146 -3000.0000000 -90.0000000 -3000.0000000 -90.0000000
 76.0967269  -0.7507535  39.5504930 -40.3707494 105.5761422 -3000.0000000 -90.0000000 -3000.0000000 -90.0000000
 76.1602345  -0.7525336  39.2784861 -40.2599013 105.2899762 -3000.0000000 -90.0000000 -3000.0000000 -90.0000000
 76.2237421  -0.7555026  39.0079877 -40.1481330 104.9548458 -3000.0000000 -90.0000000 -3000.0000000 -90.0000000
 76.2872496  -0.7582404  38.7339930 -40.0368928 104.6649689 -3000.0000000 -90.0000000 -3000.0000000 -90.0000000
 76.3507572  -0.7590734  38.4599149 -39.9238409 104.3784671 -3000.0000000 -90.0000000 -3000.0000000 -90.0000000
 76.4142648  -0.7614531  38.1861291 -39.8114223 104.0630386 -3000.0000000 -90.0000000 -3000.0000000 -90.0000000
 76.4777723  -0.7633196  37.9073312 -39.6937553 103.8008336 -3000.0000000 -90.0000000 -3000.0000000 -90.0000000
 76.5412799  -0.7657725  37.6293142 -39.5854668 103.4785684 -3000.0000000 -90.0000000 -3000.0000000 -90.0000000
 76.6047875  -0.7681003  37.3495784 -39.4733163 103.1725773 -3000.0000000 -90.0000000 -3000.0000000 -90.0000000
 76.6682951  -0.7703003  37.0761492 -39.3600440 102.8944236 -3000.0000000 -90.0000000 -3000.0000000 -90.0000000
 76.7318026  -0.7727089  36.7934409 -39.2486580 102.5790097 -3000.0000000 -90.0000000 -3000.0000000 -90.0000000
 76.7953102  -0.7752702  36.5135875 -39.1357342 102.2711294 -3000.0000000 -90.0000000 -3000.0000000 -90.0000000
 76.8588178  -0.7779252  36.2286022 -39.0195882 101.9673344 -3000.0000000 -90.0000000 -3000.0000000 -90.0000000
 76.9223254  -0.7795589  35.9502091 -38.9051981 101.6417960 -3000.0000000 -90.0000000 -3000.0000000 -90.0000000
 76.9858329  -0.7822379  35.6644659 -38.7961250 101.3287565 -3000.0000000 -90.0000000 -3000.0000000 -90.0000000
 77.0493405  -0.7841562  35.3840662 -38.6808252 101.0319065 -3000.0000000 -90.0000000 -3000.0000000 -90.0000000
 77.1128481  -0.7869361  35.0976613 -38.5699193 100.7238539 -3000.0000000 -90.0000000 -3000.0000000 -90.0000000
 77.1763556  -0.7894018  34.8118341 -38.4566977 100.4139887 -3000.0000000 -90.0000000 -3000.0000000 -90.0000000
 77.2398632  -0.7917645  34.5251468 -38.3426184 100.1183747 -3000.0000000 -90.0000000 -3000.0000000 -90.0000000
 77.3033708  -0.7945914  34.2376180 -38.2260883  99.8002547 -3000.0000000 -90.0000000 -3000.0000000 -90.0000000
 77.3668784  -0.7964407  33.9468041 -38.1127096  99.4795915 -3000.0000000 -90.0000000 -3000.0000000 -90.0000000
 77.4303859  -0.7989208  33.6614248 -38.0007284  99.1731630 -3000.0000000 -90.0000000 -3000.0000000 -90.0000000
 77.4938935  -0.8017530  33.3732215 -37.8851725  98.8351133 -3000.0000000 -90.0000000 -3000.0000000 -90.0000000
 77.5574011  -0.8039751  33.0810296 -37.7706231  98.5230657 -3000.0000000 -90.0000000 -3000.0000000 -90.0000000
 77.6209086  -0.8062393  32.7898721 -37.6552937  98.2152393 -3000.0000000 -90.0000000 -3000.0000000 -90.0000000
 77.6844162  -0.8092566  32.4986606 -37.5434363  97.9076009 -3000.0000000 -90.0000000 -3000.0000000 -90.0000000
 77.7479238  -0.8117049  32.2050453 -37.4275516  97.5794132 -3000.0000000 -90.0000000 -3000.0000000 -90.0000000
 77.8114314  -0.8138390  31.9069162 -37.3123747  97.2529492 -3000.0000000 -90.0000000 -3000.0000000 -90.0000000
 77.8749389  -0.8170936  31.6086715 -37.1986307  96.9366635 -3000.0000000 -90.0000000 -3000.0000000 -90.0000000
 77.9384465  -0.8196255  31.3178514 -37.0865615  96.6140673 -3000.0000000 -90.0000000 -3000.0000000 -90.0000000
 78.0019541  -0.8217394  31.0173090 -36.9710658  96.2954915 -3000.0000000 -90.0000000 -3000.0000000 -90.0000000
 78.0654617  -0.8245710  30.7203824 -36.8563185  95.9665331 -3000.0000000 -90.0000000 -3000.0000000 -90.0000000
 78.1289692  -0.8274290  30.4199281 -36.7414267  95.6330824 -3000.0000000 -90.0000000 -3000.0000000 -90.0000000
 78.1924768  -0.8292378  30.1222866 -36.6261550  95.3169370 -3000.0000000 -90.0000000 -3000.0000000 -90.0000000
 78.2559844  -0.8324745  29.8160090 -36.5101849  94.9810935 -3000.0000000 -90.0000000 -3000.0000000 -90.0000000
 78.3194919  -0.8348686  29.5143002 -36.3946353  94.6656591 -3000.0000000 -90.0000000 -3000.0000000 -90.0000000
 78.3829995  -0.8382992  29.2159062 -36.2804045  94.3293875 -3000.0000000 -90.0000000 -3000.0000000 -90.0000000
 78.4465071  -0.8406402  28.9116408 -36.1656211  93.9916188 -3000.0000000 -90.0000000 -3000.0000000 -90.0000000
 78.5100147  -0.8431707  28.6027808 -36.0512214  93.6689414 -3000.0000000 -90.0000000 -3000.0000000 -90.0000000
 78.5735222  -0.8460909  28.2982725 -35.9319195  93.3316668 -3000.0000000 -90.0000000 -3000.0000000 -90.0000000
 78.6370298  -0.8493251  27.9857709 -35.8180269  93.0107889 -3000.0000000 -90.0000000 -3000.0000000 -90.0000000
 78.7005374  -0.8512792  27.6835949 -35.7028513  92.6722495 -3000.0000000 -90.0000000 -3000.0000000 -90.0000000
 78.7640449  -0.8551714  27.3712321 -35.5867611  92.3218558 -3000.0000000 -90.0000000 -3000.0000000 -90.0000000
 78.8275525  -0.8571399  27.0608923 -35.4737052  91.9912692 -3000.0000000 -90.0000000 -3000.0000000 -90.0000000
 78.8910601  -0.8603966  26.7498709 -35.3544322  91.6592788 -3000.0000000 -90.0000000 -3000.0000000 -90.0000000
 78.9545677  -0.8633567  26.4369915 -35.2384695  91.3033133 -3000.0000000 -90.0000000 -3000.0000000 -90.0000000
 79.0180752  -0.8660663  26.1228866 -35.1234784  90.9744704 -3000.0000000 -90.0000000 -3000.0000000 -90.0000000
 79.0815828  -0.8690028  25.8058925 -35.0071266  90.6213556 -3000.0000000 -90.0000000 -3000.0000000 -90.0000000
 79.1450904  -0.8722743  25.4940255 -34.8895603  90.2903825 -3000.0000000 -90.0000000 -3000.0000000 -90.0000000
 79.2085979  -0.8745469  25.1804801 -34.7718351  89.9243923 -3000.0000000 -90.0000000 -3000.0000000 -90.0000000
 79.2721055  -0.8784265  24.8645928 -34.6582047  89.5906320 -3000.0000000 -90.0000000 -3000.0000000 -90.0000000
 79.3356131  -0.8807402  24.5425679 -34.5401843  89.2504067 -3000.0000000 -90.0000000 -3000.0000000 -90.0000000
 79.3991207  -0.8838974  24.2235061 -34.4232120  88.8979489 -3000.0000000 -90.0000000 -3000.0000000 -90.0000000
 79.4626282  -0.8869014  23.9000134 -34.3072658  88.5452131 -3000.0000000 -90.0000000 -3000.0000000 -90.0000000
 79.5261358  -0.8904635  23.5793969 -34.1887974  88.2069672 -3000.0000000 -90.0000000 -3000.0000000 -90.0000000
 79.5896434  -0.8930018  23.2546667 -34.0734596  87.8431509 -3000.0000000 -90.0000000 -3000.0000000 -90.0000000
 79.6531510  -0.8959939  22.9352393 -33.9552297  87.4911621 -3000.0000000 -90.0000000 -3000.0000000 -90.0000000
 79.7166585  -0.8991924  22.6096258 -33.8371968  87.1291866 -3000.0000000 -90.0000000 -3000.0000000 -90.0000000
 79.7801661  -0.9031113  22.2805225 -33.7192296  86.7790902 -3000.0000000 -90.0000000 -3000.0000000 -90.0000000
 79.8436737  -0.9058534  21.9551495 -33.6008652  86.4234637 -3000.0000000 -90.0000000 -3000.0000000 -90.0000000
 79.9071812  -0.9094261  21.6276532 -33.4842041  86.0757647 -3000.0000000 -90.0000000 -3000.0000000 -90.0000000
 79.9706888  -0.9128823  21.2979244 -33.3678586  85.7184560 -3000.0000000 -90.0000000 -3000.0000000 -90.0000000
 80.0341964  -0.9154225  20.9651927 -33.2474185  85.3470727 -3000.0000000 -90.0000000 -3000.0000000 -90.0000000
 80.0977040  -0.9192463  20.6363794 -33.1299726  84.9873494 -3000.0000000 -90.0000000 -3000.0000000 -90.0000000
 80.1612115  -0.9223969  20.3046108 -33.0123994  84.6252899 -3000.0000000 -90.0000000 -3000.0000000 -90.0000000
 80.2247191  -0.9262674  19.9653834 -32.8940551  84.2665254 -3000.0000000 -90.0000000 -3000.0000000 -90.0000000
 80.2882267  -0.9297665  19.6284653 -32.7761622  83.8918869 -3000.0000000 -90.0000000 -3000.0000000 -90.0000000
 80.3517342  -0.9327933  19.2943693 -32.6576047  83.5349978 -3000.0000000 -90.0000000 -3000.0000000 -90.0000000
 80.4152418  -0.9358283  18.9520524 -32.5379861  83.1558594 -3000.0000000 -90.0000000 -3000.0000000 -90.0000000
 80.4787494  -0.9392775  18.6179142 -32.4208089  82.7918182 -3000.0000000 -90.0000000 -3000.0000000 -90.0000000
 80.5422570  -0.9433156  18.2759671 -32.3020866  82.4278158 -3000.0000000 -90.0000000 -3000.0000000 -90.0000000
 80.6057645  -0.9471800  17.9331142 -32.1825633  82.0457439 -3000.0000000 -90.0000000 -3000.0000000 -90.0000000
 80.6692721  -0.9506476  17.5872213 -32.0636250  81.6748764 -3000.0000000 -90.0000000 -3000.0000000 -90.0000000
 80.7327797  -0.9544759  17.2449877 -31.9428655  81.3018313 -3000.0000000 -90.0000000 -3000.0000000 -90.0000000
 80.7962872  -0.9576717  16.8997672 -31.8254087  80.9146513 -3000.0000000 -90.0000000 -3000.0000000 -90.0000000
 80.8597948  -0.9614599  16.5545322 -31.7054954  80.5429760 -3000.0000000 -90.0000000 -3000.0000000 -90.0000000
 80.9233024  -0.9652147  16.2082459 -31.5865801  80.1745102 -3000.0000000 -90.0000000 -3000.0000000 -90.0000000
 80.9868100  -0.9689264  15.8599522 -31.4674982  79.7901877 -3000.0000000 -90.0000000 -3000.0000000 -90.0000000
 81.0503175  -0.9729240  15.5059516 -31.3455593  79.4084592 -3000.0000000 -90.0000000 -3000.0000000 -90.0000000
 81.1138251  -0.9769704  15.1526332 -31.2257673  79.0220143 -3000.0000000 -90.0000000 -3000.0000000 -90.0000000
