! ListType=Lin
# MHZ S DB R 50
  0.0100000 -47.6195503 -179.9279328   0.0061078  -0.0542928 -3000.0000000 -90.0000000 -3000.0000000 -90.0000000
  0.6450708 -47.9315391 170.2068995   0.0052992  -0.1367914 -3000.0000000 -90.0000000 -3000.0000000 -90.0000000
  1.2801417 -48.1283206 162.0144641   0.0044499  -0.2724082 -3000.0000000 -90.0000000 -3000.0000000 -90.0000000
  1.9152125 -48.2038557 155.6031180   0.0035166  -0.4009474 -3000.0000000 -90.0000000 -3000.0000000 -90.0000000
  2.5502833 -48.1258207 149.2077555   0.0024737  -0.5286314 -3000.0000000 -90.0000000 -3000.0000000 -90.0000000
  3.1853542 -48.1397433 144.9108725   0.0021662  -0.6557728 -3000.0000000 -90.0000000 -3000.0000000 -90.0000000
  3.8204250 -47.7360011 139.4591212   0.0016722  -0.7811823 -3000.0000000 -90.0000000 -3000.0000000 -90.0000000
  4.4554958 -47.4235181 135.2323336   0.0010615  -0.9080350 -3000.0000000 -90.0000000 -3000.0000000 -90.0000000
  5.0905667 -47.2359682 131.1998971   0.0004206  -1.0369763 -3000.0000000 -90.0000000 -3000.0000000 -90.0000000
  5.7256375 -46.9242315 127.3497287   0.0002798  -1.1623929 -3000.0000000 -90.0000000 -3000.0000000 -90.0000000
  6.3607084 -46.5540259 124.3573029  -0.0001644  -1.2874733 -3000.0000000 -90.0000000 -3000.0000000 -90.0000000
  6.9957792 -46.2662506 121.4359181  -0.0005593  -1.4129026 -3000.0000000 -90.0000000 -3000.0000000 -90.0000000
  7.6308500 -45.9769103 118.5610229  -0.0011206  -1.5377032 -3000.0000000 -90.0000000 -3000.0000000 -90.0000000
  8.2659209 -45.5228354 115.9083712  -0.0015459  -1.6644030 -3000.0000000 -90.0000000 -3000.0000000 -90.0000000
  8.9009917 -45.2298470 114.0133805  -0.0019922  -1.7885272 -3000.0000000 -90.0000000 -3000.0000000 -90.0000000
  9.5360625 -44.8717617 111.4746874  -0.0021858  -1.9143735 -3000.0000000 -90.0000000 -3000.0000000 -90.0000000
 10.1711334 -44.6297660 109.7708165  -0.0028567  -2.0391922 -3000.0000000 -90.0000000 -3000.0000000 -90.0000000
 10.8062042 -44.2347560 107.7390658  -0.0028062  -2.1639782 -3000.0000000 -90.0000000 -3000.0000000 -90.0000000
 11.4412750 -43.8961148 106.4532740  -0.0033595  -2.2875530 -3000.0000000 -90.0000000 -3000.0000000 -90.0000000
 12.0763459 -43.6394833 104.2255892  -0.0038033  -2.4138789 -3000.0000000 -90.0000000 -3000.0000000 -90.0000000
 12.7114167 -43.3367670 103.4004434  -0.0038935  -2.5389130 -3000.0000000 -90.0000000 -3000.0000000 -90.0000000
 13.3464875 -43.0157552 101.9074754  -0.0043567  -2.6635483 -3000.0000000 -90.0000000 -3000.0000000 -90.0000000
 13.9815584 -42.7594009 100.3471169  -0.0046423  -2.7875917 -3000.0000000 -90.0000000 -3000.0000000 -90.0000000
 14.6166292 -42.4429415  99.4707846  -0.0048193  -2.9130936 -3000.0000000 -90.0000000 -3000.0000000 -90.0000000
 15.2517000 -42.1455155  98.0762181  -0.0049635  -3.0374988 -3000.0000000 -90.0000000 -3000.0000000 -90.0000000
 15.8867709 -41.9382985  97.1039384  -0.0052848  -3.1606098 -3000.0000000 -90.0000000 -3000.0000000 -90.0000000
 16.5218417 -41.6367647  96.0118105  -0.0057732  -3.2858064 -3000.0000000 -90.0000000 -3000.0000000 -90.0000000
 17.1569126 -41.4591992  95.5262446  -0.0059424  -3.4117368 -3000.0000000 -90.0000000 -3000.0000000 -90.0000000
 17.7919834 -41.1238244  94.6059489  -0.0060939  -3.5338740 -3000.0000000 -90.0000000 -3000.0000000 -90.0000000
 18.4270542 -40.9236401  93.7670187  -0.0064926  -3.6584926 -3000.0000000 -90.0000000 -3000.0000000 -90.0000000
 19.0621251 -40.6863556  93.0821188  -0.0067609  -3.7826656 -3000.0000000 -90.0000000 -3000.0000000 -90.0000000
 19.6971959 -40.4697749  92.1670584  -0.0068851  -3.9075628 -3000.0000000 -90.0000000 -3000.0000000 -90.0000000
 20.3322667 -40.2621838  91.4871921  -0.0074872  -4.0312425 -3000.0000000 -90.0000000 -3000.0000000 -90.0000000
 20.9673376 -40.0207788  90.9350569  -0.0072179  -4.1555039 -3000.0000000 -90.0000000 -3000.0000000 -90.0000000
 21.6024084 -39.8557930  90.1106313  -0.0071376  -4.2832058 -3000.0000000 -90.0000000 -3000.0000000 -90.0000000
 22.2374792 -39.6373372  89.6813064  -0.0078539  -4.4025448 -3000.0000000 -90.0000000 -3000.0000000 -90.0000000
 22.8725501 -39.4373128  88.8851383  -0.0077641  -4.5266691 -3000.0000000 -90.0000000 -3000.0000000 -90.0000000
 23.5076209 -39.2669773  88.3059268  -0.0081413  -4.6507884 -3000.0000000 -90.0000000 -3000.0000000 -90.0000000
 24.1426917 -39.0710194  87.5903339  -0.0084320  -4.7762406 -3000.0000000 -90.0000000 -3000.0000000 -90.0000000
 24.7777626 -38.8802734  86.9660269  -0.0083599  -4.8971673 -3000.0000000 -90.0000000 -3000.0000000 -90.0000000
 25.4128334 -38.6986996  86.5493675  -0.0088524  -5.0239567 -3000.0000000 -90.0000000 -3000.0000000 -90.0000000
 26.0479043 -38.5082381  85.9140217  -0.0087711  -5.1478561 -3000.0000000 -90.0000000 -3000.0000000 -90.0000000
 26.6829751 -38.3664510  85.4535438  -0.0097045  -5.2690311 -3000.0000000 -90.0000000 -3000.0000000 -90.0000000
 27.3180459 -38.1944930  85.2877848  -0.0096743  -5.3949009 -3000.0000000 -90.0000000 -3000.0000000 -90.0000000
 27.9531168 -37.9992180  84.4750706  -0.0095967  -5.5167386 -3000.0000000 -90.0000000 -3000.0000000 -90.0000000
 28.5881876 -37.8785268  84.1764192  -0.0100257  -5.6413057 -3000.0000000 -90.0000000 -3000.0000000 -90.0000000
 29.2232584 -37.7001952  83.8256314  -0.0101027  -5.7652078 -3000.0000000 -90.0000000 -3000.0000000 -90.0000000
 29.8583293 -37.5359668  83.0898140  -0.0103255  -5.8895701 -3000.0000000 -90.0000000 -3000.0000000 -90.0000000
 30.4934001 -37.4022304  82.7202628  -0.0105116  -6.0134706 -3000.0000000 -90.0000000 -3000.0000000 -90.0000000
 31.1284709 -37.2378388  82.2001437  -0.0104348  -6.1372062 -3000.0000000 -90.0000000 -3000.0000000 -90.0000000
 31.7635418 -37.0920215  81.9511215  -0.0105115  -6.2604125 -3000.0000000 -90.0000000 -3000.0000000 -90.0000000
 32.3986126 -36.9298861  81.5837099  -0.0110562  -6.3845329 -3000.0000000 -90.0000000 -3000.0000000 -90.0000000
 33.0336834 -36.7995429  81.1670411  -0.0111388  -6.5087791 -3000.0000000 -90.0000000 -3000.0000000 -90.0000000
 33.6687543 -36.6744314  80.6307786  -0.0109237  -6.6310525 -3000.0000000 -90.0000000 -3000.0000000 -90.0000000
 34.3038251 -36.5133832  80.2565283  -0.0113249  -6.7569768 -3000.0000000 -90.0000000 -3000.0000000 -90.0000000
 34.9388959 -36.3630797  79.7873260  -0.0113601  -6.8770377 -3000.0000000 -90.0000000 -3000.0000000 -90.0000000
 35.5739668 -36.2820332  79.5840859  -0.0113932  -7.0023789 -3000.0000000 -90.0000000 -3000.0000000 -90.0000000
 36.2090376 -36.1472568  79.3382316  -0.0114984  -7.1261953 -3000.0000000 -90.0000000 -3000.0000000 -90.0000000
 36.8441085 -36.0163236  79.0001631  -0.0117340  -7.2484293 -3000.0000000 -90.0000000 -3000.0000000 -90.0000000
 37.4791793 -35.8939255  78.5233212  -0.0117552  -7.3726163 -3000.0000000 -90.0000000 -3000.0000000 -90.0000000
 38.1142501 -35.7658505  78.0533077  -0.0116535  -7.4968324 -3000.0000000 -90.0000000 -3000.0000000 -90.0000000
 38.7493210 -35.6337426  77.8691328  -0.0118258  -7.6193910 -3000.0000000 -90.0000000 -3000.0000000 -90.0000000
 39.3843918 -35.5192704  77.3755062  -0.0121802  -7.7423593 -3000.0000000 -90.0000000 -3000.0000000 -90.0000000
 40.0194626 -35.3979125  77.0740559  -0.0120779  -7.8662378 -3000.0000000 -90.0000000 -3000.0000000 -90.0000000
 40.6545335 -35.2991802  76.6257999  -0.0123444  -7.9898307 -3000.0000000 -90.0000000 -3000.0000000 -90.0000000
 41.2896043 -35.1729494  76.2469390  -0.0124101  -8.1135182 -3000.0000000 -90.0000000 -3000.0000000 -90.0000000
 41.9246751 -35.0679397  76.0608907  -0.0123416  -8.2374620 -3000.0000000 -90.0000000 -3000.0000000 -90.0000000
 42.5597460 -34.9377999  75.5937732  -0.0126201  -8.3595515 -3000.0000000 -90.0000000 -3000.0000000 -90.0000000
 43.1948168 -34.8579424  75.4226064  -0.0127656  -8.4833681 -3000.0000000 -90.0000000 -3000.0000000 -90.0000000
 43.8298876 -34.7434011  75.0069066  -0.0129232  -8.6082961 -3000.0000000 -90.0000000 -3000.0000000 -90.0000000
 44.4649585 -34.6286125  74.7444275  -0.0130454  -8.7297606 -3000.0000000 -90.0000000 -3000.0000000 -90.0000000
 45.1000293 -34.5195599  74.4630715  -0.0129915  -8.8542762 -3000.0000000 -90.0000000 -3000.0000000 -90.0000000
 45.7351001 -34.4198677  74.1244902  -0.0135588  -8.9798476 -3000.0000000 -90.0000000 -3000.0000000 -90.0000000
 46.3701710 -34.3434555  73.7558356  -0.0139721  -9.0899127 -3000.0000000 -90.0000000 -3000.0000000 -90.0000000
 47.0052418 -34.2281667  73.5463736  -0.0137153  -9.2169390 -3000.0000000 -90.0000000 -3000.0000000 -90.0000000
 47.6403127 -34.1152895  73.2843667  -0.0104500  -9.3489890 -3000.0000000 -90.0000000 -3000.0000000 -90.0000000
 48.2753835 -34.0161674  72.8467312  -0.0105500  -9.4713226 -3000.0000000 -90.0000000 -3000.0000000 -90.0000000
 48.9104543 -33.9352556  72.5942580  -0.0108940  -9.5967635 -3000.0000000 -90.0000000 -3000.0000000 -90.0000000
 49.5455252 -33.8501842  72.3129273  -0.0107595  -9.7205623 -3000.0000000 -90.0000000 -3000.0000000 -90.0000000
 50.1805960 -33.7602537  72.0200010  -0.0110100  -9.8439677 -3000.0000000 -90.0000000 -3000.0000000 -90.0000000
 50.8156668 -33.6526952  71.7920873  -0.0108222  -9.9655114 -3000.0000000 -90.0000000 -3000.0000000 -90.0000000
 51.4507377 -33.5750479  71.4472482  -0.0108560 -10.0913999 -3000.0000000 -90.0000000 -3000.0000000 -90.0000000
 52.0858085 -33.4771439  71.1553910  -0.0106525 -10.2131290 -3000.0000000 -90.0000000 -3000.0000000 -90.0000000
 52.7208793 -33.3920715  70.8565776  -0.0104841 -10.3366292 -3000.0000000 -90.0000000 -3000.0000000 -90.0000000
 53.3559502 -33.3059025  70.5978335  -0.0108078 -10.4612097 -3000.0000000 -90.0000000 -3000.0000000 -90.0000000
 53.9910210 -33.2282798  70.4123869  -0.0113060 -10.5863671 -3000.0000000 -90.0000000 -3000.0000000 -90.0000000
 54.6260918 -33.1336148  70.1990387  -0.0112091 -10.7063347 -3000.0000000 -90.0000000 -3000.0000000 -90.0000000
 55.2611627 -33.0528727  69.8744004  -0.0109710 -10.8301593 -3000.0000000 -90.0000000 -3000.0000000 -90.0000000
 55.8962335 -32.9725456  69.5277910  -0.0115353 -10.9548374 -3000.0000000 -90.0000000 -3000.0000000 -90.0000000
 56.5313043 -32.8910767  69.2684348  -0.0117870 -11.0766278 -3000.0000000 -90.0000000 -3000.0000000 -90.0000000
 57.1663752 -32.8070437  68.9978079  -0.0120297 -11.2035553 -3000.0000000 -90.0000000 -3000.0000000 -90.0000000
 57.8014460 -32.7410189  68.7342084  -0.0119536 -11.3237758 -3000.0000000 -90.0000000 -3000.0000000 -90.0000000
 58.4365169 -32.6474584  68.4829681  -0.0115688 -11.4502802 -3000.0000000 -90.0000000 -3000.0000000 -90.0000000
 59.0715877 -32.5787165  68.2174242  -0.0117681 -11.5740557 -3000.0000000 -90.0000000 -3000.0000000 -90.0000000
 59.7066585 -32.4947584  67.9477647  -0.0118614 -11.6965263 -3000.0000000 -90.0000000 -3000.0000000 -90.0000000
 60.3417294 -32.4225171  67.6926761  -0.0119719 -11.8179295 -3000.0000000 -90.0000000 -3000.0000000 -90.0000000
 60.9768002 -32.3368449  67.3666426  -0.0120861 -11.9422197 -3000.0000000 -90.0000000 -3000.0000000 -90.0000000
 61.6118710 -32.2747609  67.0985912  -0.0119880 -12.0665992 -3000.0000000 -90.0000000 -3000.0000000 -90.0000000
 62.2469419 -32.2030307  66.8359419  -0.0117806 -12.1893897 -3000.0000000 -90.0000000 -3000.0000000 -90.0000000
 62.8820127 -32.1349603  66.6571436  -0.0118655 -12.3128185 -3000.0000000 -90.0000000 -3000.0000000 -90.0000000
 63.5170835 -32.0507186  66.3193935  -0.0120356 -12.4359657 -3000.0000000 -90.0000000 -3000.0000000 -90.0000000
 64.1521544 -31.9658137  66.1493014  -0.0125906 -12.5594097 -3000.0000000 -90.0000000 -3000.0000000 -90.0000000
 64.7872252 -31.8958891  65.7267231  -0.0125995 -12.6839856 -3000.0000000 -90.0000000 -3000.0000000 -90.0000000
 65.4222960 -31.8440007  65.5676287  -0.0124388 -12.8070229 -3000.0000000 -90.0000000 -3000.0000000 -90.0000000
 66.0573669 -31.7704822  65.3250110  -0.0125524 -12.9312303 -3000.0000000 -90.0000000 -3000.0000000 -90.0000000
 66.6924377 -31.6958718  65.0704349  -0.0128900 -13.0556931 -3000.0000000 -90.0000000 -3000.0000000 -90.0000000
 67.3275085 -31.6367513  64.9463543  -0.0124304 -13.1783862 -3000.0000000 -90.0000000 -3000.0000000 -90.0000000
 67.9625794 -31.5682350  64.4951571  -0.0127009 -13.3025803 -3000.0000000 -90.0000000 -3000.0000000 -90.0000000
 68.5976502 -31.5145402  64.2961480  -0.0127606 -13.4252943 -3000.0000000 -90.0000000 -3000.0000000 -90.0000000
 69.2327211 -31.4439485  64.0848141  -0.0126447 -13.5480840 -3000.0000000 -90.0000000 -3000.0000000 -90.0000000
 69.8677919 -31.3538054  63.7485343  -0.0131256 -13.6707980 -3000.0000000 -90.0000000 -3000.0000000 -90.0000000
 70.5028627 -31.3004102  63.4985532  -0.0128148 -13.7942115 -3000.0000000 -90.0000000 -3000.0000000 -90.0000000
 71.1379336 -31.2469538  63.2160650  -0.0130928 -13.9189470 -3000.0000000 -90.0000000 -3000.0000000 -90.0000000
 71.7730044 -31.1663425  62.9396644  -0.0134361 -14.0422280 -3000.0000000 -90.0000000 -3000.0000000 -90.0000000
 72.4080752 -31.1043355  62.7733002  -0.0151093 -14.1507381 -3000.0000000 -90.0000000 -3000.0000000 -90.0000000
 73.0431461 -31.0414955  62.5250015  -0.0147780 -14.2759302 -3000.0000000 -90.0000000 -3000.0000000 -90.0000000
 73.6782169 -30.9808816  62.2577247  -0.0150455 -14.3977418 -3000.0000000 -90.0000000 -3000.0000000 -90.0000000
 74.3132877 -30.9094657  62.0524719  -0.0148308 -14.5222747 -3000.0000000 -90.0000000 -3000.0000000 -90.0000000
 74.9483586 -30.8578053  61.8292265  -0.0145427 -14.6438714 -3000.0000000 -90.0000000 -3000.0000000 -90.0000000
 75.5834294 -30.8010711  61.4896092  -0.0149232 -14.7662377 -3000.0000000 -90.0000000 -3000.0000000 -90.0000000
 76.2185002 -30.7357673  61.2330503  -0.0145723 -14.8916944 -3000.0000000 -90.0000000 -3000.0000000 -90.0000000
 76.8535711 -30.6796554  61.0213326  -0.0151491 -15.0150362 -3000.0000000 -90.0000000 -3000.0000000 -90.0000000
 77.4886419 -30.6233578  60.8044409  -0.0149365 -15.1378446 -3000.0000000 -90.0000000 -3000.0000000 -90.0000000
 78.1237128 -30.5621111  60.5448032  -0.0144498 -15.2614001 -3000.0000000 -90.0000000 -3000.0000000 -90.0000000
 78.7587836 -30.5092300  60.2462002  -0.0147486 -15.3849804 -3000.0000000 -90.0000000 -3000.0000000 -90.0000000
 79.3938544 -30.4503892  60.0255703  -0.0148303 -15.5086998 -3000.0000000 -90.0000000 -3000.0000000 -90.0000000
 80.0289253 -30.3940492  59.7838162  -0.0143222 -15.6339869 -3000.0000000 -90.0000000 -3000.0000000 -90.0000000
 80.6639961 -30.3450885  59.5060149  -0.0141748 -15.7579338 -3000.0000000 -90.0000000 -3000.0000000 -90.0000000
 81.2990669 -30.2915715  59.2511393  -0.0146258 -15.8796269 -3000.0000000 -90.0000000 -3000.0000000 -90.0000000
 81.9341378 -30.2242042  59.0027779  -0.0143945 -16.0040878 -3000.0000000 -90.0000000 -3000.0000000 -90.0000000
 82.5692086 -30.1732210  58.6936646  -0.0147720 -16.1257483 -3000.0000000 -90.0000000 -3000.0000000 -90.0000000
 83.2042794 -30.1280371  58.4928820  -0.0143777 -16.2519221 -3000.0000000 -90.0000000 -3000.0000000 -90.0000000
 83.8393503 -30.0724712  58.2102571  -0.0140381 -16.3752357 -3000.0000000 -90.0000000 -3000.0000000 -90.0000000
 84.4744211 -30.0207569  57.9584451  -0.0145549 -16.4987298 -3000.0000000 -90.0000000 -3000.0000000 -90.0000000
 85.1094919 -29.9646262  57.5950475  -0.0149012 -16.6223095 -3000.0000000 -90.0000000 -3000.0000000 -90.0000000
 85.7445628 -29.9206128  57.4514354  -0.0151956 -16.7458211 -3000.0000000 -90.0000000 -3000.0000000 -90.0000000
 86.3796336 -29.8761322  57.1997077  -0.0154462 -16.8678401 -3000.0000000 -90.0000000 -3000.0000000 -90.0000000
 87.0147044 -29.8189936  56.9806708  -0.0153433 -16.9910080 -3000.0000000 -90.0000000 -3000.0000000 -90.0000000
 87.6497753 -29.7690562  56.6964402  -0.0152818 -17.1180237 -3000.0000000 -90.0000000 -3000.0000000 -90.0000000
 88.2848461 -29.7294198  56.4821681  -0.0150897 -17.2365350 -3000.0000000 -90.0000000 -3000.0000000 -90.0000000
 88.9199170 -29.6739172  56.2557703  -0.0155582 -17.3643580 -3000.0000000 -90.0000000 -3000.0000000 -90.0000000
 89.5549878 -29.6233478  56.0341015  -0.0150586 -17.4844829 -3000.0000000 -90.0000000 -3000.0000000 -90.0000000
 90.1900586 -29.5751800  55.7441330  -0.0151762 -17.6081817 -3000.0000000 -90.0000000 -3000.0000000 -90.0000000
 90.8251295 -29.5188914  55.5399857  -0.0148410 -17.7315914 -3000.0000000 -90.0000000 -3000.0000000 -90.0000000
 91.4602003 -29.4723329  55.1726344  -0.0157640 -17.8558874 -3000.0000000 -90.0000000 -3000.0000000 -90.0000000
 92.0952711 -29.4284614  55.0556658  -0.0155928 -17.9820790 -3000.0000000 -90.0000000 -3000.0000000 -90.0000000
 92.7303420 -29.3894612  54.7895895  -0.0153686 -18.1031424 -3000.0000000 -90.0000000 -3000.0000000 -90.0000000
 93.3654128 -29.3438885  54.5523989  -0.0152429 -18.2231249 -3000.0000000 -90.0000000 -3000.0000000 -90.0000000
 94.0004836 -29.3108207  54.2807689  -0.0155792 -18.3506125 -3000.0000000 -90.0000000 -3000.0000000 -90.0000000
 94.6355545 -29.2533223  53.9980290  -0.0154019 -18.4740295 -3000.0000000 -90.0000000 -3000.0000000 -90.0000000
 95.2706253 -29.2197980  53.7414472  -0.0156050 -18.5962562 -3000.0000000 -90.0000000 -3000.0000000 -90.0000000
 95.9056961 -29.1716017  53.5144405  -0.0152551 -18.7207345 -3000.0000000 -90.0000000 -3000.0000000 -90.0000000
 96.5407670 -29.1256292  53.2806097  -0.0152954 -18.8478066 -3000.0000000 -90.0000000 -3000.0000000 -90.0000000
 97.1758378 -29.0958372  52.9877737  -0.0163126 -18.9662859 -3000.0000000 -90.0000000 -3000.0000000 -90.0000000
 97.8109086 -29.0361998  52.7759096  -0.0149183 -19.0962627 -3000.0000000 -90.0000000 -3000.0000000 -90.0000000
 98.4459795 -29.0039111  52.4958025  -0.0152985 -19.2190735 -3000.0000000 -90.0000000 -3000.0000000 -90.0000000
 99.0810503 -28.9472709  52.3040279  -0.0166848 -19.3390695 -3000.0000000 -90.0000000 -3000.0000000 -90.0000000
 99.7161212 -28.9174859  52.0361119  -0.0159066 -19.4640346 -3000.0000000 -90.0000000 -3000.0000000 -90.0000000
100.3511920 -28.8789664  51.7644408  -0.0163881 -19.5872502 -3000.0000000 -90.0000000 -3000.0000000 -90.0000000
100.9862628 -28.8340166  51.5094592  -0.0158605 -19.7087041 -3000.0000000 -90.0000000 -3000.0000000 -90.0000000
101.6213337 -28.7910982  51.2341986  -0.0169704 -19.8344305 -3000.0000000 -90.0000000 -3000.0000000 -90.0000000
102.2564045 -28.7522556  51.0027332  -0.0151503 -19.9623787 -3000.0000000 -90.0000000 -3000.0000000 -90.0000000
102.8914753 -28.7150810  50.7631431  -0.0163924 -20.0843714 -3000.0000000 -90.0000000 -3000.0000000 -90.0000000
103.5265462 -28.6781015  50.5235126  -0.0161918 -20.2093977 -3000.0000000 -90.0000000 -3000.0000000 -90.0000000
104.1616170 -28.6301796  50.2107637  -0.0158164 -20.3293612 -3000.0000000 -90.0000000 -3000.0000000 -90.0000000
104.7966878 -28.5905472  49.9473659  -0.0161203 -20.4567332 -3000.0000000 -90.0000000 -3000.0000000 -90.0000000
105.4317587 -28.5583490  49.7490160  -0.0162486 -20.5771853 -3000.0000000 -90.0000000 -3000.0000000 -90.0000000
106.0668295 -28.5130556  49.5011376  -0.0155275 -20.7027641 -3000.0000000 -90.0000000 -3000.0000000 -90.0000000
106.7019003 -28.4741085  49.2340554  -0.0154183 -20.8262134 -3000.0000000 -90.0000000 -3000.0000000 -90.0000000
107.3369712 -28.4433924  49.0285979  -0.0157720 -20.9508444 -3000.0000000 -90.0000000 -3000.0000000 -90.0000000
107.9720420 -28.4111545  48.6751003  -0.0157826 -21.0739838 -3000.0000000 -90.0000000 -3000.0000000 -90.0000000
108.6071128 -28.3748463  48.4926957  -0.0154959 -21.1975002 -3000.0000000 -90.0000000 -3000.0000000 -90.0000000
109.2421837 -28.3349184  48.2551042  -0.0155152 -21.3181230 -3000.0000000 -90.0000000 -3000.0000000 -90.0000000
109.8772545 -28.2990622  47.9988843  -0.0155407 -21.4477626 -3000.0000000 -90.0000000 -3000.0000000 -90.0000000
110.5123254 -28.2618816  47.7220429  -0.0157522 -21.5803600 -3000.0000000 -90.0000000 -3000.0000000 -90.0000000
111.1473962 -28.2266676  47.4666273  -0.0161916 -21.6987744 -3000.0000000 -90.0000000 -3000.0000000 -90.0000000
