! ListType=Lin
# MHZ S DB R 50
  0.0100000 -47.8497868 179.6806447   0.0014509  -0.0489379 -3000.0000000 -90.0000000 -3000.0000000 -90.0000000
  0.6450708 -48.5379286 172.6328100  -0.0002174  -0.1597278 -3000.0000000 -90.0000000 -3000.0000000 -90.0000000
  1.2801417 -48.8580986 167.4631941  -0.0011239  -0.3161204 -3000.0000000 -90.0000000 -3000.0000000 -90.0000000
  1.9152125 -49.1990170 164.5325717  -0.0024757  -0.4646906 -3000.0000000 -90.0000000 -3000.0000000 -90.0000000
  2.5502833 -49.4134877 160.8752206  -0.0035172  -0.6099145 -3000.0000000 -90.0000000 -3000.0000000 -90.0000000
  3.1853542 -49.6105640 158.4863734  -0.0039427  -0.7597643 -3000.0000000 -90.0000000 -3000.0000000 -90.0000000
  3.8204250 -49.5212964 155.1151115  -0.0046471  -0.9026391 -3000.0000000 -90.0000000 -3000.0000000 -90.0000000
  4.4554958 -49.5070948 153.1081839  -0.0053171  -1.0514017 -3000.0000000 -90.0000000 -3000.0000000 -90.0000000
  5.0905667 -49.7715643 150.3454666  -0.0057227  -1.1977101 -3000.0000000 -90.0000000 -3000.0000000 -90.0000000
  5.7256375 -49.6559218 148.2568121  -0.0065620  -1.3416134 -3000.0000000 -90.0000000 -3000.0000000 -90.0000000
  6.3607084 -49.6925353 146.3569144  -0.0070104  -1.4872924 -3000.0000000 -90.0000000 -3000.0000000 -90.0000000
  6.9957792 -49.6559568 144.1911119  -0.0074775  -1.6326749 -3000.0000000 -90.0000000 -3000.0000000 -90.0000000
  7.6308500 -49.7457515 142.0847482  -0.0077249  -1.7765174 -3000.0000000 -90.0000000 -3000.0000000 -90.0000000
  8.2659209 -49.4701085 138.7442592  -0.0086294  -1.9230336 -3000.0000000 -90.0000000 -3000.0000000 -90.0000000
  8.9009917 -49.5196068 137.3544572  -0.0092166  -2.0661476 -3000.0000000 -90.0000000 -3000.0000000 -90.0000000
  9.5360625 -49.5103812 134.4361517  -0.0094262  -2.2106936 -3000.0000000 -90.0000000 -3000.0000000 -90.0000000
 10.1711334 -49.4198193 132.8911131  -0.0101123  -2.3557234 -3000.0000000 -90.0000000 -3000.0000000 -90.0000000
 10.8062042 -49.2210606 130.6406086  -0.0101640  -2.4996510 -3000.0000000 -90.0000000 -3000.0000000 -90.0000000
 11.4412750 -49.2164402 128.9302346  -0.0107439  -2.6418100 -3000.0000000 -90.0000000 -3000.0000000 -90.0000000
 12.0763459 -49.0741819 126.7157733  -0.0115145  -2.7881395 -3000.0000000 -90.0000000 -3000.0000000 -90.0000000
 12.7114167 -48.9681053 125.1720835  -0.0116718  -2.9315476 -3000.0000000 -90.0000000 -3000.0000000 -90.0000000
 13.3464875 -48.9318050 122.6481241  -0.0120670  -3.0761082 -3000.0000000 -90.0000000 -3000.0000000 -90.0000000
 13.9815584 -48.8359649 121.6734283  -0.0125964  -3.2207416 -3000.0000000 -90.0000000 -3000.0000000 -90.0000000
 14.6166292 -48.6648421 119.8005801  -0.0131887  -3.3626991 -3000.0000000 -90.0000000 -3000.0000000 -90.0000000
 15.2517000 -48.4522203 117.7635691  -0.0135895  -3.5076119 -3000.0000000 -90.0000000 -3000.0000000 -90.0000000
 15.8867709 -48.4169727 116.3566828  -0.0139650  -3.6488856 -3000.0000000 -90.0000000 -3000.0000000 -90.0000000
 16.5218417 -48.2153638 114.9789353  -0.0148324  -3.7926974 -3000.0000000 -90.0000000 -3000.0000000 -90.0000000
 17.1569126 -48.1633845 113.8335525  -0.0149919  -3.9382917 -3000.0000000 -90.0000000 -3000.0000000 -90.0000000
 17.7919834 -47.8734306 111.6676970  -0.0150759  -4.0800605 -3000.0000000 -90.0000000 -3000.0000000 -90.0000000
 18.4270542 -47.8486205 110.7290618  -0.0157783  -4.2248572 -3000.0000000 -90.0000000 -3000.0000000 -90.0000000
 19.0621251 -47.6476580 109.1191205  -0.0158966  -4.3662779 -3000.0000000 -90.0000000 -3000.0000000 -90.0000000
 19.6971959 -47.5650050 107.6341479  -0.0161946  -4.5108327 -3000.0000000 -90.0000000 -3000.0000000 -90.0000000
 20.3322667 -47.4461692 105.9620775  -0.0167228  -4.6520067 -3000.0000000 -90.0000000 -3000.0000000 -90.0000000
 20.9673376 -47.1898721 105.2833257  -0.0171237  -4.7970099 -3000.0000000 -90.0000000 -3000.0000000 -90.0000000
 21.6024084 -47.1409011 104.2058492  -0.0169925  -4.9433395 -3000.0000000 -90.0000000 -3000.0000000 -90.0000000
 22.2374792 -47.0911017 103.2932797  -0.0178184  -5.0820585 -3000.0000000 -90.0000000 -3000.0000000 -90.0000000
 22.8725501 -46.8777863 101.5431594  -0.0175006  -5.2246917 -3000.0000000 -90.0000000 -3000.0000000 -90.0000000
 23.5076209 -46.7599585  99.5696716  -0.0181778  -5.3687176 -3000.0000000 -90.0000000 -3000.0000000 -90.0000000
 24.1426917 -46.7095734  98.9737086  -0.0186489  -5.5130239 -3000.0000000 -90.0000000 -3000.0000000 -90.0000000
 24.7777626 -46.4787014  97.7518097  -0.0193434  -5.6537837 -3000.0000000 -90.0000000 -3000.0000000 -90.0000000
 25.4128334 -46.3011783  96.8535223  -0.0195677  -5.7987654 -3000.0000000 -90.0000000 -3000.0000000 -90.0000000
 26.0479043 -46.2091905  95.8491207  -0.0197548  -5.9404276 -3000.0000000 -90.0000000 -3000.0000000 -90.0000000
 26.6829751 -46.1411008  94.5724900  -0.0206383  -6.0820725 -3000.0000000 -90.0000000 -3000.0000000 -90.0000000
 27.3180459 -45.9595551  93.8646437  -0.0204809  -6.2266917 -3000.0000000 -90.0000000 -3000.0000000 -90.0000000
 27.9531168 -45.8155272  92.5276368  -0.0209742  -6.3667204 -3000.0000000 -90.0000000 -3000.0000000 -90.0000000
 28.5881876 -45.7583801  91.9665504  -0.0216315  -6.5099819 -3000.0000000 -90.0000000 -3000.0000000 -90.0000000
 29.2232584 -45.5306638  90.6649710  -0.0222736  -6.6537061 -3000.0000000 -90.0000000 -3000.0000000 -90.0000000
 29.8583293 -45.5045301  89.9349581  -0.0226979  -6.7968492 -3000.0000000 -90.0000000 -3000.0000000 -90.0000000
 30.4934001 -45.3335935  88.6870158  -0.0228431  -6.9380592 -3000.0000000 -90.0000000 -3000.0000000 -90.0000000
 31.1284709 -45.2048028  87.7727237  -0.0230414  -7.0804843 -3000.0000000 -90.0000000 -3000.0000000 -90.0000000
 31.7635418 -45.0684322  87.1493649  -0.0233540  -7.2227834 -3000.0000000 -90.0000000 -3000.0000000 -90.0000000
 32.3986126 -44.9188031  86.4333391  -0.0239938  -7.3653457 -3000.0000000 -90.0000000 -3000.0000000 -90.0000000
 33.0336834 -44.8264967  85.4249979  -0.0242554  -7.5095039 -3000.0000000 -90.0000000 -3000.0000000 -90.0000000
 33.6687543 -44.7442235  84.5920424  -0.0245721  -7.6505230 -3000.0000000 -90.0000000 -3000.0000000 -90.0000000
 34.3038251 -44.5359606  83.4137562  -0.0249213  -7.7931233 -3000.0000000 -90.0000000 -3000.0000000 -90.0000000
 34.9388959 -44.3924814  82.1931890  -0.0252529  -7.9340015 -3000.0000000 -90.0000000 -3000.0000000 -90.0000000
 35.5739668 -44.3802103  81.9573088  -0.0252783  -8.0770949 -3000.0000000 -90.0000000 -3000.0000000 -90.0000000
 36.2090376 -44.2230214  81.2149813  -0.0251901  -8.2203503 -3000.0000000 -90.0000000 -3000.0000000 -90.0000000
 36.8441085 -44.1194723  80.2455196  -0.0261004  -8.3613880 -3000.0000000 -90.0000000 -3000.0000000 -90.0000000
 37.4791793 -44.0055722  79.3040615  -0.0261136  -8.5046055 -3000.0000000 -90.0000000 -3000.0000000 -90.0000000
 38.1142501 -43.9098473  78.4865781  -0.0263997  -8.6465687 -3000.0000000 -90.0000000 -3000.0000000 -90.0000000
 38.7493210 -43.7891839  77.9211999  -0.0268255  -8.7875940 -3000.0000000 -90.0000000 -3000.0000000 -90.0000000
 39.3843918 -43.6288437  76.8573120  -0.0274334  -8.9301544 -3000.0000000 -90.0000000 -3000.0000000 -90.0000000
 40.0194626 -43.5208096  76.3600029  -0.0274289  -9.0732022 -3000.0000000 -90.0000000 -3000.0000000 -90.0000000
 40.6545335 -43.4336481  75.0422019  -0.0279955  -9.2147447 -3000.0000000 -90.0000000 -3000.0000000 -90.0000000
 41.2896043 -43.3765387  74.4950945  -0.0283936  -9.3561326 -3000.0000000 -90.0000000 -3000.0000000 -90.0000000
 41.9246751 -43.2571236  74.1598275  -0.0287331  -9.4983565 -3000.0000000 -90.0000000 -3000.0000000 -90.0000000
 42.5597460 -43.0957591  73.0605607  -0.0292053  -9.6383975 -3000.0000000 -90.0000000 -3000.0000000 -90.0000000
 43.1948168 -43.0352639  72.8308151  -0.0295719  -9.7822582 -3000.0000000 -90.0000000 -3000.0000000 -90.0000000
 43.8298876 -42.9298871  71.7823170  -0.0295775  -9.9243791 -3000.0000000 -90.0000000 -3000.0000000 -90.0000000
 44.4649585 -42.8020382  71.1415642  -0.0300025 -10.0664779 -3000.0000000 -90.0000000 -3000.0000000 -90.0000000
 45.1000293 -42.6948343  70.4598178  -0.0301626 -10.2079839 -3000.0000000 -90.0000000 -3000.0000000 -90.0000000
 45.7351001 -42.5822901  69.7409699  -0.0313578 -10.3502922 -3000.0000000 -90.0000000 -3000.0000000 -90.0000000
 46.3701710 -42.5518675  68.6874672  -0.0315287 -10.4887592 -3000.0000000 -90.0000000 -3000.0000000 -90.0000000
 47.0052418 -42.4197690  68.1524610  -0.0317095 -10.6289457 -3000.0000000 -90.0000000 -3000.0000000 -90.0000000
 47.6403127 -42.3138302  67.8758947  -0.0300065 -10.7694906 -3000.0000000 -90.0000000 -3000.0000000 -90.0000000
 48.2753835 -42.2330709  66.9916822  -0.0307210 -10.9103359 -3000.0000000 -90.0000000 -3000.0000000 -90.0000000
 48.9104543 -42.1002944  66.3740147  -0.0305649 -11.0545396 -3000.0000000 -90.0000000 -3000.0000000 -90.0000000
 49.5455252 -41.9958342  65.7184883  -0.0308609 -11.1950294 -3000.0000000 -90.0000000 -3000.0000000 -90.0000000
 50.1805960 -41.9547967  65.0327265  -0.0311811 -11.3368243 -3000.0000000 -90.0000000 -3000.0000000 -90.0000000
 50.8156668 -41.8042927  64.5656442  -0.0317597 -11.4777176 -3000.0000000 -90.0000000 -3000.0000000 -90.0000000
 51.4507377 -41.7184861  63.7955164  -0.0319495 -11.6213812 -3000.0000000 -90.0000000 -3000.0000000 -90.0000000
 52.0858085 -41.6911045  63.1157314  -0.0321680 -11.7616682 -3000.0000000 -90.0000000 -3000.0000000 -90.0000000
 52.7208793 -41.5327287  62.4350781  -0.0320695 -11.9054587 -3000.0000000 -90.0000000 -3000.0000000 -90.0000000
 53.3559502 -41.4546312  61.7252673  -0.0324339 -12.0425221 -3000.0000000 -90.0000000 -3000.0000000 -90.0000000
 53.9910210 -41.4011953  61.5084850  -0.0328349 -12.1889269 -3000.0000000 -90.0000000 -3000.0000000 -90.0000000
 54.6260918 -41.2591069  60.8058839  -0.0328213 -12.3257454 -3000.0000000 -90.0000000 -3000.0000000 -90.0000000
 55.2611627 -41.2024728  60.0471000  -0.0331378 -12.4682297 -3000.0000000 -90.0000000 -3000.0000000 -90.0000000
 55.8962335 -41.0811644  59.1769202  -0.0336982 -12.6119162 -3000.0000000 -90.0000000 -3000.0000000 -90.0000000
 56.5313043 -41.0139960  58.6735517  -0.0340494 -12.7515534 -3000.0000000 -90.0000000 -3000.0000000 -90.0000000
 57.1663752 -40.9368934  58.3531254  -0.0343620 -12.8978058 -3000.0000000 -90.0000000 -3000.0000000 -90.0000000
 57.8014460 -40.8268743  57.4304107  -0.0351416 -13.0347302 -3000.0000000 -90.0000000 -3000.0000000 -90.0000000
 58.4365169 -40.7377314  56.9893241  -0.0348419 -13.1787226 -3000.0000000 -90.0000000 -3000.0000000 -90.0000000
 59.0715877 -40.7093173  56.1906576  -0.0353089 -13.3205808 -3000.0000000 -90.0000000 -3000.0000000 -90.0000000
 59.7066585 -40.6023733  55.8888020  -0.0359005 -13.4598449 -3000.0000000 -90.0000000 -3000.0000000 -90.0000000
 60.3417294 -40.5236012  55.2510355  -0.0359912 -13.6008392 -3000.0000000 -90.0000000 -3000.0000000 -90.0000000
 60.9768002 -40.4419523  54.6036040  -0.0363210 -13.7426140 -3000.0000000 -90.0000000 -3000.0000000 -90.0000000
 61.6118710 -40.3471728  54.1016150  -0.0365527 -13.8845836 -3000.0000000 -90.0000000 -3000.0000000 -90.0000000
 62.2469419 -40.2875571  53.4051648  -0.0369735 -14.0251438 -3000.0000000 -90.0000000 -3000.0000000 -90.0000000
 62.8820127 -40.2180799  52.8661346  -0.0371485 -14.1645463 -3000.0000000 -90.0000000 -3000.0000000 -90.0000000
 63.5170835 -40.1356080  52.1919101  -0.0375508 -14.3065248 -3000.0000000 -90.0000000 -3000.0000000 -90.0000000
 64.1521544 -39.9825071  51.7091731  -0.0382759 -14.4486230 -3000.0000000 -90.0000000 -3000.0000000 -90.0000000
 64.7872252 -39.9089491  50.9479797  -0.0381020 -14.5939270 -3000.0000000 -90.0000000 -3000.0000000 -90.0000000
 65.4222960 -39.8594183  50.5822036  -0.0387221 -14.7318257 -3000.0000000 -90.0000000 -3000.0000000 -90.0000000
 66.0573669 -39.7519151  50.0692965  -0.0389469 -14.8740901 -3000.0000000 -90.0000000 -3000.0000000 -90.0000000
 66.6924377 -39.6810195  49.4105338  -0.0395347 -15.0171574 -3000.0000000 -90.0000000 -3000.0000000 -90.0000000
 67.3275085 -39.6328476  49.0308121  -0.0397224 -15.1518222 -3000.0000000 -90.0000000 -3000.0000000 -90.0000000
 67.9625794 -39.5752907  48.4004243  -0.0400501 -15.2962221 -3000.0000000 -90.0000000 -3000.0000000 -90.0000000
 68.5976502 -39.4957209  47.6709520  -0.0401841 -15.4399422 -3000.0000000 -90.0000000 -3000.0000000 -90.0000000
 69.2327211 -39.3939203  47.1596454  -0.0399177 -15.5828739 -3000.0000000 -90.0000000 -3000.0000000 -90.0000000
 69.8677919 -39.2690319  46.6300110  -0.0409996 -15.7192522 -3000.0000000 -90.0000000 -3000.0000000 -90.0000000
 70.5028627 -39.2532223  46.2613619  -0.0411010 -15.8626707 -3000.0000000 -90.0000000 -3000.0000000 -90.0000000
 71.1379336 -39.1693824  45.4556081  -0.0415570 -16.0075082 -3000.0000000 -90.0000000 -3000.0000000 -90.0000000
 71.7730044 -39.0685033  44.8508018  -0.0423233 -16.1459608 -3000.0000000 -90.0000000 -3000.0000000 -90.0000000
 72.4080752 -39.0092099  44.5041836  -0.0423868 -16.2794303 -3000.0000000 -90.0000000 -3000.0000000 -90.0000000
 73.0431461 -38.9483672  43.9690968  -0.0425024 -16.4206373 -3000.0000000 -90.0000000 -3000.0000000 -90.0000000
 73.6782169 -38.8572712  43.2952901  -0.0433411 -16.5644750 -3000.0000000 -90.0000000 -3000.0000000 -90.0000000
 74.3132877 -38.7699456  42.9026971  -0.0437971 -16.7015096 -3000.0000000 -90.0000000 -3000.0000000 -90.0000000
 74.9483586 -38.7140999  42.3958830  -0.0430185 -16.8417066 -3000.0000000 -90.0000000 -3000.0000000 -90.0000000
 75.5834294 -38.6352248  41.5883292  -0.0435274 -16.9826155 -3000.0000000 -90.0000000 -3000.0000000 -90.0000000
 76.2185002 -38.5762491  41.2833517  -0.0436568 -17.1275387 -3000.0000000 -90.0000000 -3000.0000000 -90.0000000
 76.8535711 -38.4870647  40.7175130  -0.0446836 -17.2670832 -3000.0000000 -90.0000000 -3000.0000000 -90.0000000
 77.4886419 -38.4263497  40.4047753  -0.0444650 -17.4086006 -3000.0000000 -90.0000000 -3000.0000000 -90.0000000
 78.1237128 -38.3716699  39.7639474  -0.0440876 -17.5499435 -3000.0000000 -90.0000000 -3000.0000000 -90.0000000
 78.7587836 -38.2706453  39.2725612  -0.0442850 -17.6905863 -3000.0000000 -90.0000000 -3000.0000000 -90.0000000
 79.3938544 -38.1767450  38.6263647  -0.0455352 -17.8340786 -3000.0000000 -90.0000000 -3000.0000000 -90.0000000
 80.0289253 -38.1602776  38.1767393  -0.0444932 -17.9743667 -3000.0000000 -90.0000000 -3000.0000000 -90.0000000
 80.6639961 -38.0800193  37.6559857  -0.0448304 -18.1164636 -3000.0000000 -90.0000000 -3000.0000000 -90.0000000
 81.2990669 -38.0073158  37.0200660  -0.0456977 -18.2554147 -3000.0000000 -90.0000000 -3000.0000000 -90.0000000
 81.9341378 -37.9557405  36.5999620  -0.0467611 -18.4006949 -3000.0000000 -90.0000000 -3000.0000000 -90.0000000
 82.5692086 -37.8350404  35.9149398  -0.0459809 -18.5364086 -3000.0000000 -90.0000000 -3000.0000000 -90.0000000
 83.2042794 -37.8116094  35.4996322  -0.0462807 -18.6782347 -3000.0000000 -90.0000000 -3000.0000000 -90.0000000
 83.8393503 -37.7244770  35.0173014  -0.0471509 -18.8203823 -3000.0000000 -90.0000000 -3000.0000000 -90.0000000
 84.4744211 -37.6729192  34.4116577  -0.0469734 -18.9633701 -3000.0000000 -90.0000000 -3000.0000000 -90.0000000
 85.1094919 -37.5678006  33.8158420  -0.0470831 -19.1020805 -3000.0000000 -90.0000000 -3000.0000000 -90.0000000
 85.7445628 -37.5472378  33.4316505  -0.0478820 -19.2435161 -3000.0000000 -90.0000000 -3000.0000000 -90.0000000
 86.3796336 -37.4600365  32.9158302  -0.0482961 -19.3854565 -3000.0000000 -90.0000000 -3000.0000000 -90.0000000
 87.0147044 -37.4061850  32.4713130  -0.0483505 -19.5283517 -3000.0000000 -90.0000000 -3000.0000000 -90.0000000
 87.6497753 -37.3415365  31.8584142  -0.0484431 -19.6685188 -3000.0000000 -90.0000000 -3000.0000000 -90.0000000
 88.2848461 -37.2767675  31.3438837  -0.0484085 -19.8052839 -3000.0000000 -90.0000000 -3000.0000000 -90.0000000
 88.9199170 -37.2270123  30.9848702  -0.0489075 -19.9541893 -3000.0000000 -90.0000000 -3000.0000000 -90.0000000
 89.5549878 -37.1353320  30.4300999  -0.0484768 -20.0917224 -3000.0000000 -90.0000000 -3000.0000000 -90.0000000
 90.1900586 -37.0714299  29.9535140  -0.0495022 -20.2328887 -3000.0000000 -90.0000000 -3000.0000000 -90.0000000
 90.8251295 -37.0096112  29.5418277  -0.0492568 -20.3728069 -3000.0000000 -90.0000000 -3000.0000000 -90.0000000
 91.4602003 -36.9322241  28.8276562  -0.0499953 -20.5170035 -3000.0000000 -90.0000000 -3000.0000000 -90.0000000
 92.0952711 -36.8743395  28.4503314  -0.0501956 -20.6590300 -3000.0000000 -90.0000000 -3000.0000000 -90.0000000
 92.7303420 -36.8243248  27.9919500  -0.0504666 -20.7982889 -3000.0000000 -90.0000000 -3000.0000000 -90.0000000
 93.3654128 -36.7779234  27.3922566  -0.0504790 -20.9344325 -3000.0000000 -90.0000000 -3000.0000000 -90.0000000
 94.0004836 -36.7112331  26.7926730  -0.0510027 -21.0812424 -3000.0000000 -90.0000000 -3000.0000000 -90.0000000
 94.6355545 -36.6360076  26.4371946  -0.0513679 -21.2218409 -3000.0000000 -90.0000000 -3000.0000000 -90.0000000
 95.2706253 -36.5854034  25.5352549  -0.0525019 -21.3581968 -3000.0000000 -90.0000000 -3000.0000000 -90.0000000
 95.9056961 -36.5269709  25.1350833  -0.0526595 -21.5031312 -3000.0000000 -90.0000000 -3000.0000000 -90.0000000
 96.5407670 -36.4601163  24.7866273  -0.0527672 -21.6434279 -3000.0000000 -90.0000000 -3000.0000000 -90.0000000
 97.1758378 -36.3818956  23.9091660  -0.0529819 -21.7840705 -3000.0000000 -90.0000000 -3000.0000000 -90.0000000
 97.8109086 -36.3127165  23.6842120  -0.0527213 -21.9257331 -3000.0000000 -90.0000000 -3000.0000000 -90.0000000
 98.4459795 -36.2820092  23.0492755  -0.0528234 -22.0689183 -3000.0000000 -90.0000000 -3000.0000000 -90.0000000
 99.0810503 -36.1874791  22.7102636  -0.0539999 -22.2097141 -3000.0000000 -90.0000000 -3000.0000000 -90.0000000
 99.7161212 -36.1634059  22.0732652  -0.0545946 -22.3492529 -3000.0000000 -90.0000000 -3000.0000000 -90.0000000
100.3511920 -36.0980655  21.6288467  -0.0540332 -22.4910506 -3000.0000000 -90.0000000 -3000.0000000 -90.0000000
100.9862628 -36.0083475  21.2100771  -0.0546399 -22.6295065 -3000.0000000 -90.0000000 -3000.0000000 -90.0000000
101.6213337 -35.9781339  20.6226195  -0.0549925 -22.7729707 -3000.0000000 -90.0000000 -3000.0000000 -90.0000000
102.2564045 -35.8975610  20.0938710  -0.0544811 -22.9135456 -3000.0000000 -90.0000000 -3000.0000000 -90.0000000
102.8914753 -35.8453140  19.7148631  -0.0552866 -23.0586375 -3000.0000000 -90.0000000 -3000.0000000 -90.0000000
103.5265462 -35.7968879  19.2026239  -0.0554461 -23.1962013 -3000.0000000 -90.0000000 -3000.0000000 -90.0000000
104.1616170 -35.7334862  18.7401350  -0.0558693 -23.3399333 -3000.0000000 -90.0000000 -3000.0000000 -90.0000000
104.7966878 -35.6653628  18.0958784  -0.0558037 -23.4810599 -3000.0000000 -90.0000000 -3000.0000000 -90.0000000
105.4317587 -35.5976655  17.7386491  -0.0559312 -23.6202414 -3000.0000000 -90.0000000 -3000.0000000 -90.0000000
106.0668295 -35.5516035  17.2433299  -0.0562297 -23.7622111 -3000.0000000 -90.0000000 -3000.0000000 -90.0000000
106.7019003 -35.4778518  16.6708471  -0.0563287 -23.9033339 -3000.0000000 -90.0000000 -3000.0000000 -90.0000000
107.3369712 -35.4295513  16.1967437  -0.0565737 -24.0453431 -3000.0000000 -90.0000000 -3000.0000000 -90.0000000
107.9720420 -35.3670817  15.5264278  -0.0570005 -24.1857478 -3000.0000000 -90.0000000 -3000.0000000 -90.0000000
108.6071128 -35.3156412  15.1256204  -0.0569523 -24.3276061 -3000.0000000 -90.0000000 -3000.0000000 -90.0000000
109.2421837 -35.2467228  14.6348589  -0.0571205 -24.4669526 -3000.0000000 -90.0000000 -3000.0000000 -90.0000000
109.8772545 -35.2052200  14.2466040  -0.0577350 -24.6123070 -3000.0000000 -90.0000000 -3000.0000000 -90.0000000
110.5123254 -35.1452091  13.6112408  -0.0586842 -24.7563344 -3000.0000000 -90.0000000 -3000.0000000 -90.0000000
111.1473962 -35.0795123  13.1993993  -0.0591959 -24.9008336 -3000.0000000 -90.0000000 -3000.0000000 -90.0000000
