! ListType=Lin
# MHZ S DB R 50
  1.0000000 -39.4053320 177.9155691   0.0301633  -0.1080352 -3000.0000000 -90.0000000 -3000.0000000 -90.0000000
  1.5001924 -39.4849882 176.7992520   0.0312038  -0.1563589 -3000.0000000 -90.0000000 -3000.0000000 -90.0000000
  2.0003848 -39.3511091 175.9155029   0.0305064  -0.2018243 -3000.0000000 -90.0000000 -3000.0000000 -90.0000000
  2.5005771 -39.4658473 176.7539779   0.0306244  -0.2520556 -3000.0000000 -90.0000000 -3000.0000000 -90.0000000
  3.0007695 -39.6449394 174.7523332   0.0302723  -0.3008959 -3000.0000000 -90.0000000 -3000.0000000 -90.0000000
  3.5009619 -39.6729405 175.0391478   0.0302559  -0.3478740 -3000.0000000 -90.0000000 -3000.0000000 -90.0000000
  4.0011543 -39.6663324 174.4339748   0.0305529  -0.3949111 -3000.0000000 -90.0000000 -3000.0000000 -90.0000000
  4.5013467 -39.7664515 174.8030468   0.0296876  -0.4434005 -3000.0000000 -90.0000000 -3000.0000000 -90.0000000
  5.0015391 -39.8572234 173.6984484   0.0298332  -0.4943641 -3000.0000000 -90.0000000 -3000.0000000 -90.0000000
  5.5017314 -39.9061483 172.9499782   0.0300672  -0.5394930 -3000.0000000 -90.0000000 -3000.0000000 -90.0000000
  6.0019238 -39.9795490 172.9886832   0.0297683  -0.5920030 -3000.0000000 -90.0000000 -3000.0000000 -90.0000000
  6.5021162 -39.8719843 172.5295219   0.0291308  -0.6368579 -3000.0000000 -90.0000000 -3000.0000000 -90.0000000
  7.0023086 -40.0769355 173.5185110   0.0289302  -0.6833682 -3000.0000000 -90.0000000 -3000.0000000 -90.0000000
  7.5025010 -39.9624600 172.6143921   0.0289215  -0.7362599 -3000.0000000 -90.0000000 -3000.0000000 -90.0000000
  8.0026933 -40.1529815 172.0787195   0.0288352  -0.7835646 -3000.0000000 -90.0000000 -3000.0000000 -90.0000000
  8.5028857 -40.1511360 172.1015989   0.0287526  -0.8275384 -3000.0000000 -90.0000000 -3000.0000000 -90.0000000
  9.0030781 -40.2159135 170.7493599   0.0289660  -0.8797627 -3000.0000000 -90.0000000 -3000.0000000 -90.0000000
  9.5032705 -40.2789732 171.6215245   0.0283347  -0.9273096 -3000.0000000 -90.0000000 -3000.0000000 -90.0000000
 10.0034629 -40.2701696 170.4714092   0.0285950  -0.9772513 -3000.0000000 -90.0000000 -3000.0000000 -90.0000000
 10.5036553 -40.3558903 170.3588158   0.0281127  -1.0224041 -3000.0000000 -90.0000000 -3000.0000000 -90.0000000
 11.0038476 -40.4490743 169.4591575   0.0283212  -1.0712614 -3000.0000000 -90.0000000 -3000.0000000 -90.0000000
 11.5040400 -40.3273588 170.2059826   0.0279599  -1.1192770 -3000.0000000 -90.0000000 -3000.0000000 -90.0000000
 12.0042324 -40.4008593 170.1352816   0.0273726  -1.1699735 -3000.0000000 -90.0000000 -3000.0000000 -90.0000000
 12.5044248 -40.4066624 169.4303386   0.0274557  -1.2169443 -3000.0000000 -90.0000000 -3000.0000000 -90.0000000
 13.0046172 -40.4907842 168.5992379   0.0276768  -1.2616704 -3000.0000000 -90.0000000 -3000.0000000 -90.0000000
 13.5048095 -40.5840558 169.7107193   0.0273282  -1.3078199 -3000.0000000 -90.0000000 -3000.0000000 -90.0000000
 14.0050019 -40.6483145 168.5443005   0.0271412  -1.3567866 -3000.0000000 -90.0000000 -3000.0000000 -90.0000000
 14.5051943 -40.6204323 169.1438374   0.0265949  -1.4025979 -3000.0000000 -90.0000000 -3000.0000000 -90.0000000
 15.0053867 -40.7072546 169.3842524   0.0268238  -1.4544375 -3000.0000000 -90.0000000 -3000.0000000 -90.0000000
 15.5055791 -40.6968878 167.8739325   0.0268610  -1.5043338 -3000.0000000 -90.0000000 -3000.0000000 -90.0000000
 16.0057715 -40.7336147 168.0647958   0.0262737  -1.5516857 -3000.0000000 -90.0000000 -3000.0000000 -90.0000000
 16.5059638 -40.6651992 168.5534798   0.0262130  -1.5930159 -3000.0000000 -90.0000000 -3000.0000000 -90.0000000
 17.0061562 -40.7386305 167.3878478   0.0257415  -1.6439593 -3000.0000000 -90.0000000 -3000.0000000 -90.0000000
 17.5063486 -40.7988107 167.4891228   0.0269391  -1.6891813 -3000.0000000 -90.0000000 -3000.0000000 -90.0000000
 18.0065410 -40.7916087 167.7145330   0.0259115  -1.7384835 -3000.0000000 -90.0000000 -3000.0000000 -90.0000000
 18.5067334 -40.9544806 167.6192594   0.0261776  -1.7841235 -3000.0000000 -90.0000000 -3000.0000000 -90.0000000
 19.0069257 -40.9731169 165.7062906   0.0260081  -1.8329378 -3000.0000000 -90.0000000 -3000.0000000 -90.0000000
 19.5071181 -41.0826728 166.6229122   0.0257586  -1.8826776 -3000.0000000 -90.0000000 -3000.0000000 -90.0000000
 20.0073105 -41.1613009 166.0050831   0.0262263  -1.9219237 -3000.0000000 -90.0000000 -3000.0000000 -90.0000000
 20.5075029 -41.1445836 165.5317252   0.0260277  -1.9715071 -3000.0000000 -90.0000000 -3000.0000000 -90.0000000
 21.0076953 -41.1799657 165.9341148   0.0262101  -2.0265060 -3000.0000000 -90.0000000 -3000.0000000 -90.0000000
 21.5078876 -41.2039111 165.6263393   0.0248355  -2.0756835 -3000.0000000 -90.0000000 -3000.0000000 -90.0000000
 22.0080800 -41.2367300 164.5160407   0.0255935  -2.1246102 -3000.0000000 -90.0000000 -3000.0000000 -90.0000000
 22.5082724 -41.4262474 164.5922578   0.0255450  -2.1681412 -3000.0000000 -90.0000000 -3000.0000000 -90.0000000
 23.0084648 -41.4230253 165.2164726   0.0252015  -2.2190273 -3000.0000000 -90.0000000 -3000.0000000 -90.0000000
 23.5086572 -41.3898415 164.7557033   0.0243949  -2.2648519 -3000.0000000 -90.0000000 -3000.0000000 -90.0000000
 24.0088496 -41.4605577 163.7343097   0.0243753  -2.3127538 -3000.0000000 -90.0000000 -3000.0000000 -90.0000000
 24.5090419 -41.5853761 162.8556888   0.0244556  -2.3599887 -3000.0000000 -90.0000000 -3000.0000000 -90.0000000
 25.0092343 -41.6061299 164.0010405   0.0246337  -2.4062361 -3000.0000000 -90.0000000 -3000.0000000 -90.0000000
 25.5094267 -41.6932974 164.4572832   0.0255437  -2.4551712 -3000.0000000 -90.0000000 -3000.0000000 -90.0000000
 26.0096191 -41.7943967 162.1865860   0.0249336  -2.5036299 -3000.0000000 -90.0000000 -3000.0000000 -90.0000000
 26.5098115 -41.7239339 162.9590445   0.0250805  -2.5507728 -3000.0000000 -90.0000000 -3000.0000000 -90.0000000
 27.0100038 -41.6315065 161.8012076   0.0245845  -2.5960199 -3000.0000000 -90.0000000 -3000.0000000 -90.0000000
 27.5101962 -41.7053897 162.1392371   0.0244759  -2.6453203 -3000.0000000 -90.0000000 -3000.0000000 -90.0000000
 28.0103886 -41.9129232 161.6841151   0.0248784  -2.6949951 -3000.0000000 -90.0000000 -3000.0000000 -90.0000000
 28.5105810 -41.7947043 161.6570051   0.0246035  -2.7408034 -3000.0000000 -90.0000000 -3000.0000000 -90.0000000
 29.0107734 -42.0483474 160.9892076   0.0242441  -2.7875057 -3000.0000000 -90.0000000 -3000.0000000 -90.0000000
 29.5109658 -41.8879436 161.5659541   0.0250989  -2.8353511 -3000.0000000 -90.0000000 -3000.0000000 -90.0000000
 30.0111581 -41.9486461 160.8363110   0.0243653  -2.8838315 -3000.0000000 -90.0000000 -3000.0000000 -90.0000000
 30.5113505 -42.0302548 160.0181064   0.0235312  -2.9298686 -3000.0000000 -90.0000000 -3000.0000000 -90.0000000
 31.0115429 -42.1627211 160.6735466   0.0245650  -2.9778435 -3000.0000000 -90.0000000 -3000.0000000 -90.0000000
 31.5117353 -42.1023462 160.7451097   0.0240357  -3.0206186 -3000.0000000 -90.0000000 -3000.0000000 -90.0000000
 32.0119277 -42.1181916 159.6086106   0.0234371  -3.0767322 -3000.0000000 -90.0000000 -3000.0000000 -90.0000000
 32.5121200 -42.2058026 159.6050647   0.0239168  -3.1203346 -3000.0000000 -90.0000000 -3000.0000000 -90.0000000
 33.0123124 -42.1695231 159.0230410   0.0231808  -3.1714714 -3000.0000000 -90.0000000 -3000.0000000 -90.0000000
 33.5125048 -42.3718680 158.0892658   0.0228498  -3.2125228 -3000.0000000 -90.0000000 -3000.0000000 -90.0000000
 34.0126972 -42.4827888 158.4211927   0.0233934  -3.2609628 -3000.0000000 -90.0000000 -3000.0000000 -90.0000000
 34.5128896 -42.2965774 158.7351686   0.0228785  -3.3098531 -3000.0000000 -90.0000000 -3000.0000000 -90.0000000
 35.0130820 -42.4682502 157.9222182   0.0229664  -3.3596873 -3000.0000000 -90.0000000 -3000.0000000 -90.0000000
 35.5132743 -42.6077519 157.7846989   0.0230414  -3.4036738 -3000.0000000 -90.0000000 -3000.0000000 -90.0000000
 36.0134667 -42.4730153 157.3085409   0.0232628  -3.4510484 -3000.0000000 -90.0000000 -3000.0000000 -90.0000000
 36.5136591 -42.4405098 156.5510465   0.0224313  -3.5002235 -3000.0000000 -90.0000000 -3000.0000000 -90.0000000
 37.0138515 -42.7454586 155.7084240   0.0224499  -3.5455441 -3000.0000000 -90.0000000 -3000.0000000 -90.0000000
 37.5140439 -42.7799796 155.4111626   0.0223187  -3.5917210 -3000.0000000 -90.0000000 -3000.0000000 -90.0000000
 38.0142362 -42.8402150 154.5999147   0.0225325  -3.6418374 -3000.0000000 -90.0000000 -3000.0000000 -90.0000000
 38.5144286 -42.8010142 155.2726281   0.0230881  -3.6890667 -3000.0000000 -90.0000000 -3000.0000000 -90.0000000
 39.0146210 -42.9159342 155.5801440   0.0221687  -3.7353209 -3000.0000000 -90.0000000 -3000.0000000 -90.0000000
 39.5148134 -43.1061823 155.4261734   0.0223068  -3.7831630 -3000.0000000 -90.0000000 -3000.0000000 -90.0000000
 40.0150058 -42.8827848 154.7183409   0.0217329  -3.8273133 -3000.0000000 -90.0000000 -3000.0000000 -90.0000000
 40.5151982 -42.9925799 153.7007855   0.0217041  -3.8790695 -3000.0000000 -90.0000000 -3000.0000000 -90.0000000
 41.0153905 -43.1132875 153.9117230   0.0213787  -3.9240593 -3000.0000000 -90.0000000 -3000.0000000 -90.0000000
 41.5155829 -43.1466117 151.7966389   0.0220376  -3.9698501 -3000.0000000 -90.0000000 -3000.0000000 -90.0000000
 42.0157753 -43.3091492 151.7772477   0.0213853  -4.0209019 -3000.0000000 -90.0000000 -3000.0000000 -90.0000000
 42.5159677 -43.2459709 151.3579003   0.0214489  -4.0650017 -3000.0000000 -90.0000000 -3000.0000000 -90.0000000
 43.0161601 -43.5022027 151.7018306   0.0219614  -4.1082987 -3000.0000000 -90.0000000 -3000.0000000 -90.0000000
 43.5163524 -43.4239924 151.8506105   0.0212793  -4.1574397 -3000.0000000 -90.0000000 -3000.0000000 -90.0000000
 44.0165448 -43.6253434 150.1295372   0.0222476  -4.2047427 -3000.0000000 -90.0000000 -3000.0000000 -90.0000000
 44.5167372 -43.6038636 149.5462478   0.0220413  -4.2532693 -3000.0000000 -90.0000000 -3000.0000000 -90.0000000
 45.0169296 -43.5582536 149.8727445   0.0212673  -4.2986614 -3000.0000000 -90.0000000 -3000.0000000 -90.0000000
 45.5171220 -43.7517029 149.5384912   0.0207423  -4.3559596 -3000.0000000 -90.0000000 -3000.0000000 -90.0000000
 46.0173144 -43.7883882 148.6936076   0.0219967  -4.3959152 -3000.0000000 -90.0000000 -3000.0000000 -90.0000000
 46.5175067 -43.8342175 147.1932222   0.0215223  -4.4380488 -3000.0000000 -90.0000000 -3000.0000000 -90.0000000
 47.0176991 -43.9214991 147.5374707   0.0216239  -4.4902320 -3000.0000000 -90.0000000 -3000.0000000 -90.0000000
 47.5178915 -43.8787641 147.5216483   0.0209222  -4.5463816 -3000.0000000 -90.0000000 -3000.0000000 -90.0000000
 48.0180839 -43.8430664 146.4398205   0.0210465  -4.5879468 -3000.0000000 -90.0000000 -3000.0000000 -90.0000000
 48.5182763 -44.0136222 145.5129530   0.0211443  -4.6334284 -3000.0000000 -90.0000000 -3000.0000000 -90.0000000
 49.0184686 -44.1688564 144.6576439   0.0206512  -4.6812074 -3000.0000000 -90.0000000 -3000.0000000 -90.0000000
 49.5186610 -44.1750929 144.6594909   0.0201785  -4.7265528 -3000.0000000 -90.0000000 -3000.0000000 -90.0000000
 50.0188534 -43.9915895 143.6618619   0.0203476  -4.7762786 -3000.0000000 -90.0000000 -3000.0000000 -90.0000000
 50.5190458 -44.1474969 143.5002069   0.0201425  -4.8239654 -3000.0000000 -90.0000000 -3000.0000000 -90.0000000
 51.0192382 -44.3743331 142.5797560   0.0202857  -4.8732966 -3000.0000000 -90.0000000 -3000.0000000 -90.0000000
 51.5194306 -44.6317961 143.4756579   0.0210080  -4.9211482 -3000.0000000 -90.0000000 -3000.0000000 -90.0000000
 52.0196229 -44.5820010 141.8517980   0.0196369  -4.9692567 -3000.0000000 -90.0000000 -3000.0000000 -90.0000000
 52.5198153 -44.6609529 140.8939976   0.0201178  -5.0147725 -3000.0000000 -90.0000000 -3000.0000000 -90.0000000
 53.0200077 -44.6815765 141.6016390   0.0202322  -5.0594010 -3000.0000000 -90.0000000 -3000.0000000 -90.0000000
 53.5202001 -44.7932788 140.4556615   0.0200209  -5.1027737 -3000.0000000 -90.0000000 -3000.0000000 -90.0000000
 54.0203925 -44.8829132 139.4128455   0.0199592  -5.1520279 -3000.0000000 -90.0000000 -3000.0000000 -90.0000000
 54.5205848 -44.8644416 138.0629384   0.0193135  -5.2002633 -3000.0000000 -90.0000000 -3000.0000000 -90.0000000
 55.0207772 -45.0562420 138.0790465   0.0192488  -5.2463193 -3000.0000000 -90.0000000 -3000.0000000 -90.0000000
 55.5209696 -44.9947953 136.8060065   0.0191957  -5.2946450 -3000.0000000 -90.0000000 -3000.0000000 -90.0000000
 56.0211620 -45.1005317 136.4165341   0.0188999  -5.3421971 -3000.0000000 -90.0000000 -3000.0000000 -90.0000000
 56.5213544 -45.1597900 136.4003824   0.0185391  -5.3904906 -3000.0000000 -90.0000000 -3000.0000000 -90.0000000
 57.0215467 -45.4486475 133.4177894   0.0183648  -5.4399644 -3000.0000000 -90.0000000 -3000.0000000 -90.0000000
 57.5217391 -45.3600506 132.7407332   0.0187082  -5.4835589 -3000.0000000 -90.0000000 -3000.0000000 -90.0000000
 58.0219315 -45.2259455 132.6767834   0.0189361  -5.5329068 -3000.0000000 -90.0000000 -3000.0000000 -90.0000000
 58.5221239 -45.3223987 131.7454544   0.0198397  -5.5792286 -3000.0000000 -90.0000000 -3000.0000000 -90.0000000
 59.0223163 -45.4866895 130.8387674   0.0194122  -5.6226075 -3000.0000000 -90.0000000 -3000.0000000 -90.0000000
 59.5225087 -45.6647741 129.6121257   0.0192777  -5.6710987 -3000.0000000 -90.0000000 -3000.0000000 -90.0000000
 60.0227010 -45.6339918 128.4607473   0.0181656  -5.7187808 -3000.0000000 -90.0000000 -3000.0000000 -90.0000000
 60.5228934 -45.7911948 128.4593872   0.0187147  -5.7652294 -3000.0000000 -90.0000000 -3000.0000000 -90.0000000
 61.0230858 -45.7924539 128.0482226   0.0190920  -5.8123492 -3000.0000000 -90.0000000 -3000.0000000 -90.0000000
 61.5232782 -45.9229722 128.1808286   0.0181126  -5.8577018 -3000.0000000 -90.0000000 -3000.0000000 -90.0000000
 62.0234706 -46.0084739 126.2119677   0.0184470  -5.9037301 -3000.0000000 -90.0000000 -3000.0000000 -90.0000000
 62.5236629 -45.9642581 125.1880745   0.0183874  -5.9536068 -3000.0000000 -90.0000000 -3000.0000000 -90.0000000
 63.0238553 -46.1763253 123.7848496   0.0178419  -6.0033082 -3000.0000000 -90.0000000 -3000.0000000 -90.0000000
 63.5240477 -46.2378071 122.3525257   0.0185482  -6.0451217 -3000.0000000 -90.0000000 -3000.0000000 -90.0000000
 64.0242401 -45.9656359 121.6186544   0.0191471  -6.0897477 -3000.0000000 -90.0000000 -3000.0000000 -90.0000000
 64.5244325 -46.0877610 120.1655385   0.0177900  -6.1400183 -3000.0000000 -90.0000000 -3000.0000000 -90.0000000
 65.0246249 -46.1932033 119.0931751   0.0165308  -6.1812437 -3000.0000000 -90.0000000 -3000.0000000 -90.0000000
 65.5248172 -46.3750544 118.2448322   0.0168328  -6.2319533 -3000.0000000 -90.0000000 -3000.0000000 -90.0000000
 66.0250096 -46.5890812 116.5804512   0.0178736  -6.2779175 -3000.0000000 -90.0000000 -3000.0000000 -90.0000000
 66.5252020 -46.6425075 115.6621058   0.0174860  -6.3272991 -3000.0000000 -90.0000000 -3000.0000000 -90.0000000
 67.0253944 -46.5994246 114.5496813   0.0165427  -6.3752957 -3000.0000000 -90.0000000 -3000.0000000 -90.0000000
 67.5255868 -46.4635928 113.2317856   0.0176723  -6.4214530 -3000.0000000 -90.0000000 -3000.0000000 -90.0000000
 68.0257791 -46.2945004 112.9869239   0.0169138  -6.4703029 -3000.0000000 -90.0000000 -3000.0000000 -90.0000000
 68.5259715 -46.6354346 111.8424563   0.0177139  -6.5110749 -3000.0000000 -90.0000000 -3000.0000000 -90.0000000
 69.0261639 -46.8009642 110.4374747   0.0182757  -6.5613023 -3000.0000000 -90.0000000 -3000.0000000 -90.0000000
 69.5263563 -46.6824043 109.1698052   0.0168425  -6.6087214 -3000.0000000 -90.0000000 -3000.0000000 -90.0000000
 70.0265487 -46.8599940 106.9769007   0.0171208  -6.6573728 -3000.0000000 -90.0000000 -3000.0000000 -90.0000000
 70.5267411 -46.5680843 107.7722892   0.0152265  -6.7001276 -3000.0000000 -90.0000000 -3000.0000000 -90.0000000
 71.0269334 -46.7811322 105.0637421   0.0163738  -6.7502298 -3000.0000000 -90.0000000 -3000.0000000 -90.0000000
 71.5271258 -46.7251215 104.0962933   0.0164531  -6.7958718 -3000.0000000 -90.0000000 -3000.0000000 -90.0000000
 72.0273182 -46.9149807 101.2582761   0.0161674  -6.8386567 -3000.0000000 -90.0000000 -3000.0000000 -90.0000000
 72.5275106 -46.5434425 101.2869311   0.0118282  -6.8988548 -3000.0000000 -90.0000000 -3000.0000000 -90.0000000
 73.0277030 -46.8031381 100.2109314   0.0133589  -6.9506655 -3000.0000000 -90.0000000 -3000.0000000 -90.0000000
 73.5278953 -46.7288367  98.8045460   0.0134899  -6.9989038 -3000.0000000 -90.0000000 -3000.0000000 -90.0000000
 74.0280877 -46.6848512  97.7676110   0.0141004  -7.0346034 -3000.0000000 -90.0000000 -3000.0000000 -90.0000000
 74.5282801 -46.6707362  96.7438601   0.0134366  -7.0881025 -3000.0000000 -90.0000000 -3000.0000000 -90.0000000
 75.0284725 -46.9272146  94.0080029   0.0121574  -7.1353195 -3000.0000000 -90.0000000 -3000.0000000 -90.0000000
 75.5286649 -46.6949776  92.3679401   0.0119527  -7.1805474 -3000.0000000 -90.0000000 -3000.0000000 -90.0000000
 76.0288573 -46.7441326  92.7465149   0.0120296  -7.2271310 -3000.0000000 -90.0000000 -3000.0000000 -90.0000000
 76.5290496 -46.7877496  93.0076057   0.0126029  -7.2741704 -3000.0000000 -90.0000000 -3000.0000000 -90.0000000
 77.0292420 -46.6272455  90.1246479   0.0141886  -7.3218496 -3000.0000000 -90.0000000 -3000.0000000 -90.0000000
 77.5294344 -46.5425981  90.3533521   0.0121082  -7.3586038 -3000.0000000 -90.0000000 -3000.0000000 -90.0000000
 78.0296268 -46.6982376  88.4112811   0.0132419  -7.4136605 -3000.0000000 -90.0000000 -3000.0000000 -90.0000000
 78.5298192 -46.4809551  86.6366080   0.0114738  -7.4620347 -3000.0000000 -90.0000000 -3000.0000000 -90.0000000
 79.0300115 -46.3615005  85.0493766   0.0116793  -7.4993239 -3000.0000000 -90.0000000 -3000.0000000 -90.0000000
 79.5302039 -46.6936696  83.8230137   0.0108146  -7.5515378 -3000.0000000 -90.0000000 -3000.0000000 -90.0000000
 80.0303963 -46.4033167  82.3242846   0.0111371  -7.6017201 -3000.0000000 -90.0000000 -3000.0000000 -90.0000000
 80.5305887 -46.0001193  81.0472536   0.0102228  -7.6450696 -3000.0000000 -90.0000000 -3000.0000000 -90.0000000
 81.0307811 -46.2950463  78.2427158   0.0114136  -7.6926341 -3000.0000000 -90.0000000 -3000.0000000 -90.0000000
 81.5309735 -46.2486616  77.4089621   0.0106088  -7.7357481 -3000.0000000 -90.0000000 -3000.0000000 -90.0000000
 82.0311658 -46.0454351  78.4934574   0.0115830  -7.7845096 -3000.0000000 -90.0000000 -3000.0000000 -90.0000000
 82.5313582 -45.8843024  76.5705032   0.0109691  -7.8304758 -3000.0000000 -90.0000000 -3000.0000000 -90.0000000
 83.0315506 -46.0873759  75.5700010   0.0119029  -7.8817793 -3000.0000000 -90.0000000 -3000.0000000 -90.0000000
 83.5317430 -45.9494792  74.5812867   0.0111281  -7.9201033 -3000.0000000 -90.0000000 -3000.0000000 -90.0000000
 84.0319354 -45.9622324  72.2442660   0.0109737  -7.9772016 -3000.0000000 -90.0000000 -3000.0000000 -90.0000000
 84.5321277 -45.6681048  71.5382469   0.0088770  -8.0135480 -3000.0000000 -90.0000000 -3000.0000000 -90.0000000
 85.0323201 -45.6681602  70.8116929   0.0113954  -8.0681718 -3000.0000000 -90.0000000 -3000.0000000 -90.0000000
 85.5325125 -45.4883905  69.4808710   0.0092348  -8.1200364 -3000.0000000 -90.0000000 -3000.0000000 -90.0000000
 86.0327049 -45.4921900  68.0387189   0.0102113  -8.1642126 -3000.0000000 -90.0000000 -3000.0000000 -90.0000000
 86.5328973 -45.4094677  67.8837430   0.0113826  -8.2115057 -3000.0000000 -90.0000000 -3000.0000000 -90.0000000
 87.0330896 -45.2163133  66.7297788   0.0111252  -8.2544502 -3000.0000000 -90.0000000 -3000.0000000 -90.0000000
 87.5332820 -45.2416555  63.9138346   0.0099697  -8.2846150 -3000.0000000 -90.0000000 -3000.0000000 -90.0000000
 88.0334744 -44.8954435  64.2461775   0.0094028  -8.3430335 -3000.0000000 -90.0000000 -3000.0000000 -90.0000000
 88.5336668 -45.1105051  63.9158868   0.0086111  -8.3876213 -3000.0000000 -90.0000000 -3000.0000000 -90.0000000
