! ListType=Lin
! Comment=Monoprice_5-2400MHz_2-Way_Splitter_OUT-to-OUT_IN-Open
# MHZ S DB R 50
  0.1000000  -0.7899997 154.2623652 -12.6787443  58.9230137 -12.6965229  58.9648836  -0.7902785 154.2624987
  0.2000167  -2.5092227 122.4763400  -8.0800056  33.8556304  -8.0901647  33.9112271  -2.5071239 122.4551090
  0.3000333  -4.1143167 102.3231672  -7.1368483  20.1721430  -7.1425735  20.2317921  -4.1105721 102.3305369
  0.4000500  -5.3576088  88.6145752  -6.9827147  12.0626255  -6.9867824  12.1097355  -5.3551556  88.6264778
  0.5000667  -6.2222343  78.8971793  -7.0367045   6.9316500  -7.0392283   6.9717878  -6.2217017  78.9083003
  0.6000833  -6.7892450  71.5967667  -7.1397392   3.4068727  -7.1420899   3.4374800  -6.7892496  71.6030115
  0.7001000  -7.1379282  65.8841727  -7.2496202   0.7894326  -7.2512967   0.8154774  -7.1390512  65.9017950
  0.8001167  -7.3375749  61.3814019  -7.3790614  -1.2355700  -7.3811681  -1.2110968  -7.3357785  61.3931002
  0.9001334  -7.4296966  57.5067835  -7.4891474  -2.9449006  -7.4909361  -2.9147208  -7.4286754  57.5099300
  1.0001500  -7.4652425  54.2023475  -7.6010353  -4.3500985  -7.6020436  -4.3264385  -7.4647637  54.2023099
  1.1001667  -7.4519241  51.3439825  -7.7123697  -5.5765969  -7.7135782  -5.5515132  -7.4491627  51.3450611
  1.2001834  -7.4149833  48.9041403  -7.8364503  -6.6577914  -7.8376835  -6.6385250  -7.4153571  48.9209140
  1.3002000  -7.3451452  46.5657431  -7.9316765  -7.5933585  -7.9323224  -7.5700464  -7.3485330  46.5632153
  1.4002167  -7.2729033  44.5055479  -8.0382695  -8.4233603  -8.0393464  -8.3993158  -7.2736926  44.4911742
  1.5002334  -7.2022094  42.5588732  -8.1378998  -9.1783733  -8.1383430  -9.1574923  -7.2039755  42.5633587
  1.6002500  -7.1214233  40.9099936  -8.2524007  -9.7846883  -8.2536886  -9.7665649  -7.1210016  40.9252696
  1.7002667  -7.0411806  39.3002262  -8.3526128 -10.3694348  -8.3533479 -10.3502425  -7.0390899  39.3095632
  1.8002834  -6.9619233  37.8049958  -8.4513129 -10.8696164  -8.4515256 -10.8536316  -6.9625291  37.8079367
  1.9003001  -6.8893037  36.4132392  -8.5478507 -11.3229797  -8.5487446 -11.3094122  -6.8877482  36.4109976
  2.0003167  -6.8107820  35.0959003  -8.6414649 -11.7306060  -8.6421779 -11.7113690  -6.8141757  35.1107368
  2.1003334  -6.7446983  33.8825545  -8.7336826 -12.0854295  -8.7343194 -12.0719185  -6.7451097  33.8839150
  2.2003501  -6.6779374  32.7289416  -8.8200993 -12.3920335  -8.8211355 -12.3826476  -6.6797234  32.7355877
  2.3003667  -6.6171150  31.6462433  -8.9048862 -12.6733632  -8.9051025 -12.6638140  -6.6192698  31.6670823
  2.4003834  -6.5579107  30.6435583  -8.9917913 -12.9219047  -8.9922202 -12.9119595  -6.5610494  30.6514350
  2.5004001  -6.5079563  29.6685761  -9.0733910 -13.1633611  -9.0736066 -13.1520792  -6.5091189  29.6785216
  2.6004167  -6.4501012  28.7754387  -9.1439881 -13.3242226  -9.1447839 -13.3181838  -6.4510664  28.7843936
  2.7004334  -6.4001787  27.8851008  -9.2198654 -13.4828076  -9.2201716 -13.4760363  -6.4003329  27.8875109
  2.8004501  -6.3522250  27.0722135  -9.2912919 -13.6150087  -9.2918617 -13.6080872  -6.3516740  27.0816435
  2.9004667  -6.3103252  26.2497127  -9.3587236 -13.7305175  -9.3587631 -13.7274575  -6.3108877  26.2565659
  3.0004834  -6.2685335  25.5153271  -9.4230489 -13.8203919  -9.4229471 -13.8131698  -6.2695072  25.5153051
  3.1005001  -6.2297059  24.8070434  -9.4834514 -13.9161439  -9.4838093 -13.9096801  -6.2310309  24.7947977
  3.2005168  -6.1943602  24.1033315  -9.5418014 -13.9873230  -9.5425190 -13.9872109  -6.1937558  24.1139672
  3.3005334  -6.1626857  23.4697468  -9.5965694 -14.0742084  -9.5969279 -14.0716194  -6.1632606  23.4700176
  3.4005501  -6.1278035  22.8364646  -9.6525462 -14.1476681  -9.6536111 -14.1458821  -6.1261725  22.8431705
  3.5005668  -6.0956099  22.2120633  -9.7090120 -14.1932702  -9.7097047 -14.1876447  -6.0961492  22.2187189
  3.6005834  -6.0689984  21.6462353  -9.7583056 -14.2181450  -9.7589751 -14.2126409  -6.0682616  21.6448671
  3.7006001  -6.0419524  21.0914789  -9.8065324 -14.2442159  -9.8071763 -14.2421310  -6.0406970  21.0916286
  3.8006168  -6.0123205  20.5723050  -9.8510665 -14.2746544  -9.8516777 -14.2761637  -6.0147165  20.5733196
  3.9006334  -5.9896646  20.0359113  -9.8972278 -14.2979793  -9.8971251 -14.2962073  -5.9905939  20.0434839
  4.0006501  -5.9647368  19.5439097  -9.9396405 -14.3072331  -9.9402365 -14.3063072  -5.9636212  19.5489038
  4.1006668  -5.9424695  19.0579144  -9.9796365 -14.3179713  -9.9801594 -14.3196853  -5.9431386  19.0794199
  4.2006834  -5.9249888  18.6113441 -10.0166042 -14.3179528 -10.0166272 -14.3179991  -5.9229722  18.6163404
  4.3007001  -5.9017697  18.1700621 -10.0539321 -14.3232146 -10.0548808 -14.3266673  -5.9032266  18.1791017
  4.4007168  -5.8829521  17.7366915 -10.0890800 -14.3304989 -10.0891454 -14.3326886  -5.8822548  17.7452941
  4.5007335  -5.8668198  17.3291475 -10.1214947 -14.3263692 -10.1219114 -14.3300415  -5.8650180  17.3294472
  4.6007501  -5.8476711  16.9211156 -10.1513611 -14.3385315 -10.1526672 -14.3416998  -5.8492371  16.9284439
  4.7007668  -5.8315435  16.5441264 -10.1852910 -14.3473791 -10.1856625 -14.3476988  -5.8321451  16.5604227
  4.8007835  -5.8152646  16.1682439 -10.2146953 -14.3426119 -10.2154601 -14.3461213  -5.8170749  16.1840646
  4.9008001  -5.7995917  15.8082509 -10.2426984 -14.3358685 -10.2437254 -14.3395759  -5.8013763  15.8072496
  5.0008168  -5.7851235  15.4625415 -10.2689814 -14.3482150 -10.2697878 -14.3492833  -5.7855687  15.4637152
  5.1008335  -5.7701716  15.0986892 -10.2954712 -14.3587032 -10.2962195 -14.3664307  -5.7702961  15.1140922
  5.2008501  -5.7573449  14.7965479 -10.3246044 -14.3707642 -10.3258982 -14.3727508  -5.7576464  14.7950975
  5.3008668  -5.7447669  14.4719445 -10.3472474 -14.3277235 -10.3482539 -14.3336888  -5.7450330  14.4833835
  5.4008835  -5.7319975  14.1686194 -10.3669955 -14.3341361 -10.3674508 -14.3377682  -5.7303558  14.1821927
  5.5009002  -5.7167377  13.8614984 -10.3885908 -14.3386611 -10.3901246 -14.3440216  -5.7182277  13.8721245
  5.6009168  -5.7077921  13.5882554 -10.4066702 -14.3616716 -10.4070204 -14.3687398  -5.7072257  13.5924333
  5.7009335  -5.6941727  13.3016041 -10.4277232 -14.4078020 -10.4289885 -14.4077121  -5.6917112  13.3239622
  5.8009502  -5.6783411  13.0485138 -10.4537498 -14.4470514 -10.4543292 -14.4501536  -5.6782884  13.0424818
  5.9009668  -5.6601016  12.7362677 -10.4801393 -14.4394825 -10.4808502 -14.4466499  -5.6603080  12.7354783
  6.0009835  -5.6509713  12.4222834 -10.5027472 -14.3984833 -10.5039830 -14.4038691  -5.6509136  12.4350143
  6.1010002  -5.6420737  12.1681352 -10.5183290 -14.3938601 -10.5191773 -14.3982675  -5.6448586  12.1651894
  6.2010168  -5.6337711  11.8855212 -10.5371770 -14.3913812 -10.5381414 -14.3977018  -5.6341648  11.8959725
  6.3010335  -5.6241384  11.6278401 -10.5537068 -14.3884924 -10.5546219 -14.3937228  -5.6235406  11.6329730
  6.4010502  -5.6156621  11.3824052 -10.5693853 -14.3887351 -10.5703074 -14.3947632  -5.6131026  11.3899149
  6.5010668  -5.6019296  11.1458792 -10.5853159 -14.3988321 -10.5862795 -14.4043089  -5.6045662  11.1460629
  6.6010835  -5.5978127  10.9200267 -10.5989222 -14.4044435 -10.6000969 -14.4111282  -5.5971248  10.9166573
  6.7011002  -5.5888420  10.6708244 -10.6144812 -14.4223397 -10.6149084 -14.4288400  -5.5876308  10.6757895
  6.8011169  -5.5803056  10.4386998 -10.6277887 -14.4284371 -10.6293057 -14.4328908  -5.5812390  10.4508299
  6.9011335  -5.5704434  10.2052059 -10.6434352 -14.4402578 -10.6441099 -14.4465130  -5.5721120  10.2122491
  7.0011502  -5.5630200   9.9782777 -10.6568293 -14.4317823 -10.6573404 -14.4384181  -5.5630546   9.9888670
  7.1011669  -5.5573856   9.7560350 -10.6667198 -14.4464833 -10.6686842 -14.4535625  -5.5572577   9.7681478
  7.2011835  -5.5470338   9.5288467 -10.6786549 -14.4650522 -10.6801624 -14.4687943  -5.5497691   9.5464286
  7.3012002  -5.5442141   9.3390105 -10.6885960 -14.4904622 -10.6901747 -14.4953220  -5.5453167   9.3569440
  7.4012169  -5.5373885   9.1272120 -10.7018019 -14.5114958 -10.7026812 -14.5145847  -5.5397403   9.1354983
  7.5012335  -5.5337007   8.9473056 -10.7137222 -14.5434747 -10.7151997 -14.5501315  -5.5313532   8.9483504
  7.6012502  -5.5241436   8.7451816 -10.7260827 -14.5464674 -10.7276082 -14.5491202  -5.5264588   8.7497578
  7.7012669  -5.5212206   8.5451964 -10.7361717 -14.5634195 -10.7375428 -14.5710635  -5.5204095   8.5484046
  7.8012835  -5.5125302   8.3558816 -10.7467157 -14.6006991 -10.7486787 -14.6076962  -5.5129831   8.3731534
  7.9013002  -5.5033195   8.1834483 -10.7608070 -14.6354943 -10.7623344 -14.6412266  -5.5035421   8.1826257
  8.0013169  -5.4968167   7.9730512 -10.7737480 -14.6173854 -10.7747754 -14.6268953  -5.4961077   7.9758093
  8.1013336  -5.4903788   7.7974466 -10.7814003 -14.6240620 -10.7833512 -14.6266096  -5.4906770   7.7841357
  8.2013502  -5.4881698   7.6023587 -10.7893029 -14.6421439 -10.7902778 -14.6439470  -5.4883341   7.5967131
  8.3013669  -5.4811080   7.4161929 -10.7962854 -14.6633675 -10.7977476 -14.6645304  -5.4819168   7.4229457
  8.4013836  -5.4790111   7.2613672 -10.8028011 -14.6835464 -10.8043079 -14.6904158  -5.4786857   7.2482961
  8.5014002  -5.4733418   7.0722942 -10.8097758 -14.7237629 -10.8115911 -14.7294199  -5.4719109   7.0822073
  8.6014169  -5.4698576   6.9032412 -10.8184266 -14.7683912 -10.8199492 -14.7725074  -5.4689777   6.9143234
  8.7014336  -5.4670968   6.7187475 -10.8295201 -14.7872428 -10.8309874 -14.7949740  -5.4667593   6.7232091
  8.8014502  -5.4602851   6.5619767 -10.8376297 -14.8045181 -10.8394476 -14.8087531  -5.4612945   6.5590389
  8.9014669  -5.4564681   6.4173546 -10.8440074 -14.8271683 -10.8454346 -14.8302780  -5.4568770   6.4127965
  9.0014836  -5.4508479   6.2459286 -10.8485456 -14.8409484 -10.8505054 -14.8481060  -5.4520235   6.2553914
  9.1015003  -5.4473216   6.0885961 -10.8527643 -14.8881824 -10.8551118 -14.8855857  -5.4486311   6.0904930
  9.2015169  -5.4446394   5.9387404 -10.8602643 -14.9326729 -10.8615928 -14.9400981  -5.4448675   5.9437868
  9.3015336  -5.4374586   5.7803279 -10.8674496 -14.9749249 -10.8696124 -14.9818650  -5.4383803   5.7820251
  9.4015503  -5.4366673   5.6425990 -10.8743815 -15.0088626 -10.8758125 -15.0170780  -5.4360142   5.6554203
  9.5015669  -5.4282558   5.4898468 -10.8821337 -15.0639557 -10.8834254 -15.0693371  -5.4291725   5.4951550
  9.6015836  -5.4203611   5.3546227 -10.8926195 -15.1152632 -10.8943171 -15.1211657  -5.4216268   5.3521513
  9.7016003  -5.4158602   5.1768386 -10.9059964 -15.1275542 -10.9075370 -15.1302190  -5.4161990   5.1859529
  9.8016169  -5.4132898   4.9858291 -10.9120650 -15.1184491 -10.9137501 -15.1229157  -5.4129258   4.9822886
  9.9016336  -5.4091585   4.8392477 -10.9176123 -15.1396580 -10.9190455 -15.1475189  -5.4110934   4.8381705
 10.0016503  -5.4118762   4.6777046 -10.9224299 -15.1570038 -10.9244128 -15.1608840  -5.4104530   4.6892550
 10.1016669  -5.4079781   4.5475771 -10.9271139 -15.1773471 -10.9284996 -15.1816148  -5.4085972   4.5535300
 10.2016836  -5.4085139   4.4121882 -10.9291582 -15.1931825 -10.9308560 -15.2001292  -5.4078167   4.3995837
 10.3017003  -5.4053899   4.2708479 -10.9312549 -15.2251366 -10.9328121 -15.2303572  -5.4042034   4.2831296
 10.4017170  -5.4035358   4.1357247 -10.9349496 -15.2631803 -10.9368254 -15.2675543  -5.4027009   4.1282163
 10.5017336  -5.4001946   3.9972767 -10.9383261 -15.2954729 -10.9400211 -15.3032494  -5.4008229   4.0006516
 10.6017503  -5.3991918   3.8670161 -10.9412958 -15.3366331 -10.9434627 -15.3428206  -5.3977842   3.8754686
 10.7017670  -5.3959030   3.7250693 -10.9443130 -15.3777253 -10.9467076 -15.3782583  -5.3970508   3.7347532
 10.8017836  -5.3936457   3.6023298 -10.9482647 -15.4130231 -10.9497215 -15.4197185  -5.3920902   3.6084669
 10.9018003  -5.3927782   3.4810808 -10.9509086 -15.4507309 -10.9521263 -15.4582448  -5.3924642   3.4817946
 11.0018170  -5.3909782   3.3317319 -10.9536505 -15.4914581 -10.9556263 -15.4997577  -5.3913102   3.3430533
 11.1018336  -5.3871617   3.2154897 -10.9567603 -15.5441296 -10.9584030 -15.5493944  -5.3868550   3.2216133
 11.2018503  -5.3870957   3.0849831 -10.9583423 -15.5884187 -10.9609914 -15.5926653  -5.3874776   3.1116779
 11.3018670  -5.3831756   2.9756556 -10.9629750 -15.6314348 -10.9645683 -15.6350230  -5.3820116   2.9797931
 11.4018836  -5.3828716   2.8460262 -10.9649269 -15.6724875 -10.9675427 -15.6789079  -5.3835748   2.8509196
 11.5019003  -5.3793195   2.7332819 -10.9688044 -15.7098049 -10.9705749 -15.7163984  -5.3787085   2.7298390
 11.6019170  -5.3778773   2.5999041 -10.9703596 -15.7510952 -10.9722884 -15.7581428  -5.3772722   2.6008110
 11.7019337  -5.3762605   2.4706695 -10.9710244 -15.7984295 -10.9732767 -15.8059852  -5.3760208   2.4698645
 11.8019503  -5.3769044   2.3685813 -10.9738542 -15.8516941 -10.9757811 -15.8586409  -5.3750755   2.3641944
 11.9019670  -5.3753569   2.2577201 -10.9759015 -15.9043275 -10.9776411 -15.9083863  -5.3743500   2.2553767
 12.0019837  -5.3714471   2.1230955 -10.9788714 -15.9506698 -10.9809858 -15.9571223  -5.3701462   2.1289765
 12.1020003  -5.3708333   2.0121318 -10.9805053 -16.0004664 -10.9829777 -16.0089863  -5.3721194   2.0145631
 12.2020170  -5.3712792   1.9140126 -10.9834257 -16.0562479 -10.9856278 -16.0612438  -5.3688194   1.9075284
 12.3020337  -5.3667390   1.7885203 -10.9854295 -16.0985573 -10.9880484 -16.1049518  -5.3661584   1.7753586
 12.4020503  -5.3636280   1.6782311 -10.9873261 -16.1551405 -10.9893033 -16.1550358  -5.3636392   1.6836254
 12.5020670  -5.3610724   1.5531489 -10.9887746 -16.2034480 -10.9909609 -16.2103559  -5.3622189   1.5657877
 12.6020837  -5.3630078   1.4484932 -10.9907835 -16.2611875 -10.9919071 -16.2642911  -5.3624247   1.4540086
 12.7021004  -5.3616099   1.3318084 -10.9926949 -16.3220541 -10.9949201 -16.3280940  -5.3597416   1.3461553
 12.8021170  -5.3608479   1.2306485 -10.9964819 -16.3682992 -10.9983190 -16.3713886  -5.3594940   1.2316750
 12.9021337  -5.3584896   1.1134392 -10.9983938 -16.4167419 -11.0002078 -16.4242299  -5.3574547   1.1231108
 13.0021504  -5.3563220   1.0113783 -10.9997739 -16.4648690 -11.0014711 -16.4680756  -5.3570554   1.0121004
 13.1021670  -5.3540135   0.9105617 -11.0024425 -16.5224683 -11.0035713 -16.5240205  -5.3551879   0.9082485
 13.2021837  -5.3541408   0.7964341 -11.0028216 -16.5671215 -11.0047223 -16.5742267  -5.3558682   0.8056022
 13.3022004  -5.3549432   0.7008518 -11.0049469 -16.6222905 -11.0066838 -16.6219443  -5.3529830   0.7015142
 13.4022170  -5.3526994   0.5830274 -11.0052233 -16.6643126 -11.0073623 -16.6703614  -5.3523868   0.5934896
 13.5022337  -5.3509550   0.4726050 -11.0068347 -16.7214573 -11.0085773 -16.7218586  -5.3509754   0.4743130
 13.6022504  -5.3489288   0.3891394 -11.0081328 -16.7802144 -11.0091048 -16.7854802  -5.3502154   0.3861395
 13.7022670  -5.3495379   0.2836549 -11.0086574 -16.8357689 -11.0103264 -16.8355480  -5.3486152   0.2757560
 13.8022837  -5.3483334   0.1819132 -11.0094138 -16.8928014 -11.0116267 -16.8918000  -5.3478262   0.1798808
 13.9023004  -5.3499084   0.0800738 -11.0101089 -16.9521881 -11.0118199 -16.9597899  -5.3493379   0.0798034
 14.0023171  -5.3480102  -0.0158561 -11.0116373 -17.0091291 -11.0133204 -17.0107344  -5.3486090  -0.0316398
 14.1023337  -5.3482799  -0.1171930 -11.0132178 -17.0639543 -11.0146890 -17.0700906  -5.3450483  -0.1169002
 14.2023504  -5.3445821  -0.2199114 -11.0126121 -17.1187379 -11.0140844 -17.1276071  -5.3460303  -0.2191000
 14.3023671  -5.3454953  -0.3252350 -11.0132176 -17.1788802 -11.0154979 -17.1854552  -5.3441599  -0.3147096
 14.4023837  -5.3437465  -0.4265659 -11.0149475 -17.2386285 -11.0166598 -17.2457951  -5.3438603  -0.4135406
 14.5024004  -5.3413060  -0.5167080 -11.0162980 -17.2992458 -11.0181624 -17.3052871  -5.3400364  -0.5051599
 14.6024171  -5.3417716  -0.6069470 -11.0157952 -17.3539128 -11.0173423 -17.3647690  -5.3431934  -0.6121594
 14.7024337  -5.3402033  -0.7042238 -11.0168500 -17.4160540 -11.0183536 -17.4206270  -5.3429358  -0.7014046
 14.8024504  -5.3408852  -0.8091197 -11.0175436 -17.4794883 -11.0198230 -17.4857219  -5.3410801  -0.7992320
 14.9024671  -5.3386870  -0.8905363 -11.0186311 -17.5322956 -11.0205841 -17.5432962  -5.3407087  -0.8763078
 15.0024837  -5.3393508  -0.9888295 -11.0184412 -17.5998299 -11.0204039 -17.6034986  -5.3396731  -0.9860242
 15.1025004  -5.3389347  -1.0802288 -11.0194274 -17.6577627 -11.0209887 -17.6637475  -5.3390974  -1.0789853
 15.2025171  -5.3390254  -1.1682068 -11.0203567 -17.7222766 -11.0220323 -17.7242214  -5.3379692  -1.1564325
 15.3025338  -5.3387489  -1.2654329 -11.0208198 -17.7756942 -11.0227807 -17.7875460  -5.3379955  -1.2596627
 15.4025504  -5.3372595  -1.3594702 -11.0200345 -17.8480058 -11.0221535 -17.8562038  -5.3374569  -1.3452860
 15.5025671  -5.3371702  -1.4386311 -11.0206435 -17.9078141 -11.0233860 -17.9138641  -5.3359461  -1.4347873
 15.6025838  -5.3373283  -1.5366110 -11.0208055 -17.9684822 -11.0230867 -17.9730446  -5.3367920  -1.5253801
 15.7026004  -5.3362088  -1.6262111 -11.0217196 -18.0303772 -11.0232069 -18.0374085  -5.3359266  -1.6196521
 15.8026171  -5.3356125  -1.7184765 -11.0220718 -18.0944690 -11.0239007 -18.0981989  -5.3343144  -1.7072033
 15.9026338  -5.3346401  -1.8055468 -11.0222938 -18.1560634 -11.0242939 -18.1683333  -5.3337499  -1.8063923
 16.0026504  -5.3334337  -1.8873649 -11.0224774 -18.2221166 -11.0252568 -18.2287464  -5.3332922  -1.8868108
 16.1026671  -5.3316081  -1.9847006 -11.0234480 -18.2796183 -11.0255807 -18.2829974  -5.3325830  -1.9854538
 16.2026838  -5.3317973  -2.0760394 -11.0237111 -18.3439160 -11.0260192 -18.3512718  -5.3327111  -2.0668614
 16.3027005  -5.3339659  -2.1568301 -11.0232531 -18.4009052 -11.0252741 -18.4104573  -5.3318150  -2.1545630
 16.4027171  -5.3322326  -2.2404433 -11.0223831 -18.4665891 -11.0250558 -18.4693527  -5.3335609  -2.2315238
 16.5027338  -5.3312099  -2.3378463 -11.0223168 -18.5278473 -11.0246081 -18.5324200  -5.3307299  -2.3323007
 16.6027505  -5.3316750  -2.4165925 -11.0224702 -18.5905768 -11.0241365 -18.5987705  -5.3315847  -2.4203990
 16.7027671  -5.3321960  -2.5101019 -11.0218097 -18.6536138 -11.0239582 -18.6652518  -5.3336709  -2.5034945
 16.8027838  -5.3317937  -2.6006722 -11.0208389 -18.7194384 -11.0235492 -18.7279866  -5.3304177  -2.5944913
 16.9028005  -5.3288219  -2.6661728 -11.0214571 -18.7881752 -11.0237003 -18.7936526  -5.3303611  -2.6783497
 17.0028171  -5.3307606  -2.7584218 -11.0216432 -18.8614740 -11.0236552 -18.8662917  -5.3303613  -2.7523382
 17.1028338  -5.3306293  -2.8397155 -11.0209198 -18.9210617 -11.0228578 -18.9283027  -5.3287800  -2.8405444
 17.2028505  -5.3301445  -2.9315209 -11.0206320 -18.9872761 -11.0222912 -18.9946139  -5.3312632  -2.9256874
 17.3028671  -5.3314176  -2.9988575 -11.0201690 -19.0548566 -11.0223060 -19.0606018  -5.3283329  -3.0063142
 17.4028838  -5.3306218  -3.0948553 -11.0198239 -19.1233106 -11.0219669 -19.1303912  -5.3289354  -3.0879435
 17.5029005  -5.3285824  -3.1760205 -11.0196709 -19.1866001 -11.0218542 -19.1931616  -5.3280526  -3.1783355
 17.6029172  -5.3290963  -3.2503291 -11.0190035 -19.2565788 -11.0211322 -19.2602173  -5.3310569  -3.2487499
 17.7029338  -5.3281368  -3.3416965 -11.0181667 -19.3183302 -11.0205604 -19.3261647  -5.3298502  -3.3330671
 17.8029505  -5.3280238  -3.4068862 -11.0177899 -19.3919804 -11.0198253 -19.3939999  -5.3268548  -3.4103866
 17.9029672  -5.3291407  -3.4983222 -11.0173438 -19.4595442 -11.0191865 -19.4657581  -5.3287073  -3.4990201
 18.0029838  -5.3296367  -3.5658040 -11.0160097 -19.5269319 -11.0179503 -19.5332298  -5.3290115  -3.5766514
 18.1030005  -5.3298449  -3.6436065 -11.0158135 -19.5957145 -11.0175240 -19.5971697  -5.3287474  -3.6493193
 18.2030172  -5.3274883  -3.7354238 -11.0150112 -19.6636395 -11.0171668 -19.6676873  -5.3299911  -3.7418272
