! ListType=Lin
! Comment=Monoprice_5-2400MHz_2-Way_Splitter_OUT-to-OUT_IN-50ohmLoad
# MHZ S DB R 50
  0.1000000  -1.5621789 159.3349891 -14.5160098  30.9540989 -14.5111243  30.9147725  -1.5564639 159.3767433
  0.2000167  -4.0237029 140.6540075 -12.2969418  -3.4782228 -12.2953531  -3.4974615  -4.0175363 140.7048327
  0.3000333  -6.0125756 131.7296256 -12.8669306 -21.7009537 -12.8662980 -21.7182493  -6.0070720 131.7498130
  0.4000500  -7.5714856 126.8505999 -13.7425186 -32.8962072 -13.7406436 -32.9085216  -7.5691708 126.8564264
  0.5000667  -8.7516287 123.8454302 -14.5072970 -40.5262330 -14.5071022 -40.5317801  -8.7496140 123.8074304
  0.6000833  -9.6454672 121.5061142 -15.1095214 -46.3815696 -15.1075481 -46.3870600  -9.6436301 121.5036403
  0.7001000 -10.3410010 119.4117037 -15.5656661 -51.3376958 -15.5637167 -51.3427133 -10.3396563 119.4300147
  0.8001167 -10.8845233 117.3165533 -15.9304798 -55.8558751 -15.9286559 -55.8632010 -10.8840090 117.3116619
  0.9001334 -11.3358629 115.1038722 -16.2009245 -60.0649548 -16.1992933 -60.0787136 -11.3346343 115.1090076
  1.0001500 -11.7281436 112.8929352 -16.4259762 -64.0321978 -16.4252920 -64.0465184 -11.7243816 112.9212151
  1.1001667 -12.0572100 110.6731890 -16.6018358 -67.8486737 -16.6008822 -67.8619415 -12.0599933 110.6760507
  1.2001834 -12.3436036 108.4388798 -16.7484985 -71.5888536 -16.7478436 -71.6102561 -12.3396969 108.4501651
  1.3002000 -12.6077877 106.0664798 -16.8600743 -75.0521992 -16.8586795 -75.0738652 -12.6084709 106.1165123
  1.4002167 -12.8420996 103.7778365 -16.9594848 -78.4483736 -16.9578242 -78.4685392 -12.8438904 103.7802881
  1.5002334 -13.0698897 101.5015488 -17.0387034 -81.6527648 -17.0385804 -81.6833542 -13.0671779 101.5244627
  1.6002500 -13.2630209  99.2570116 -17.1201122 -84.8300106 -17.1191293 -84.8574712 -13.2621200  99.2962938
  1.7002667 -13.4469839  97.0117744 -17.1792555 -87.8058240 -17.1784916 -87.8357110 -13.4482342  97.0534999
  1.8002834 -13.6237651  94.8630435 -17.2336080 -90.6626859 -17.2313548 -90.6906322 -13.6206941  94.8599216
  1.9003001 -13.7911337  92.7480723 -17.2820146 -93.3879716 -17.2798786 -93.4199742 -13.7833243  92.7711620
  2.0003167 -13.9387126  90.6433186 -17.3184432 -95.9937110 -17.3174334 -96.0317895 -13.9404878  90.6895806
  2.1003334 -14.0826123  88.6567602 -17.3529247 -98.4969075 -17.3515894 -98.5256973 -14.0772385  88.7209406
  2.2003501 -14.2143062  86.7118506 -17.3842241 -100.8585237 -17.3830166 -100.8982680 -14.2105552  86.7684420
  2.3003667 -14.3415729  84.8179351 -17.4102686 -103.1141077 -17.4097361 -103.1470669 -14.3392256  84.8955119
  2.4003834 -14.4553014  83.0032696 -17.4324590 -105.3264085 -17.4318901 -105.3639160 -14.4512580  83.0408794
  2.5004001 -14.5725069  81.2213602 -17.4505196 -107.4049393 -17.4500338 -107.4359402 -14.5720396  81.2923403
  2.6004167 -14.6691620  79.5192054 -17.4656158 -109.3436601 -17.4662216 -109.3733125 -14.6671748  79.5474616
  2.7004334 -14.7719176  77.8231469 -17.4837526 -111.2912078 -17.4821869 -111.3241757 -14.7687657  77.8350961
  2.8004501 -14.8587191  76.1827242 -17.4998324 -113.1201067 -17.4990567 -113.1377187 -14.8545014  76.2523370
  2.9004667 -14.9529567  74.6447080 -17.5134169 -114.8532859 -17.5138201 -114.8763238 -14.9573364  74.6928781
  3.0004834 -15.0455963  73.1059604 -17.5302986 -116.5015846 -17.5305733 -116.5284477 -15.0385489  73.1769203
  3.1005001 -15.1177425  71.6999308 -17.5392463 -118.0731179 -17.5387523 -118.0924740 -15.1147652  71.7487094
  3.2005168 -15.1906799  70.2516678 -17.5484985 -119.5738227 -17.5493819 -119.5939197 -15.1931934  70.3230712
  3.3005334 -15.2676494  68.9559602 -17.5535612 -121.0051447 -17.5534739 -121.0273372 -15.2636340  69.0314554
  3.4005501 -15.3259064  67.6243259 -17.5503723 -122.3897274 -17.5514268 -122.4189542 -15.3199612  67.6871678
  3.5005668 -15.3921114  66.2570123 -17.5584814 -123.7992230 -17.5589630 -123.8231082 -15.3823951  66.3002369
  3.6005834 -15.4554621  65.0625558 -17.5677133 -125.0850598 -17.5675898 -125.1143189 -15.4432777  65.1212102
  3.7006001 -15.5128772  63.8663086 -17.5718557 -126.3150031 -17.5732849 -126.3361503 -15.5033807  63.9606640
  3.8006168 -15.5573072  62.7325570 -17.5719624 -127.4991606 -17.5727433 -127.5169227 -15.5567909  62.7848426
  3.9006334 -15.6134726  61.5629003 -17.5742068 -128.6575688 -17.5752980 -128.6682708 -15.6111253  61.6032019
  4.0006501 -15.6575539  60.4980121 -17.5786086 -129.7859049 -17.5801004 -129.8023937 -15.6515271  60.5388916
  4.1006668 -15.7027869  59.4258719 -17.5833922 -130.8394507 -17.5837086 -130.8653567 -15.6932190  59.4969408
  4.2006834 -15.7488340  58.4294366 -17.5856809 -131.8499053 -17.5864641 -131.8687054 -15.7439762  58.4577557
  4.3007001 -15.7894553  57.4121929 -17.5884912 -132.8447498 -17.5884591 -132.8700421 -15.7792419  57.4811298
  4.4007168 -15.8266159  56.4803111 -17.5908352 -133.7907718 -17.5922190 -133.8085918 -15.8146877  56.5471289
  4.5007335 -15.8701445  55.5911715 -17.5930074 -134.6860852 -17.5931279 -134.7045328 -15.8612234  55.6058031
  4.6007501 -15.8987366  54.6549012 -17.5920422 -135.5419038 -17.5924727 -135.5698176 -15.8942076  54.7082796
  4.7007668 -15.9356880  53.8024721 -17.5882811 -136.4231963 -17.5894276 -136.4404285 -15.9264519  53.8664613
  4.8007835 -15.9610371  52.9490678 -17.5917047 -137.2480018 -17.5920391 -137.2776550 -15.9531805  53.0165616
  4.9008001 -15.9936523  52.1511819 -17.5913878 -138.0306867 -17.5919816 -138.0519116 -15.9831878  52.1677927
  5.0008168 -16.0114747  51.3449360 -17.5896985 -138.7937975 -17.5905888 -138.8223704 -16.0028527  51.3942593
  5.1008335 -16.0397666  50.5238889 -17.5861328 -139.5298894 -17.5868321 -139.5504462 -16.0297344  50.5636545
  5.2008501 -16.0584094  49.8023500 -17.5817450 -140.2762109 -17.5827800 -140.2964844 -16.0533806  49.8574694
  5.3008668 -16.0858979  49.0981836 -17.5848870 -140.9793667 -17.5863909 -141.0100477 -16.0835729  49.1398899
  5.4008835 -16.1080124  48.4138014 -17.5829811 -141.6373524 -17.5845305 -141.6539316 -16.1016722  48.4212757
  5.5009002 -16.1200973  47.7035863 -17.5829750 -142.2851035 -17.5831722 -142.3014128 -16.1173800  47.7384871
  5.6009168 -16.1451476  47.1035836 -17.5804704 -142.8599762 -17.5808798 -142.8771410 -16.1367880  47.1382663
  5.7009335 -16.1578022  46.4581759 -17.5657231 -143.4330339 -17.5666361 -143.4603791 -16.1435387  46.5016515
  5.8009502 -16.1569472  45.8431850 -17.5437288 -144.0676876 -17.5457692 -144.0817058 -16.1431207  45.8692907
  5.9009668 -16.1564623  45.0585097 -17.5327391 -144.7583027 -17.5340889 -144.7750997 -16.1533156  45.0921803
  6.0009835 -16.1881596  44.3545176 -17.5374509 -145.4355119 -17.5373199 -145.4616604 -16.1831985  44.3879148
  6.1010002 -16.1998177  43.7578287 -17.5425674 -146.0060878 -17.5421275 -146.0178930 -16.1911620  43.8253345
  6.2010168 -16.2222861  43.1804220 -17.5414598 -146.5550108 -17.5416735 -146.5824948 -16.2085089  43.1659895
  6.3010335 -16.2361666  42.6075218 -17.5395404 -147.1064520 -17.5403293 -147.1220151 -16.2356333  42.6061493
  6.4010502 -16.2479376  42.0027217 -17.5405338 -147.6354723 -17.5418097 -147.6545527 -16.2445871  42.0289091
  6.5010668 -16.2473459  41.4356413 -17.5390902 -148.1331120 -17.5390096 -148.1570093 -16.2448372  41.4955440
  6.6010835 -16.2687180  40.9885021 -17.5348386 -148.6165946 -17.5359340 -148.6392233 -16.2591237  41.0184126
  6.7011002 -16.2872605  40.4161590 -17.5303622 -149.1144327 -17.5309832 -149.1341516 -16.2749549  40.4663729
  6.8011169 -16.2958036  39.9232938 -17.5279443 -149.5939229 -17.5291127 -149.6121636 -16.2866182  39.9560249
  6.9011335 -16.2987700  39.3920226 -17.5230782 -150.0717382 -17.5237843 -150.0955704 -16.2974164  39.4331131
  7.0011502 -16.3120497  38.8908807 -17.5247767 -150.5540796 -17.5263302 -150.5754660 -16.3099170  38.9598850
  7.1011669 -16.3234022  38.4403297 -17.5264800 -150.9935381 -17.5272074 -151.0081101 -16.3152387  38.5169353
  7.2011835 -16.3307368  37.9447184 -17.5253518 -151.4024670 -17.5258149 -151.4245205 -16.3244832  37.9719840
  7.3012002 -16.3484853  37.4984970 -17.5203890 -151.8143696 -17.5216772 -151.8339453 -16.3370959  37.5574441
  7.4012169 -16.3534888  37.0338101 -17.5185340 -152.2217156 -17.5192149 -152.2358332 -16.3404841  37.0472963
  7.5012335 -16.3580705  36.6772281 -17.5133317 -152.6283951 -17.5146858 -152.6396065 -16.3461206  36.6999565
  7.6012502 -16.3623547  36.2019910 -17.5100217 -153.0175691 -17.5111723 -153.0371140 -16.3593438  36.2683045
  7.7012669 -16.3718150  35.8228410 -17.5076059 -153.4079408 -17.5089356 -153.4172982 -16.3684657  35.8267869
  7.8012835 -16.3755552  35.3993115 -17.5020935 -153.7667871 -17.5039012 -153.7826951 -16.3621556  35.4911874
  7.9013002 -16.3687087  35.0325866 -17.4897652 -154.1487200 -17.4909308 -154.1741169 -16.3636316  35.0126140
  8.0013169 -16.3773321  34.5253459 -17.4866377 -154.5995748 -17.4889294 -154.6211408 -16.3712787  34.5286507
  8.1013336 -16.3887847  34.0840076 -17.4910461 -154.9778684 -17.4922987 -154.9994073 -16.3718181  34.1510090
  8.2013502 -16.3998899  33.7247433 -17.4920375 -155.3479768 -17.4933160 -155.3659780 -16.3879716  33.8147694
  8.3013669 -16.3985978  33.3300088 -17.4939307 -155.6910851 -17.4949188 -155.7123171 -16.3891746  33.4097093
  8.4013836 -16.4070077  32.9931933 -17.4953409 -156.0156748 -17.4965994 -156.0300083 -16.4004571  33.0471348
  8.5014002 -16.4104873  32.6766830 -17.4930841 -156.3209619 -17.4946420 -156.3371240 -16.4012542  32.7260286
  8.6014169 -16.4156165  32.3290484 -17.4872868 -156.6312922 -17.4894250 -156.6499071 -16.4107452  32.3637854
  8.7014336 -16.4220521  31.9421398 -17.4822533 -156.9814373 -17.4839990 -156.9925720 -16.4192210  31.9912446
  8.8014502 -16.4260001  31.6158265 -17.4819969 -157.3130481 -17.4829051 -157.3258723 -16.4175243  31.6673540
  8.9014669 -16.4306008  31.3047630 -17.4814326 -157.6269391 -17.4835795 -157.6433308 -16.4228501  31.3981898
  9.0014836 -16.4329756  31.0088162 -17.4844935 -157.9300597 -17.4853030 -157.9482486 -16.4288578  31.0046294
  9.1015003 -16.4447310  30.6707202 -17.4837889 -158.2025258 -17.4852708 -158.2195581 -16.4358497  30.7483681
  9.2015169 -16.4431647  30.3763256 -17.4793495 -158.4704729 -17.4799002 -158.4898310 -16.4405589  30.4387564
  9.3015336 -16.4439049  30.0253716 -17.4752921 -158.7629031 -17.4769389 -158.7789592 -16.4316653  30.0997804
  9.4015503 -16.4487489  29.7716403 -17.4723401 -159.0194640 -17.4735093 -159.0359387 -16.4421881  29.8463710
  9.5015669 -16.4448592  29.5079428 -17.4617054 -159.2766182 -17.4632365 -159.2941978 -16.4393234  29.5396998
  9.6015836 -16.4340457  29.1957655 -17.4469717 -159.5667964 -17.4488718 -159.5858663 -16.4215276  29.2005953
  9.7016003 -16.4283085  28.7989365 -17.4382298 -159.9588709 -17.4395844 -159.9752646 -16.4263902  28.8227345
  9.8016169 -16.4461138  28.3526096 -17.4437184 -160.3026544 -17.4458501 -160.3245081 -16.4367395  28.3704612
  9.9016336 -16.4466311  28.1101566 -17.4486844 -160.6040279 -17.4505786 -160.6181503 -16.4430169  28.1896965
 10.0016503 -16.4629289  27.8442834 -17.4538754 -160.8907955 -17.4544832 -160.9033607 -16.4530544  27.8762445
 10.1016669 -16.4668640  27.5455446 -17.4580109 -161.1610785 -17.4590373 -161.1772283 -16.4660755  27.6129338
 10.2016836 -16.4796105  27.3071083 -17.4613697 -161.4091917 -17.4632772 -161.4246915 -16.4687172  27.3561238
 10.3017003 -16.4841831  27.0581454 -17.4651236 -161.6554617 -17.4665252 -161.6747886 -16.4797423  27.1282065
 10.4017170 -16.4891425  26.7874263 -17.4671283 -161.8922774 -17.4688070 -161.9092824 -16.4835904  26.8190670
 10.5017336 -16.4937120  26.5941098 -17.4689764 -162.1278525 -17.4702135 -162.1466935 -16.4905588  26.6182473
 10.6017503 -16.4996467  26.2872667 -17.4694459 -162.3612578 -17.4707219 -162.3776972 -16.4903655  26.3498443
 10.7017670 -16.5014121  26.0690004 -17.4715265 -162.5884782 -17.4732232 -162.6087099 -16.4944877  26.1048567
 10.8017836 -16.5054550  25.8499363 -17.4719514 -162.8154025 -17.4747539 -162.8310742 -16.4994920  25.8842485
 10.9018003 -16.5070096  25.6357340 -17.4736852 -163.0367549 -17.4754422 -163.0552095 -16.5066768  25.6656241
 11.0018170 -16.5177012  25.3765172 -17.4736931 -163.2624488 -17.4756831 -163.2719270 -16.5087578  25.4035340
 11.1018336 -16.5125912  25.1964375 -17.4752312 -163.4727625 -17.4772887 -163.4881591 -16.5018968  25.1757523
 11.2018503 -16.5269860  24.9466023 -17.4753558 -163.6836174 -17.4764386 -163.7011137 -16.5212203  24.9731817
 11.3018670 -16.5209496  24.7229945 -17.4744347 -163.8938446 -17.4762635 -163.9123327 -16.5076919  24.7692142
 11.4018836 -16.5291483  24.5432760 -17.4751424 -164.1080704 -17.4774011 -164.1230819 -16.5229796  24.5973370
 11.5019003 -16.5268535  24.3307877 -17.4757230 -164.3161892 -17.4775004 -164.3319169 -16.5209101  24.3267329
 11.6019170 -16.5353920  24.0882233 -17.4779142 -164.5193123 -17.4800242 -164.5389541 -16.5267110  24.1204545
 11.7019337 -16.5389573  23.8889493 -17.4786422 -164.7242713 -17.4802932 -164.7373764 -16.5352343  23.9002507
 11.8019503 -16.5413648  23.6784535 -17.4802149 -164.9149664 -17.4821545 -164.9286790 -16.5359918  23.7125964
 11.9019670 -16.5554193  23.5549879 -17.4811736 -165.0999088 -17.4822990 -165.1168457 -16.5420566  23.5529693
 12.0019837 -16.5406930  23.2935105 -17.4820669 -165.2860129 -17.4832948 -165.3034224 -16.5373986  23.3081328
 12.1020003 -16.5493482  23.0945641 -17.4805530 -165.4799977 -17.4820610 -165.4979026 -16.5421975  23.1584140
 12.2020170 -16.5506956  22.9332978 -17.4805473 -165.6665902 -17.4824677 -165.6880734 -16.5400384  22.9943605
 12.3020337 -16.5482328  22.7195778 -17.4817994 -165.8514393 -17.4834134 -165.8652483 -16.5446050  22.7236154
 12.4020503 -16.5513135  22.5328026 -17.4824622 -166.0306108 -17.4845683 -166.0487966 -16.5532498  22.5684616
 12.5020670 -16.5515762  22.3323445 -17.4833965 -166.2080873 -17.4850115 -166.2255294 -16.5415230  22.3684244
 12.6020837 -16.5547399  22.1475727 -17.4821752 -166.3787299 -17.4836503 -166.3994795 -16.5512895  22.2045558
 12.7021004 -16.5572878  22.0480295 -17.4821464 -166.5578446 -17.4834664 -166.5745012 -16.5568263  22.0471872
 12.8021170 -16.5603624  21.8705853 -17.4814050 -166.7338308 -17.4834221 -166.7543476 -16.5504095  21.8706874
 12.9021337 -16.5592504  21.6498918 -17.4807383 -166.9191506 -17.4830483 -166.9363827 -16.5538447  21.6612030
 13.0021504 -16.5639140  21.5100011 -17.4812185 -167.0867971 -17.4824763 -167.1116585 -16.5582516  21.4935963
 13.1021670 -16.5578906  21.3281354 -17.4822661 -167.2701436 -17.4852054 -167.2893272 -16.5559017  21.3601113
 13.2021837 -16.5671148  21.1744001 -17.4838292 -167.4467347 -17.4847650 -167.4623918 -16.5579247  21.1598375
 13.3022004 -16.5685434  20.9927332 -17.4859456 -167.6149331 -17.4876632 -167.6308807 -16.5691314  21.0173666
 13.4022170 -16.5722413  20.8017671 -17.4880424 -167.7754968 -17.4896200 -167.7930820 -16.5714628  20.8423154
 13.5022337 -16.5738241  20.6391919 -17.4900308 -167.9380161 -17.4916086 -167.9498710 -16.5728805  20.6855699
 13.6022504 -16.5802856  20.5230875 -17.4912793 -168.0937403 -17.4928069 -168.1067108 -16.5738854  20.5422798
 13.7022670 -16.5829499  20.3457114 -17.4920852 -168.2424656 -17.4943004 -168.2647713 -16.5755818  20.3470911
 13.8022837 -16.5883090  20.2472953 -17.4934462 -168.3996638 -17.4954149 -168.4200942 -16.5757106  20.2816985
 13.9023004 -16.5828371  20.0716443 -17.4932917 -168.5531254 -17.4955783 -168.5641644 -16.5747092  20.1183233
 14.0023171 -16.5898988  19.8886993 -17.4958350 -168.7037271 -17.4974409 -168.7197555 -16.5850397  19.9468050
 14.1023337 -16.5829802  19.7458774 -17.4963819 -168.8497832 -17.4982842 -168.8635679 -16.5815437  19.8125188
 14.2023504 -16.5940517  19.6331110 -17.4969420 -168.9958548 -17.4982964 -169.0151486 -16.5913319  19.6495639
 14.3023671 -16.5947760  19.4265890 -17.4979862 -169.1409443 -17.5000290 -169.1513110 -16.5898304  19.5189620
 14.4023837 -16.5955193  19.3038488 -17.4994543 -169.2858917 -17.5009381 -169.2974689 -16.5886591  19.3640690
 14.5024004 -16.5884282  19.1857407 -17.5000231 -169.4328695 -17.5016229 -169.4503090 -16.5855186  19.2083141
 14.6024171 -16.5950168  19.0563052 -17.5008307 -169.5750740 -17.5022942 -169.5904955 -16.5921698  19.0672620
 14.7024337 -16.6035662  18.9086828 -17.5013223 -169.7104010 -17.5036976 -169.7245988 -16.5965121  18.9584370
 14.8024504 -16.5998605  18.7213133 -17.5017242 -169.8594810 -17.5035305 -169.8705443 -16.5908866  18.8063279
 14.9024671 -16.6044098  18.6507471 -17.5041578 -169.9946568 -17.5055058 -170.0067695 -16.5899308  18.6467354
 15.0024837 -16.6112605  18.5621487 -17.5047783 -170.1344683 -17.5059217 -170.1445713 -16.6008152  18.5689371
 15.1025004 -16.6101325  18.3900310 -17.5065688 -170.2709711 -17.5081021 -170.2822544 -16.6005696  18.4668121
 15.2025171 -16.6093017  18.3142992 -17.5071667 -170.4108381 -17.5085913 -170.4154083 -16.6035193  18.3213151
 15.3025338 -16.6091306  18.1248861 -17.5084608 -170.5322582 -17.5094661 -170.5463120 -16.6006694  18.1277685
 15.4025504 -16.6117279  18.0824704 -17.5092720 -170.6700740 -17.5106506 -170.6818885 -16.6077186  18.0708556
 15.5025671 -16.6085668  17.9308840 -17.5096319 -170.7922764 -17.5118182 -170.8128494 -16.6074504  17.9180314
 15.6025838 -16.6133994  17.8173853 -17.5118074 -170.9223526 -17.5131758 -170.9372453 -16.6063737  17.7980884
 15.7026004 -16.6168104  17.7062826 -17.5124175 -171.0556246 -17.5136494 -171.0628014 -16.6152200  17.6782997
 15.8026171 -16.6162101  17.5251157 -17.5134990 -171.1751781 -17.5146792 -171.1899054 -16.6119726  17.5239487
 15.9026338 -16.6187171  17.4303890 -17.5138171 -171.3054054 -17.5151249 -171.3138758 -16.6119543  17.4365373
 16.0026504 -16.6269404  17.3202273 -17.5140241 -171.4271504 -17.5154729 -171.4420772 -16.6200674  17.3485514
 16.1026671 -16.6230038  17.1451985 -17.5144321 -171.5568093 -17.5162219 -171.5741876 -16.6136483  17.1881551
 16.2026838 -16.6175687  17.0937490 -17.5165110 -171.6947345 -17.5183635 -171.7094357 -16.6156743  17.1272277
 16.3027005 -16.6291385  16.9516673 -17.5187095 -171.8168509 -17.5207656 -171.8312754 -16.6223772  17.0034935
 16.4027171 -16.6290345  16.8948898 -17.5202614 -171.9402600 -17.5232295 -171.9547524 -16.6204771  16.9127822
 16.5027338 -16.6301874  16.7723351 -17.5230535 -172.0557710 -17.5253013 -172.0690562 -16.6202949  16.7456282
 16.6027505 -16.6372952  16.6394975 -17.5256735 -172.1722186 -17.5264748 -172.1891582 -16.6238996  16.6437354
 16.7027671 -16.6418319  16.5704384 -17.5261546 -172.2905619 -17.5289149 -172.3055977 -16.6306422  16.5801538
 16.8027838 -16.6345264  16.4121460 -17.5280527 -172.4055112 -17.5302230 -172.4176821 -16.6252559  16.4563740
 16.9028005 -16.6397205  16.3499516 -17.5303457 -172.5134706 -17.5312044 -172.5328540 -16.6278334  16.3791180
 17.0028171 -16.6334779  16.2835929 -17.5311727 -172.6317247 -17.5339533 -172.6479609 -16.6290230  16.2710444
 17.1028338 -16.6341878  16.1730261 -17.5325347 -172.7349805 -17.5339564 -172.7479225 -16.6313972  16.1876309
 17.2028505 -16.6392075  16.0494343 -17.5338115 -172.8511020 -17.5356895 -172.8656488 -16.6350754  16.0670796
 17.3028671 -16.6513048  15.9780754 -17.5363636 -172.9668584 -17.5376264 -172.9750970 -16.6376696  15.9478614
 17.4028838 -16.6480520  15.8396140 -17.5379234 -173.0769804 -17.5394755 -173.0927164 -16.6417945  15.8466931
 17.5029005 -16.6514572  15.7059834 -17.5392862 -173.1787183 -17.5414709 -173.1947319 -16.6415370  15.7548790
 17.6029172 -16.6473474  15.6653929 -17.5405282 -173.2838299 -17.5427602 -173.2987517 -16.6404460  15.6845220
 17.7029338 -16.6450156  15.5438874 -17.5432378 -173.3856742 -17.5442812 -173.4041347 -16.6428944  15.5505938
 17.8029505 -16.6413204  15.4644714 -17.5441935 -173.4987273 -17.5449847 -173.5082077 -16.6369973  15.4774382
 17.9029672 -16.6518712  15.3848201 -17.5460231 -173.6010825 -17.5486819 -173.6147845 -16.6370888  15.4022731
