! ListType=Lin
! Comment=Monoprice_5-2400MHz_2-Way_Splitter_OUT-to-OUT_IN-50ohmLoad_0.001-to-1MHz
# MHZ S DB R 50
  0.0010000  -0.5747948 -22.1752184 -24.3953143 126.0733088 -24.4081755 126.0685202  -0.5766050 -22.1980811
  0.0019775  -1.0937431 -38.1511682 -16.4262612  94.4712184 -16.3609794  94.2049548  -1.1492371 -38.9728548
  0.0029550  -1.4409245 -51.5684509 -12.6790801  72.2947514 -12.7621787  72.6460374  -1.4954500 -51.7048025
  0.0039326  -1.7751787 -63.7673142 -10.9267154  55.7739413 -10.9284005  55.7754987  -1.7788522 -63.7883995
  0.0049101  -1.8235801 -74.3931643  -9.7969904  42.3617913  -9.8111849  42.5971853  -1.8325261 -74.3847495
  0.0058876  -1.9613119 -82.9151308  -9.1333588  32.2423988  -9.1114428  32.0669013  -1.9777962 -82.9305436
  0.0068651  -1.9429872 -90.6329715  -8.7116975  22.5928933  -8.7165543  22.6098046  -1.9488433 -90.6160555
  0.0078426  -1.8579122 -96.9709184  -8.4704950  14.4843585  -8.4847341  14.4859131  -1.8697980 -97.0346594
  0.0088201  -1.8410228 -103.0383041  -8.4611581   7.6360212  -8.4463368   7.6533366  -1.8294124 -103.0894452
  0.0097977  -1.7291245 -108.0202168  -8.4548802   1.1133801  -8.4593378   1.1153412  -1.7342546 -108.0190681
  0.0107752  -1.6099168 -112.4920871  -8.5317780  -4.5590863  -8.5455631  -4.5746417  -1.6252687 -112.5175438
  0.0117527  -1.5307647 -116.5464380  -8.7047564  -9.8380476  -8.6987141  -9.8615904  -1.5117207 -116.5863515
  0.0127302  -1.4086078 -120.4620578  -8.8945390 -14.6618573  -8.8960901 -14.6554536  -1.4053375 -120.4606163
  0.0137077  -1.2749217 -123.8458618  -9.1150002 -19.1301157  -9.1193611 -19.1275837  -1.2858701 -123.7989906
  0.0146852  -1.1743005 -127.0552730  -9.3809415 -23.2475640  -9.3852098 -23.2434009  -1.1779809 -126.9685826
  0.0156628  -1.0787828 -129.8956125  -9.6656499 -27.0312508  -9.6676875 -27.0308396  -1.0801959 -129.9185187
  0.0166403  -0.9840915 -132.6154401  -9.9748216 -30.6208036  -9.9770221 -30.6281434  -0.9907206 -132.6419586
  0.0176178  -0.8930044 -135.1915667 -10.3087135 -33.9553663 -10.3108011 -33.9537761  -0.8964724 -135.1989808
  0.0185953  -0.7981447 -137.5569212 -10.6497841 -37.1198655 -10.6514182 -37.1261892  -0.7995447 -137.5488529
  0.0195728  -0.7055182 -139.9008882 -11.0125996 -40.1335128 -11.0153048 -40.1260571  -0.7117112 -139.8491075
  0.0205503  -0.6485676 -142.0079763 -11.3984690 -42.8722223 -11.3983782 -42.8746120  -0.6509798 -141.9504610
  0.0215279  -0.5891109 -143.9366586 -11.7925042 -45.4848429 -11.7948588 -45.4853693  -0.5900646 -143.9455050
  0.0225054  -0.5343619 -145.8490618 -12.2065806 -47.9659025 -12.2075949 -47.9624504  -0.5338558 -145.8676570
  0.0234829  -0.4827934 -147.6837379 -12.6324683 -50.2970401 -12.6349801 -50.3054856  -0.4790672 -147.6774470
  0.0244604  -0.4267278 -149.3935353 -13.0683893 -52.5155582 -13.0696490 -52.5113644  -0.4267283 -149.3885373
  0.0254379  -0.3823291 -151.0329157 -13.5263792 -54.5906040 -13.5289549 -54.5937601  -0.3848460 -151.0304568
  0.0264154  -0.3436520 -152.6155264 -13.9949158 -56.5512369 -13.9956619 -56.5484823  -0.3447817 -152.6066515
  0.0273930  -0.3119213 -154.1198796 -14.4847756 -58.3958218 -14.4876846 -58.4020915  -0.3131750 -154.1328072
  0.0283705  -0.2795730 -155.5735892 -14.9867599 -60.1334956 -14.9893867 -60.1329471  -0.2816181 -155.5738189
  0.0293480  -0.2535061 -156.9634598 -15.5082904 -61.7640637 -15.5099814 -61.7624612  -0.2540225 -156.9507171
  0.0303255  -0.2352656 -158.2977815 -16.0508574 -63.2612885 -16.0535905 -63.2728906  -0.2353831 -158.3161168
  0.0313030  -0.2134952 -159.5697131 -16.6113523 -64.6538962 -16.6141133 -64.6517190  -0.2165103 -159.5627682
  0.0322805  -0.1977289 -160.8017326 -17.1968793 -65.9269382 -17.2005738 -65.9304637  -0.1992211 -160.8109638
  0.0332581  -0.1842316 -161.9899501 -17.8080451 -67.0790275 -17.8093070 -67.0728277  -0.1848556 -161.9904047
  0.0342356  -0.1750735 -163.1428297 -18.4456117 -68.0900477 -18.4475400 -68.0928690  -0.1741261 -163.1442703
  0.0352131  -0.1650336 -164.2557961 -19.1114411 -68.9949350 -19.1177702 -68.9787560  -0.1668261 -164.2740901
  0.0361906  -0.1601259 -165.3108663 -19.8175619 -69.6880143 -19.8196045 -69.6758818  -0.1615198 -165.3110050
  0.0371681  -0.1573079 -166.3663021 -20.5603214 -70.2220575 -20.5636526 -70.2339126  -0.1562967 -166.3654722
  0.0381457  -0.1501679 -167.3541630 -21.3439940 -70.5431312 -21.3471456 -70.5315857  -0.1521229 -167.3676051
  0.0391232  -0.1525771 -168.3289746 -22.1783917 -70.6184634 -22.1827345 -70.6171848  -0.1533304 -168.3348979
  0.0401007  -0.1562742 -169.2619945 -23.0721406 -70.3852803 -23.0773506 -70.3852988  -0.1570157 -169.2738544
  0.0410782  -0.1577882 -170.1743596 -24.0331771 -69.7697713 -24.0368736 -69.7534673  -0.1598767 -170.1778074
  0.0420557  -0.1637314 -171.0779471 -25.0656770 -68.6656917 -25.0695023 -68.6656178  -0.1639033 -171.0870949
  0.0430332  -0.1699921 -171.9277434 -26.1856918 -66.9126922 -26.1945993 -66.8940721  -0.1712494 -171.9386972
  0.0440108  -0.1757509 -172.7810677 -27.3972567 -64.2606789 -27.4065999 -64.2385888  -0.1774497 -172.7919068
  0.0449883  -0.1857032 -173.5836453 -28.7055219 -60.3733617 -28.7134918 -60.3686480  -0.1860857 -173.5906920
  0.0459658  -0.1953337 -174.3803835 -30.0988546 -54.7669030 -30.1059427 -54.7770329  -0.1964816 -174.3903371
  0.0469433  -0.2060045 -175.1505925 -31.5100113 -46.7166657 -31.5157579 -46.6855153  -0.2071002 -175.1519795
  0.0479208  -0.2179205 -175.9135667 -32.7911930 -35.5971988 -32.7913370 -35.5178782  -0.2197437 -175.9171348
  0.0488983  -0.2319219 -176.6322314 -33.6573464 -21.2168085 -33.6632606 -21.1771621  -0.2323201 -176.6503731
  0.0498759  -0.2442704 -177.3493399 -33.8382487  -5.3472868 -33.8366952  -5.2548332  -0.2468439 -177.3476581
  0.0508534  -0.2597830 -178.0464020 -33.2943114   9.5343414 -33.2871909   9.6142204  -0.2603858 -178.0534864
  0.0518309  -0.2738697 -178.7368616 -32.2835948  21.4061378 -32.2754441  21.4026149  -0.2757973 -178.7458924
  0.0528084  -0.2896520 -179.4042724 -31.1072874  30.0950577 -31.0990158  30.1459433  -0.2908054 -179.4152879
  0.0537859  -0.3073563 179.9458527 -29.9209039  36.2875035 -29.9134900  36.3097921  -0.3079162 179.9478139
  0.0547634  -0.3226047 179.3095677 -28.8158547  40.6587440 -28.8024159  40.6777385  -0.3251452 179.2973203
  0.0557410  -0.3414924 178.6951671 -27.8035082  43.7925938 -27.7948997  43.8135664  -0.3435430 178.6840826
  0.0567185  -0.3621006 178.0795435 -26.8861870  46.0343101 -26.8770331  46.0504303  -0.3631516 178.0781172
  0.0576960  -0.3826612 177.4870270 -26.0502687  47.6243198 -26.0488555  47.6331279  -0.3825778 177.4786728
  0.0586735  -0.3992276 176.9005738 -25.2962063  48.7431553 -25.2917779  48.7724171  -0.4012280 176.8999276
  0.0596510  -0.4192161 176.3353029 -24.6099996  49.5387489 -24.6068466  49.5206018  -0.4200850 176.3354446
  0.0606285  -0.4407825 175.7776947 -23.9819980  50.0514861 -23.9782396  50.0734984  -0.4411916 175.7745852
  0.0616061  -0.4604309 175.2233228 -23.4055593  50.3562855 -23.4012754  50.3542160  -0.4606789 175.2307223
  0.0625836  -0.4825548 174.7053631 -22.8715833  50.5130279 -22.8683595  50.5259943  -0.4813202 174.6924549
  0.0635611  -0.5006306 174.1746850 -22.3808308  50.5404706 -22.3766517  50.5451380  -0.5026465 174.1743046
  0.0645386  -0.5259102 173.6580710 -21.9249980  50.4394183 -21.9221140  50.4361860  -0.5258560 173.6548781
  0.0655161  -0.5465669 173.1451295 -21.4986027  50.2985119 -21.4958798  50.2955363  -0.5487600 173.1482503
  0.0664936  -0.5695938 172.6534316 -21.1022962  50.0712672 -21.0999905  50.0747652  -0.5688958 172.6333437
  0.0674712  -0.5891356 172.1675276 -20.7307993  49.7820804 -20.7271676  49.7921594  -0.5916931 172.1638316
  0.0684487  -0.6122815 171.6854519 -20.3778175  49.4875265 -20.3763103  49.4662456  -0.6139413 171.6821450
  0.0694262  -0.6356822 171.2071121 -20.0489349  49.1006080 -20.0475093  49.1074488  -0.6393565 171.2129258
  0.0704037  -0.6604420 170.7715287 -19.7360152  48.6996271 -19.7382878  48.7006628  -0.6621508 170.7601646
  0.0713812  -0.6828598 170.3038242 -19.4446288  48.2844986 -19.4440104  48.2898376  -0.6827313 170.2893225
  0.0723587  -0.7057309 169.8581293 -19.1671081  47.8543114 -19.1639964  47.8484402  -0.7078746 169.8496416
  0.0733363  -0.7298918 169.4143017 -18.9044356  47.3753866 -18.9025576  47.3722796  -0.7327441 169.4112633
  0.0743138  -0.7547648 168.9903432 -18.6557927  46.9053328 -18.6532083  46.8993009  -0.7559935 168.9925560
  0.0752913  -0.7778544 168.5711206 -18.4176666  46.4155861 -18.4164790  46.4116052  -0.7801519 168.5567345
  0.0762688  -0.8010094 168.1412310 -18.1918700  45.9050110 -18.1888097  45.8952629  -0.8029051 168.1375707
  0.0772463  -0.8273490 167.7270865 -17.9738215  45.4047478 -17.9744155  45.4007724  -0.8275190 167.7147733
  0.0782239  -0.8521452 167.3282857 -17.7694205  44.8927027 -17.7688617  44.8851663  -0.8539326 167.3246848
  0.0792014  -0.8734140 166.9339779 -17.5727335  44.3843776 -17.5719472  44.3739568  -0.8748662 166.9367760
  0.0801789  -0.9004046 166.5509533 -17.3840029  43.8480733 -17.3832465  43.8427530  -0.8991283 166.5510518
  0.0811564  -0.9236961 166.1525180 -17.2040502  43.3132459 -17.2034649  43.3100155  -0.9222046 166.1387215
  0.0821339  -0.9470716 165.7645585 -17.0305642  42.7920785 -17.0290965  42.7872173  -0.9505909 165.7657476
  0.0831114  -0.9729322 165.4069301 -16.8656490  42.2698935 -16.8645579  42.2573340  -0.9744812 165.4088049
  0.0840890  -0.9974262 165.0421799 -16.7065037  41.7348801 -16.7064483  41.7295581  -0.9992104 165.0298837
  0.0850665  -1.0237649 164.6621826 -16.5556859  41.1892950 -16.5529301  41.1733353  -1.0253616 164.6620965
  0.0860440  -1.0496784 164.2889965 -16.4095535  40.6475257 -16.4101412  40.6429173  -1.0501180 164.2971704
  0.0870215  -1.0738077 163.9453111 -16.2689517  40.1332829 -16.2681570  40.1196961  -1.0743500 163.9501501
  0.0879990  -1.0995581 163.6139183 -16.1320897  39.6106936 -16.1311294  39.6001673  -1.0983058 163.5955042
  0.0889765  -1.1256528 163.2432983 -16.0018707  39.0568133 -16.0016366  39.0519612  -1.1241490 163.2443197
  0.0899541  -1.1479533 162.9162346 -15.8780186  38.5333391 -15.8777157  38.5166647  -1.1485014 162.9115119
  0.0909316  -1.1737149 162.5810550 -15.7582961  38.0129406 -15.7573098  38.0129264  -1.1752482 162.5847757
  0.0919091  -1.1980679 162.2438711 -15.6403955  37.4736072 -15.6402927  37.4694627  -1.1990189 162.2408506
  0.0928866  -1.2252528 161.9248527 -15.5291355  36.9483565 -15.5291389  36.9521934  -1.2263188 161.9301330
  0.0938641  -1.2480021 161.6127391 -15.4224887  36.4503146 -15.4209287  36.4340866  -1.2506758 161.5973857
  0.0948416  -1.2736026 161.2957931 -15.3190612  35.9196325 -15.3171098  35.9122368  -1.2766276 161.2962004
  0.0958192  -1.3003589 160.9773219 -15.2164934  35.3997149 -15.2175780  35.3992588  -1.3016749 160.9645573
  0.0967967  -1.3238061 160.6601253 -15.1177200  34.8881003 -15.1178845  34.8797291  -1.3264451 160.6523563
  0.0977742  -1.3501965 160.3387158 -15.0259137  34.3741325 -15.0259327  34.3652937  -1.3499338 160.3522210
  0.0987517  -1.3736440 160.0380956 -14.9322320  33.8723869 -14.9309581  33.8588317  -1.3765491 160.0397399
  0.0997292  -1.4039620 159.7545026 -14.8456247  33.3620700 -14.8457414  33.3537604  -1.4051392 159.7466866
  0.1007067  -1.4277257 159.4538872 -14.7600181  32.8601577 -14.7583036  32.8516777  -1.4277576 159.4493570
  0.1016843  -1.4524551 159.1409382 -14.6794457  32.3625461 -14.6783337  32.3535435  -1.4527060 159.1460067
  0.1026618  -1.4785268 158.8666475 -14.5995033  31.8716857 -14.6004616  31.8684045  -1.4791648 158.8596822
  0.1036393  -1.4987080 158.5909961 -14.5231916  31.3861427 -14.5229935  31.3700298  -1.5006090 158.5882155
  0.1046168  -1.5272295 158.2918303 -14.4469619  30.8878801 -14.4466062  30.8851627  -1.5275519 158.2959677
  0.1055943  -1.5523398 158.0207109 -14.3765308  30.4098078 -14.3768511  30.3941896  -1.5527253 158.0072695
  0.1065718  -1.5791716 157.7393136 -14.3086678  29.9237832 -14.3085840  29.9248900  -1.5801632 157.7405516
  0.1075494  -1.6035523 157.4664934 -14.2400177  29.4429711 -14.2385972  29.4362320  -1.6038932 157.4666507
  0.1085269  -1.6284027 157.2060348 -14.1743033  28.9746218 -14.1753598  28.9719501  -1.6305327 157.1972771
  0.1095044  -1.6550105 156.9278610 -14.1118811  28.4999417 -14.1118523  28.5004163  -1.6566470 156.9246686
  0.1104819  -1.6815945 156.6350883 -14.0502549  28.0318488 -14.0503786  28.0256935  -1.6803169 156.6393137
  0.1114594  -1.7050502 156.4019258 -13.9939788  27.5690112 -13.9935814  27.5670044  -1.7050354 156.4061713
  0.1124370  -1.7289765 156.1360666 -13.9343269  27.1128236 -13.9349506  27.0962315  -1.7316125 156.1475258
  0.1134145  -1.7536591 155.8764003 -13.8787825  26.6703995 -13.8780890  26.6607483  -1.7550955 155.8751441
  0.1143920  -1.7793477 155.6283995 -13.8233800  26.2033986 -13.8234600  26.1993816  -1.7822943 155.6184380
  0.1153695  -1.8049853 155.3787623 -13.7725336  25.7615201 -13.7722701  25.7564545  -1.8074087 155.3736208
  0.1163470  -1.8322386 155.1152398 -13.7207962  25.3110017 -13.7210573  25.3051026  -1.8319757 155.1079970
  0.1173245  -1.8552019 154.8769706 -13.6710231  24.8773016 -13.6708374  24.8718677  -1.8548844 154.8754598
  0.1183021  -1.8815872 154.6391790 -13.6259146  24.4456612 -13.6253234  24.4350712  -1.8844814 154.6401963
  0.1192796  -1.9056742 154.4066856 -13.5785714  24.0005014 -13.5803695  23.9955833  -1.9075749 154.3988631
  0.1202571  -1.9343231 154.1610259 -13.5342563  23.5691783 -13.5346470  23.5600050  -1.9352690 154.1565933
  0.1212346  -1.9577455 153.9235175 -13.4902141  23.1410126 -13.4916102  23.1303389  -1.9598450 153.9233261
  0.1222121  -1.9847199 153.6832483 -13.4488330  22.7129426 -13.4487895  22.7072637  -1.9850589 153.6844954
  0.1231896  -2.0073453 153.4414368 -13.4080619  22.3143025 -13.4081795  22.3031180  -2.0093715 153.4382563
  0.1241672  -2.0353492 153.2255261 -13.3691306  21.8965014 -13.3697381  21.8848633  -2.0355964 153.2224164
  0.1251447  -2.0586408 152.9972163 -13.3295379  21.4763654 -13.3307320  21.4632322  -2.0611304 152.9970994
  0.1261222  -2.0855346 152.7724434 -13.2947387  21.0602807 -13.2950278  21.0599513  -2.0887546 152.7763703
  0.1270997  -2.1088067 152.5431880 -13.2581564  20.6686667 -13.2577478  20.6614449  -2.1100298 152.5548387
  0.1280772  -2.1349383 152.3265243 -13.2223342  20.2587048 -13.2214702  20.2459310  -2.1358857 152.3335511
  0.1290547  -2.1610278 152.0954806 -13.1876021  19.8549193 -13.1882805  19.8526012  -2.1610600 152.0931258
  0.1300323  -2.1840895 151.8839516 -13.1551913  19.4587236 -13.1570093  19.4519730  -2.1847843 151.8929437
  0.1310098  -2.2068807 151.6773770 -13.1234491  19.0707458 -13.1234553  19.0672175  -2.2074899 151.6743782
  0.1319873  -2.2362925 151.4822118 -13.0927866  18.6784480 -13.0930807  18.6734000  -2.2372960 151.4765804
  0.1329648  -2.2589517 151.2599785 -13.0611677  18.2900832 -13.0623500  18.2849602  -2.2611395 151.2442030
  0.1339423  -2.2825977 151.0567727 -13.0329077  17.9168471 -13.0344558  17.9071883  -2.2855827 151.0413777
  0.1349198  -2.3103569 150.8267868 -13.0045038  17.5222714 -13.0057147  17.5139795  -2.3129021 150.8306841
  0.1358974  -2.3339710 150.6394157 -12.9777484  17.1511660 -12.9788204  17.1473264  -2.3360754 150.6241433
  0.1368749  -2.3598042 150.4359006 -12.9509537  16.7927760 -12.9523055  16.7761658  -2.3612278 150.4244913
  0.1378524  -2.3835520 150.2289506 -12.9245702  16.4140181 -12.9252318  16.4084945  -2.3858030 150.2253304
  0.1388299  -2.4110458 150.0197780 -12.8978182  16.0215146 -12.8974321  16.0136575  -2.4126467 150.0092986
  0.1398074  -2.4321276 149.8200000 -12.8734250  15.6723469 -12.8741766  15.6672798  -2.4349346 149.8270466
  0.1407849  -2.4587501 149.6394413 -12.8511393  15.3169508 -12.8519134  15.3050273  -2.4589893 149.6309921
  0.1417625  -2.4834173 149.4435789 -12.8276499  14.9438213 -12.8287275  14.9334727  -2.4835933 149.4373470
  0.1427400  -2.5071674 149.2547798 -12.8056736  14.5943581 -12.8060026  14.5862360  -2.5108275 149.2569666
  0.1437175  -2.5309031 149.0521093 -12.7829833  14.2377939 -12.7847805  14.2331828  -2.5332293 149.0629654
  0.1446950  -2.5565140 148.8751574 -12.7622904  13.8943357 -12.7636543  13.8859440  -2.5579207 148.8582685
  0.1456725  -2.5831561 148.6696399 -12.7438499  13.5339669 -12.7443836  13.5226333  -2.5835755 148.6612090
  0.1466500  -2.6089656 148.4821261 -12.7236396  13.1841690 -12.7235470  13.1775447  -2.6081112 148.4812335
  0.1476276  -2.6281701 148.3177972 -12.7046690  12.8463009 -12.7047354  12.8440243  -2.6296911 148.3128324
  0.1486051  -2.6581451 148.1106806 -12.6852973  12.5046416 -12.6858125  12.4924528  -2.6583713 148.1113831
  0.1495826  -2.6794034 147.9444095 -12.6682263  12.1627185 -12.6683213  12.1571163  -2.6820171 147.9417041
  0.1505601  -2.7053654 147.7699333 -12.6491489  11.8279957 -12.6499336  11.8182641  -2.7063505 147.7569798
  0.1515376  -2.7298974 147.5981668 -12.6338486  11.4910048 -12.6346272  11.4850717  -2.7316735 147.6057234
  0.1525152  -2.7530658 147.4213236 -12.6176028  11.1660743 -12.6180227  11.1613695  -2.7553310 147.4040016
  0.1534927  -2.7778034 147.2422382 -12.6007675  10.8416276 -12.6022757  10.8384709  -2.7777555 147.2306767
  0.1544702  -2.8007589 147.0708556 -12.5859832  10.5100916 -12.5861775  10.4989227  -2.8021937 147.0621065
  0.1554477  -2.8280538 146.8934002 -12.5715510  10.1862794 -12.5724052  10.1815674  -2.8270585 146.8910557
  0.1564252  -2.8472080 146.7295074 -12.5573965   9.8738076 -12.5580386   9.8640520  -2.8483616 146.7115003
  0.1574027  -2.8750914 146.5431310 -12.5422120   9.5459029 -12.5434535   9.5413673  -2.8773195 146.5461169
  0.1583803  -2.8990307 146.3852230 -12.5290517   9.2358234 -12.5304178   9.2315028  -2.9023155 146.3814135
  0.1593578  -2.9224808 146.2362397 -12.5181448   8.9101607 -12.5179865   8.8950015  -2.9256505 146.2047231
  0.1603353  -2.9485501 146.0514349 -12.5049834   8.6048664 -12.5060616   8.5901732  -2.9474547 146.0483022
  0.1613128  -2.9737824 145.8970109 -12.4921528   8.2948059 -12.4926345   8.2831363  -2.9725782 145.8873252
  0.1622903  -2.9896266 145.7099634 -12.4795115   7.9983405 -12.4794434   7.9840846  -2.9926493 145.7132905
  0.1632678  -3.0169168 145.5659364 -12.4685743   7.6761069 -12.4695676   7.6721195  -3.0189794 145.5708998
  0.1642454  -3.0414031 145.4039486 -12.4583987   7.3735561 -12.4584584   7.3656602  -3.0434774 145.4034761
  0.1652229  -3.0652023 145.2630186 -12.4488578   7.0754054 -12.4491368   7.0711741  -3.0665347 145.2639970
  0.1662004  -3.0890678 145.0999052 -12.4376088   6.7747132 -12.4394575   6.7712164  -3.0919158 145.0948148
  0.1671779  -3.1136464 144.9371521 -12.4285753   6.4705729 -12.4289845   6.4653665  -3.1159956 144.9221858
  0.1681554  -3.1357212 144.7810703 -12.4181868   6.1765990 -12.4188681   6.1708128  -3.1377134 144.7794303
  0.1691329  -3.1619715 144.6407519 -12.4092882   5.8810287 -12.4101805   5.8682375  -3.1646676 144.6252886
  0.1701105  -3.1846184 144.4802922 -12.4018631   5.5904590 -12.4011748   5.5826422  -3.1862284 144.4676157
  0.1710880  -3.2055204 144.3240019 -12.3913439   5.3138488 -12.3916856   5.3024632  -3.2064974 144.3356031
  0.1720655  -3.2303343 144.1856369 -12.3852989   5.0151432 -12.3859519   5.0118608  -3.2302039 144.1864721
  0.1730430  -3.2537478 144.0198036 -12.3754544   4.7266126 -12.3757232   4.7207816  -3.2580277 144.0194806
  0.1740205  -3.2740838 143.8671882 -12.3682011   4.4335292 -12.3691841   4.4270119  -3.2783512 143.8636634
  0.1749980  -3.2988753 143.7316073 -12.3611872   4.1586048 -12.3614617   4.1531056  -3.2994796 143.7113547
  0.1759756  -3.3235456 143.5924505 -12.3535530   3.8836616 -12.3541249   3.8811143  -3.3266692 143.5845133
  0.1769531  -3.3461197 143.4381079 -12.3477231   3.6009144 -12.3491185   3.5916316  -3.3488731 143.4524005
