! ListType=Lin
! Comment=Monoprice_5-2400MHz_2-Way_Splitter_OUT-to-OUT_IN-Open_0.001-to-1MHz
# MHZ S DB R 50
  0.0010000  -0.0846818 -16.3439633 -18.5156354  73.7928343 -18.5214500  73.8054149  -0.0830396 -16.3348450
  0.0019775  -0.2583944 -31.3116148 -13.1652053  59.2215215 -13.1292046  59.5344743  -0.2252847 -31.4071227
  0.0029550  -0.4842462 -45.3762685 -10.4376328  46.6194222 -10.4269657  46.6869885  -0.4124867 -45.6325893
  0.0039326  -0.6455113 -57.0511482  -8.9503182  35.2285323  -8.9535194  35.2482120  -0.6488094 -57.0852618
  0.0049101  -0.7824523 -67.9585847  -8.0378856  24.8511656  -8.0267711  24.9126683  -0.7964658 -68.1465050
  0.0058876  -0.8870793 -77.3061991  -7.5273318  16.2491032  -7.5146991  16.3334554  -0.9015833 -76.8815744
  0.0068651  -0.9683194 -84.8876973  -7.2777898   8.3780517  -7.2835763   8.4349260  -0.9652143 -84.8748958
  0.0078426  -0.9680259 -91.8988292  -7.1700427   1.3526462  -7.1661592   1.5457100  -0.9276192 -91.9620957
  0.0088201  -0.9561083 -98.1234807  -7.2353183  -4.6529310  -7.2505621  -4.5740602  -1.0070586 -98.2476801
  0.0097977  -0.9573700 -103.9072007  -7.3666332 -10.3339538  -7.3727164 -10.3506722  -0.9462999 -103.9018992
  0.0107752  -0.9245412 -108.9546897  -7.5471470 -15.3331352  -7.5741818 -15.3283747  -0.8908400 -108.9324501
  0.0117527  -0.8670758 -113.3423343  -7.8129742 -19.9137432  -7.8025329 -19.9690860  -0.8723047 -113.3783965
  0.0127302  -0.8132886 -117.7274795  -8.0909789 -24.1761147  -8.0910939 -24.1711461  -0.8151140 -117.7280510
  0.0137077  -0.7400060 -121.4559527  -8.3974182 -28.0024105  -8.3991038 -27.9930027  -0.7465783 -121.4858192
  0.0146852  -0.6934245 -125.0397853  -8.7376441 -31.5446707  -8.7398750 -31.5381270  -0.6991966 -125.0001486
  0.0156628  -0.6502869 -128.2025906  -9.0968920 -34.7844111  -9.0988125 -34.7756558  -0.6512040 -128.2262443
  0.0166403  -0.5961492 -131.1715736  -9.4740990 -37.8007770  -9.4733235 -37.7993280  -0.6081665 -131.1945815
  0.0176178  -0.5523897 -134.0260246  -9.8650568 -40.6052959  -9.8648427 -40.5934832  -0.5603743 -133.9505169
  0.0185953  -0.5085738 -136.5444508 -10.2629914 -43.2159567 -10.2634441 -43.2053102  -0.5097599 -136.5821982
  0.0195728  -0.4540018 -139.0017263 -10.6743393 -45.6853799 -10.6734158 -45.6748099  -0.4648668 -139.0553131
  0.0205503  -0.4271763 -141.3190207 -11.1039192 -47.9334210 -11.1044490 -47.9305461  -0.4285108 -141.3162507
  0.0215279  -0.3984354 -143.3783438 -11.5401984 -50.0224101 -11.5397332 -50.0083952  -0.4035546 -143.3769174
  0.0225054  -0.3650651 -145.4131422 -11.9879648 -52.0123913 -11.9893678 -52.0081195  -0.3753812 -145.3731767
  0.0234829  -0.3458601 -147.3210722 -12.4486728 -53.8813909 -12.4474292 -53.8774967  -0.3495797 -147.3032843
  0.0244604  -0.3172449 -149.1063248 -12.9110213 -55.6426844 -12.9095861 -55.6223623  -0.3160946 -149.1026238
  0.0254379  -0.2932323 -150.8060375 -13.3932798 -57.2876910 -13.3921962 -57.2690832  -0.2943897 -150.7999362
  0.0264154  -0.2729404 -152.4246836 -13.8831390 -58.8390932 -13.8822095 -58.8218172  -0.2740694 -152.4225839
  0.0273930  -0.2556119 -153.9737912 -14.3938646 -60.2816588 -14.3908948 -60.2759722  -0.2587175 -153.9755284
  0.0283705  -0.2394782 -155.4640422 -14.9127840 -61.6511724 -14.9068774 -61.6444440  -0.2409366 -155.4496890
  0.0293480  -0.2247506 -156.8748329 -15.4458136 -62.9557953 -15.4403569 -62.9450631  -0.2234000 -156.8588089
  0.0303255  -0.2137702 -158.2311324 -16.0026529 -64.1650657 -15.9961876 -64.1423485  -0.2120707 -158.2329599
  0.0313030  -0.2004472 -159.5135066 -16.5723065 -65.2750240 -16.5665810 -65.2665196  -0.2006052 -159.5177437
  0.0322805  -0.1899979 -160.7643728 -17.1686201 -66.3184344 -17.1607573 -66.3150790  -0.1926298 -160.7635854
  0.0332581  -0.1809180 -161.9642519 -17.7876396 -67.2844959 -17.7787929 -67.2579637  -0.1811110 -161.9583818
  0.0342356  -0.1736065 -163.1265234 -18.4336527 -68.1579069 -18.4251964 -68.1487500  -0.1754276 -163.1262322
  0.0352131  -0.1641843 -164.2414184 -19.1132616 -68.9629165 -19.1028429 -68.9658833  -0.1653711 -164.2375176
  0.0361906  -0.1619671 -165.3074455 -19.8277926 -69.6493295 -19.8170513 -69.6344960  -0.1633139 -165.3076157
  0.0371681  -0.1540884 -166.3663180 -20.5870030 -70.2420032 -20.5735632 -70.2519206  -0.1573619 -166.3645960
  0.0381457  -0.1490358 -167.3745315 -21.3885862 -70.7182388 -21.3765174 -70.7261451  -0.1501338 -167.3642480
  0.0391232  -0.1466757 -168.3506364 -22.2541095 -71.0677990 -22.2337972 -71.0738763  -0.1476613 -168.3344692
  0.0401007  -0.1459051 -169.3079079 -23.1859654 -71.2425370 -23.1660697 -71.2501193  -0.1487396 -169.2907988
  0.0410782  -0.1422213 -170.2299393 -24.1982792 -71.1835987 -24.1760323 -71.2052502  -0.1446041 -170.2041743
  0.0420557  -0.1431677 -171.1491185 -25.3146289 -70.8840868 -25.2914640 -70.9161753  -0.1432128 -171.1386991
  0.0430332  -0.1423235 -172.0083431 -26.5575779 -70.1896588 -26.5306584 -70.2362718  -0.1441663 -172.0076395
  0.0440108  -0.1414230 -172.8814904 -27.9546848 -68.9642045 -27.9205585 -68.9999083  -0.1442421 -172.8766650
  0.0449883  -0.1428966 -173.6897159 -29.5702447 -66.8374822 -29.5253397 -66.9230857  -0.1445669 -173.6902979
  0.0459658  -0.1453151 -174.5214573 -31.4645358 -63.3593938 -31.4062137 -63.5277678  -0.1459111 -174.5001818
  0.0469433  -0.1461279 -175.3055471 -33.7113195 -57.3308296 -33.6519275 -57.5605753  -0.1475515 -175.2857958
  0.0479208  -0.1492985 -176.0798619 -36.3994283 -46.2345141 -36.3148051 -46.7467490  -0.1502535 -176.0794484
  0.0488983  -0.1507111 -176.8459750 -39.1504566 -24.9071804 -39.0858402 -25.7456949  -0.1522865 -176.8179382
  0.0498759  -0.1543686 -177.5804879 -40.1294719   8.9856056 -40.1587963   7.7763229  -0.1550259 -177.5638079
  0.0508534  -0.1574420 -178.3190752 -38.2220766  38.2143922 -38.3226497  37.5107978  -0.1577756 -178.3060502
  0.0518309  -0.1605651 -179.0294806 -35.5731329  54.4230081 -35.6727307  54.0472802  -0.1604899 -179.0223882
  0.0528084  -0.1642273 -179.7372810 -33.2580187  62.9847226 -33.3394417  62.7833747  -0.1646130 -179.7216330
  0.0537859  -0.1708257 179.5798724 -31.3470438  67.8395463 -31.4157125  67.6545061  -0.1724394 179.5880487
  0.0547634  -0.1745299 178.8928487 -29.7655030  70.7776886 -29.8274567  70.7047524  -0.1742355 178.9223687
  0.0557410  -0.1811503 178.2308485 -28.4312967  72.6246001 -28.4869076  72.5967120  -0.1788061 178.2527257
  0.0567185  -0.1879870 177.5890294 -27.2806094  73.8707269 -27.3315919  73.8264366  -0.1883722 177.6027930
  0.0576960  -0.1922979 176.9430558 -26.2765781  74.6328296 -26.3196598  74.6183489  -0.1940898 176.9632801
  0.0586735  -0.1975324 176.3065635 -25.3907095  75.1175834 -25.4298755  75.1035571  -0.1990697 176.3290389
  0.0596510  -0.2043673 175.6941639 -24.5957235  75.4040466 -24.6326323  75.4060593  -0.2050058 175.7092615
  0.0606285  -0.2118961 175.0932121 -23.8780572  75.5378681 -23.9098469  75.5403263  -0.2122081 175.1031785
  0.0616061  -0.2188839 174.4693390 -23.2263641  75.5650128 -23.2538992  75.5568922  -0.2178033 174.4868481
  0.0625836  -0.2259027 173.8884715 -22.6225697  75.4976081 -22.6539145  75.5055191  -0.2257688 173.9133809
  0.0635611  -0.2309266 173.3071103 -22.0703520  75.3679304 -22.0991709  75.3752128  -0.2321391 173.3153023
  0.0645386  -0.2429316 172.7089800 -21.5618101  75.1691632 -21.5883104  75.1580712  -0.2411383 172.7319161
  0.0655161  -0.2482431 172.1599132 -21.0851270  74.9529344 -21.1106725  74.9461478  -0.2492916 172.1653510
  0.0664936  -0.2551549 171.5813281 -20.6431223  74.6924560 -20.6665389  74.6901507  -0.2563068 171.6079354
  0.0674712  -0.2645320 171.0249370 -20.2239578  74.4084307 -20.2479201  74.4213628  -0.2631819 171.0523280
  0.0684487  -0.2704181 170.4791788 -19.8313731  74.0997969 -19.8533858  74.1122892  -0.2718157 170.5134637
  0.0694262  -0.2797541 169.9294872 -19.4635586  73.7695081 -19.4856324  73.7822195  -0.2818704 169.9570213
  0.0704037  -0.2914889 169.4084095 -19.1138317  73.4379663 -19.1359782  73.4417674  -0.2901086 169.4314837
  0.0713812  -0.2978766 168.8752077 -18.7826228  73.0911731 -18.8033209  73.1180928  -0.2972211 168.8986943
  0.0723587  -0.3082514 168.3482896 -18.4664985  72.7313042 -18.4869920  72.7532692  -0.3065682 168.3720320
  0.0733363  -0.3173899 167.8298336 -18.1680524  72.3533867 -18.1892168  72.3619004  -0.3165840 167.8462029
  0.0743138  -0.3278139 167.3231549 -17.8860604  71.9817694 -17.9052335  71.9971407  -0.3281184 167.3475401
  0.0752913  -0.3356479 166.8228131 -17.6140647  71.6179772 -17.6339825  71.6226064  -0.3376766 166.8456207
  0.0762688  -0.3457130 166.3131506 -17.3555653  71.2215255 -17.3739197  71.2462555  -0.3468064 166.3334746
  0.0772463  -0.3552176 165.7989150 -17.1053488  70.8469199 -17.1232095  70.8554031  -0.3572519 165.8294170
  0.0782239  -0.3647506 165.3150980 -16.8669850  70.4546000 -16.8849666  70.4784709  -0.3662008 165.3334682
  0.0792014  -0.3747820 164.8324790 -16.6372088  70.0826378 -16.6551313  70.0989304  -0.3737325 164.8691255
  0.0801789  -0.3854599 164.3521077 -16.4180630  69.6868573 -16.4348249  69.7096589  -0.3845264 164.3811448
  0.0811564  -0.3936753 163.8621716 -16.2047471  69.3008375 -16.2227685  69.3123793  -0.3949060 163.8841160
  0.0821339  -0.4059715 163.3909828 -15.9999956  68.9083551 -16.0173718  68.9323254  -0.4064402 163.4210908
  0.0831114  -0.4164004 162.9281355 -15.8051121  68.5244459 -15.8208371  68.5475124  -0.4156671 162.9619232
  0.0840890  -0.4262859 162.4660652 -15.6150170  68.1499251 -15.6325533  68.1537005  -0.4265834 162.5016798
  0.0850665  -0.4373503 161.9853477 -15.4328505  67.7446650 -15.4488167  67.7684952  -0.4392255 162.0214670
  0.0860440  -0.4492704 161.5271698 -15.2584081  67.3617204 -15.2737497  67.3832302  -0.4488621 161.5726590
  0.0870215  -0.4593153 161.0867718 -15.0866230  66.9926211 -15.1021272  67.0214429  -0.4587322 161.1153829
  0.0879990  -0.4702493 160.6271315 -14.9192851  66.6211135 -14.9347048  66.6413493  -0.4709487 160.6549455
  0.0889765  -0.4834824 160.1798768 -14.7601426  66.2240225 -14.7749963  66.2479551  -0.4845789 160.2124110
  0.0899541  -0.4930819 159.7488178 -14.6061701  65.8474910 -14.6220494  65.8657725  -0.4937624 159.7709579
  0.0909316  -0.5056282 159.3140794 -14.4555546  65.4853491 -14.4712334  65.5088851  -0.5053114 159.3281052
  0.0919091  -0.5183283 158.8565148 -14.3102352  65.1038175 -14.3240351  65.1280176  -0.5179962 158.8919673
  0.0928866  -0.5292857 158.4217144 -14.1683806  64.7300693 -14.1828599  64.7498410  -0.5297519 158.4539823
  0.0938641  -0.5433649 158.0026956 -14.0316256  64.3740087 -14.0464994  64.3937603  -0.5406779 158.0326034
  0.0948416  -0.5533925 157.5788144 -13.8973780  64.0009121 -13.9119380  64.0241746  -0.5531278 157.6123987
  0.0958192  -0.5646391 157.1533615 -13.7677660  63.6379880 -13.7822997  63.6577950  -0.5658025 157.1837217
  0.0967967  -0.5759336 156.7180144 -13.6402173  63.2696571 -13.6538095  63.2974044  -0.5762576 156.7551905
  0.0977742  -0.5913714 156.3008410 -13.5189806  62.9194573 -13.5341596  62.9422124  -0.5892183 156.3301827
  0.0987517  -0.6020073 155.8816366 -13.3970002  62.5529212 -13.4101559  62.5762170  -0.6008771 155.9167985
  0.0997292  -0.6151581 155.4796694 -13.2820890  62.1976427 -13.2952066  62.2221242  -0.6148151 155.5104830
  0.1007067  -0.6280514 155.0589370 -13.1669791  61.8506541 -13.1801486  61.8716869  -0.6255060 155.0969766
  0.1016843  -0.6414733 154.6358878 -13.0573668  61.5008525 -13.0708436  61.5304023  -0.6399140 154.6740973
  0.1026618  -0.6546939 154.2409060 -12.9497484  61.1630353 -12.9636332  61.1840447  -0.6542437 154.2748238
  0.1036393  -0.6637605 153.8449687 -12.8455673  60.8110580 -12.8578790  60.8477394  -0.6633910 153.8818412
  0.1046168  -0.6790656 153.4445058 -12.7413184  60.4754981 -12.7540979  60.4970360  -0.6782268 153.4706575
  0.1055943  -0.6913500 153.0446721 -12.6430918  60.1286856 -12.6542256  60.1581411  -0.6922338 153.0777399
  0.1065718  -0.7058353 152.6576229 -12.5449778  59.7912359 -12.5584035  59.8223921  -0.7056661 152.6891564
  0.1075494  -0.7177571 152.2591048 -12.4486621  59.4558342 -12.4607156  59.4825484  -0.7176230 152.2786861
  0.1085269  -0.7316110 151.8763736 -12.3542904  59.1321537 -12.3666375  59.1594153  -0.7326733 151.9118524
  0.1095044  -0.7465301 151.4740088 -12.2636449  58.8012887 -12.2769868  58.8258185  -0.7472839 151.5124340
  0.1104819  -0.7600142 151.0742434 -12.1747741  58.4670281 -12.1871634  58.4989664  -0.7582061 151.1093109
  0.1114594  -0.7740317 150.7036007 -12.0881445  58.1599805 -12.1021173  58.1891219  -0.7736821 150.7513453
  0.1124370  -0.7888232 150.3263669 -12.0034081  57.8179119 -12.0152512  57.8489220  -0.7870441 150.3617262
  0.1134145  -0.7970076 149.9501609 -11.9194073  57.5292267 -11.9306635  57.5494441  -0.7967247 149.9843943
  0.1143920  -0.8136739 149.5588875 -11.8382227  57.2067411 -11.8489914  57.2272222  -0.8141072 149.5976417
  0.1153695  -0.8278854 149.2030186 -11.7585579  56.8887573 -11.7703098  56.9184030  -0.8264545 149.2457734
  0.1163470  -0.8430987 148.8019315 -11.6789564  56.5667275 -11.6912569  56.6011281  -0.8423309 148.8432369
  0.1173245  -0.8557968 148.4598520 -11.6006404  56.2666754 -11.6114765  56.2943691  -0.8532469 148.4804744
  0.1183021  -0.8706376 148.0745405 -11.5279430  55.9733995 -11.5385245  55.9956763  -0.8689495 148.1227061
  0.1192796  -0.8858127 147.7237312 -11.4552548  55.6644992 -11.4669907  55.6839541  -0.8837743 147.7673992
  0.1202571  -0.9005746 147.3489792 -11.3816447  55.3525415 -11.3943568  55.3776141  -0.8988123 147.3857533
  0.1212346  -0.9167124 146.9863802 -11.3122165  55.0570535 -11.3242001  55.0803012  -0.9167715 147.0331559
  0.1222121  -0.9296243 146.6194447 -11.2412145  54.7545176 -11.2528484  54.7831453  -0.9294861 146.6700466
  0.1231896  -0.9431283 146.2587697 -11.1741021  54.4725471 -11.1852845  54.5021463  -0.9438146 146.2870508
  0.1241672  -0.9606095 145.9167006 -11.1063320  54.1813777 -11.1176958  54.2187124  -0.9572971 145.9468008
  0.1251447  -0.9758448 145.5700136 -11.0403389  53.8939170 -11.0530047  53.9156761  -0.9731283 145.6068615
  0.1261222  -0.9917210 145.2155038 -10.9781873  53.6056832 -10.9899635  53.6295204  -0.9903343 145.2544385
  0.1270997  -1.0038936 144.8615522 -10.9138672  53.3282142 -10.9258770  53.3687690  -1.0014905 144.9084250
  0.1280772  -1.0194108 144.5097570 -10.8529125  53.0351615 -10.8634168  53.0592713  -1.0182680 144.5339776
  0.1290547  -1.0342277 144.1547450 -10.7907870  52.7600039 -10.8019502  52.7850462  -1.0327606 144.1826842
  0.1300323  -1.0488510 143.8228293 -10.7314962  52.4777385 -10.7434979  52.5019027  -1.0482017 143.8564080
  0.1310098  -1.0625693 143.4745569 -10.6713919  52.2025115 -10.6832665  52.2333156  -1.0618671 143.5120812
  0.1319873  -1.0830207 143.1291267 -10.6156410  51.9268246 -10.6264380  51.9523382  -1.0797030 143.1735907
  0.1329648  -1.0964260 142.7791357 -10.5587644  51.6460618 -10.5691953  51.6780867  -1.0932419 142.8348526
  0.1339423  -1.1112144 142.4593340 -10.5037838  51.3843986 -10.5141168  51.4096033  -1.1080577 142.4962320
  0.1349198  -1.1302762 142.1157677 -10.4492967  51.1148767 -10.4612550  51.1387197  -1.1253388 142.1611778
  0.1358974  -1.1417505 141.7888621 -10.3959215  50.8451384 -10.4070706  50.8810995  -1.1410176 141.8278686
  0.1368749  -1.1574451 141.4633043 -10.3430258  50.5933524 -10.3538153  50.6190069  -1.1550813 141.5005130
  0.1378524  -1.1724007 141.1195062 -10.2901446  50.3270717 -10.2993026  50.3536933  -1.1713713 141.1605954
  0.1388299  -1.1907285 140.7677220 -10.2355043  50.0414959 -10.2461513  50.0722530  -1.1879641 140.8041366
  0.1398074  -1.2038441 140.4536458 -10.1875936  49.7920857 -10.1975267  49.8171558  -1.2012535 140.4913028
  0.1407849  -1.2223162 140.1269430 -10.1380162  49.5338356 -10.1488994  49.5640941  -1.2199158 140.1788081
  0.1417625  -1.2380441 139.7987325 -10.0892353  49.2733688 -10.1000147  49.3033696  -1.2372056 139.8434350
  0.1427400  -1.2521898 139.4828400 -10.0411488  49.0283091 -10.0512252  49.0550489  -1.2493590 139.5278224
  0.1437175  -1.2670780 139.1615204  -9.9939255  48.7726908 -10.0037693  48.8013216  -1.2661729 139.2112257
  0.1446950  -1.2839595 138.8403932  -9.9464921  48.5152740  -9.9567198  48.5567270  -1.2810364 138.8704321
  0.1456725  -1.3029600 138.5169312  -9.9026889  48.2683969  -9.9131146  48.2945790  -1.3005674 138.5543946
  0.1466500  -1.3179918 138.1919192  -9.8565117  48.0095199  -9.8673912  48.0430656  -1.3153870 138.2378458
  0.1476276  -1.3313948 137.8948865  -9.8130181  47.7776104  -9.8230531  47.8021978  -1.3278916 137.9401805
  0.1486051  -1.3504900 137.5570800  -9.7688314  47.5227627  -9.7780714  47.5536426  -1.3477382 137.6095991
  0.1495826  -1.3659533 137.2654481  -9.7265471  47.2858088  -9.7361397  47.3118541  -1.3629863 137.3075733
  0.1505601  -1.3824448 136.9626860  -9.6832851  47.0370545  -9.6927867  47.0677941  -1.3792332 136.9988962
  0.1515376  -1.3984172 136.6607413  -9.6432581  46.7906091  -9.6529106  46.8250469  -1.3976228 136.6916488
  0.1525152  -1.4141802 136.3402952  -9.6021705  46.5645127  -9.6114724  46.5919748  -1.4129280 136.3976780
  0.1534927  -1.4317655 136.0349704  -9.5613701  46.3204711  -9.5705551  46.3517727  -1.4292002 136.0671132
  0.1544702  -1.4462454 135.7271057  -9.5218987  46.0838603  -9.5308773  46.1127128  -1.4434572 135.7745892
  0.1554477  -1.4655624 135.4217951  -9.4830527  45.8457473  -9.4913885  45.8826416  -1.4633661 135.4766574
  0.1564252  -1.4772941 135.1293635  -9.4433737  45.6178388  -9.4524787  45.6588448  -1.4751486 135.1816228
  0.1574027  -1.4963053 134.8245013  -9.4048124  45.3853023  -9.4138110  45.4176377  -1.4936074 134.8606993
  0.1583803  -1.5159295 134.5219922  -9.3679907  45.1559347  -9.3780924  45.1913373  -1.5120690 134.5699207
  0.1593578  -1.5309380 134.2375539  -9.3318282  44.9197064  -9.3409141  44.9480325  -1.5278426 134.2790456
  0.1603353  -1.5481321 133.9376461  -9.2951958  44.6909919  -9.3044882  44.7264798  -1.5445953 133.9818291
  0.1613128  -1.5622173 133.6520607  -9.2583717  44.4687177  -9.2675411  44.5055678  -1.5611885 133.6942153
  0.1622903  -1.5747906 133.3293882  -9.2216249  44.2475643  -9.2311768  44.2819224  -1.5724459 133.3746452
  0.1632678  -1.5945453 133.0562199  -9.1871405  44.0122518  -9.1973276  44.0475551  -1.5923461 133.1169543
  0.1642454  -1.6114974 132.7571438  -9.1541342  43.7893612  -9.1636125  43.8186849  -1.6093749 132.8030479
  0.1652229  -1.6308602 132.4826609  -9.1207267  43.5816213  -9.1300862  43.6089091  -1.6278932 132.5227064
  0.1662004  -1.6456682 132.2039408  -9.0869202  43.3515677  -9.0967193  43.3875939  -1.6394598 132.2378174
  0.1671779  -1.6616892 131.8941454  -9.0544547  43.1255033  -9.0643970  43.1606661  -1.6596500 131.9344883
  0.1681554  -1.6782559 131.6173215  -9.0205779  42.9087029  -9.0305555  42.9421897  -1.6766987 131.6542945
  0.1691329  -1.6962610 131.3289421  -8.9897549  42.6819474  -8.9988716  42.7157802  -1.6952930 131.3797918
  0.1701105  -1.7103467 131.0507299  -8.9578595  42.4780453  -8.9673440  42.5124416  -1.7078593 131.0873821
  0.1710880  -1.7247436 130.7748745  -8.9249281  42.2595128  -8.9343794  42.2958028  -1.7230278 130.8248652
  0.1720655  -1.7451574 130.4901707  -8.8967846  42.0508998  -8.9062300  42.0851852  -1.7420748 130.5388490
  0.1730430  -1.7627456 130.1977179  -8.8643889  41.8327689  -8.8728929  41.8613428  -1.7598928 130.2403233
  0.1740205  -1.7772200 129.9124417  -8.8360475  41.6164428  -8.8443736  41.6418714  -1.7728037 129.9616357
  0.1749980  -1.7948413 129.6393413  -8.8051896  41.4070848  -8.8142856  41.4437643  -1.7903694 129.6989024
  0.1759756  -1.8113735 129.3743368  -8.7765558  41.2014519  -8.7859885  41.2346348  -1.8089651 129.4281113
  0.1769531  -1.8284078 129.1107770  -8.7494507  40.9894656  -8.7584631  41.0203518  -1.8245889 129.1509699
