! ListType=Lin
! Comment=Monoprice_5-2400MHz_2-Way_Splitter_2ndOUT_50ohmLoad
# MHZ S DB R 50
  0.1000000  -2.7909194 143.5433387  -7.2326122  48.7492407  -7.2191452  48.6569699  -2.7994721 143.5010719
  0.2000167  -6.7405540 130.3537019  -4.6560585  27.9199221  -4.6523113  27.8457979  -6.7562121 130.4072092
  0.3000333  -9.5724331 128.7533435  -4.0931085  18.9742929  -4.0928343  18.9275139  -9.5903017 128.8063280
  0.4000500 -11.5134990 131.3731795  -3.9281084  14.1948861  -3.9284648  14.1560850 -11.5238843 131.4499592
  0.5000667 -12.7931167 135.0550742  -3.8711516  11.3760323  -3.8728484  11.3460465 -12.8014733 135.0731138
  0.6000833 -13.6575709 138.4688412  -3.8443036   9.5656957  -3.8448593   9.5460678 -13.6707626 138.5283566
  0.7001000 -14.2834134 141.4064179  -3.8237688   8.3193709  -3.8248384   8.3055828 -14.2849133 141.4065245
  0.8001167 -14.7200905 143.7301855  -3.8108388   7.4385250  -3.8121133   7.4253765 -14.7333104 143.7585717
  0.9001334 -15.1005549 145.5702587  -3.7947832   6.7385737  -3.7953289   6.7292688 -15.1014795 145.6280562
  1.0001500 -15.3969017 147.1815111  -3.7791593   6.1876870  -3.7793897   6.1775517 -15.3939027 147.2389499
  1.1001667 -15.6566811 148.5043970  -3.7646825   5.7421768  -3.7653125   5.7310697 -15.6582514 148.5393162
  1.2001834 -15.8583223 149.7284190  -3.7543129   5.3695473  -3.7549745   5.3628939 -15.8560584 149.7289550
  1.3002000 -16.0761011 150.6825800  -3.7382187   5.0418680  -3.7381007   5.0292943 -16.0799417 150.7323480
  1.4002167 -16.2589413 151.5349428  -3.7237178   4.7602810  -3.7240489   4.7541323 -16.2637453 151.5645035
  1.5002334 -16.4352823 152.3899524  -3.7110099   4.4975884  -3.7115534   4.4879441 -16.4383406 152.4042995
  1.6002500 -16.5654497 153.0472098  -3.7016910   4.2910464  -3.7023458   4.2798818 -16.5708028 153.0823313
  1.7002667 -16.7050289 153.7123954  -3.6907725   4.0911816  -3.6911910   4.0819998 -16.7178757 153.7605320
  1.8002834 -16.8386447 154.3304757  -3.6804715   3.9014877  -3.6808058   3.8959621 -16.8413845 154.3663722
  1.9003001 -16.9632637 154.9708088  -3.6713310   3.7314376  -3.6716121   3.7230554 -16.9616321 154.9948923
  2.0003167 -17.0821180 155.4643208  -3.6616933   3.5770558  -3.6619154   3.5692224 -17.0766464 155.4851919
  2.1003334 -17.1818280 156.0367616  -3.6542746   3.4270461  -3.6544798   3.4203861 -17.1801887 156.0076946
  2.2003501 -17.2717370 156.4825629  -3.6463511   3.2982828  -3.6468563   3.2885937 -17.2794071 156.4876583
  2.3003667 -17.3674938 156.9113746  -3.6392290   3.1691904  -3.6394961   3.1630203 -17.3732512 156.9641473
  2.4003834 -17.4433840 157.3899093  -3.6333629   3.0499272  -3.6341016   3.0451705 -17.4466675 157.4254919
  2.5004001 -17.5320988 157.8748346  -3.6282318   2.9306083  -3.6285383   2.9240302 -17.5301910 157.9094524
  2.6004167 -17.5997225 158.2352112  -3.6209330   2.8341254  -3.6218593   2.8297560 -17.6088068 158.2245531
  2.7004334 -17.6769038 158.6074842  -3.6155361   2.7357402  -3.6162920   2.7291118 -17.6809767 158.6202795
  2.8004501 -17.7342598 158.9297843  -3.6102308   2.6424031  -3.6107259   2.6363126 -17.7349197 158.9495486
  2.9004667 -17.8111760 159.3849270  -3.6056413   2.5499896  -3.6065333   2.5443041 -17.8093648 159.4637395
  3.0004834 -17.8645359 159.6487948  -3.6014934   2.4623987  -3.6018724   2.4574254 -17.8672570 159.7082474
  3.1005001 -17.9160809 160.0451365  -3.5975636   2.3810857  -3.5984960   2.3763710 -17.9188155 160.0449749
  3.2005168 -17.9833100 160.3298709  -3.5936353   2.3088918  -3.5945890   2.3024748 -17.9825709 160.3613631
  3.3005334 -18.0185116 160.6390242  -3.5902167   2.2334917  -3.5911171   2.2242354 -18.0143364 160.6676573
  3.4005501 -18.0728706 160.9439235  -3.5864345   2.1611668  -3.5874902   2.1559553 -18.0647784 160.9366839
  3.5005668 -18.1209917 161.2243526  -3.5842728   2.0900943  -3.5849536   2.0832048 -18.1250389 161.2443070
  3.6005834 -18.1567148 161.4597925  -3.5811307   2.0275592  -3.5818149   2.0247582 -18.1548033 161.5755375
  3.7006001 -18.1898189 161.7335997  -3.5782012   1.9671912  -3.5789303   1.9632818 -18.1937173 161.7219151
  3.8006168 -18.2372661 161.9768525  -3.5746510   1.9070621  -3.5754561   1.9034646 -18.2349465 162.0094714
  3.9006334 -18.2713030 162.2815995  -3.5725235   1.8504090  -3.5732195   1.8446590 -18.2759161 162.3193971
  4.0006501 -18.3077890 162.4707533  -3.5703161   1.7930553  -3.5707944   1.7876047 -18.3056188 162.4870570
  4.1006668 -18.3420379 162.6254808  -3.5678548   1.7389585  -3.5686528   1.7334656 -18.3443881 162.6689274
  4.2006834 -18.3625789 162.9428406  -3.5662550   1.6874972  -3.5667745   1.6841674 -18.3657855 162.9969218
  4.3007001 -18.4026790 163.0921080  -3.5634543   1.6353284  -3.5645508   1.6340482 -18.4067153 163.0897611
  4.4007168 -18.4286775 163.2786301  -3.5620676   1.5868252  -3.5626785   1.5831986 -18.4336754 163.3295992
  4.5007335 -18.4628993 163.5257340  -3.5600604   1.5432066  -3.5608421   1.5356067 -18.4560851 163.5578224
  4.6007501 -18.4941368 163.7230068  -3.5574104   1.4956824  -3.5591337   1.4912893 -18.4939193 163.7791574
  4.7007668 -18.5055082 163.9362390  -3.5568675   1.4542765  -3.5581995   1.4477486 -18.5075513 163.8884491
  4.8007835 -18.5304379 164.0262090  -3.5551099   1.4080140  -3.5560776   1.4061759 -18.5275233 164.0902833
  4.9008001 -18.5570913 164.2735236  -3.5535916   1.3691600  -3.5547173   1.3628778 -18.5526883 164.2664810
  5.0008168 -18.5815412 164.3729197  -3.5520632   1.3264834  -3.5526965   1.3208900 -18.5799464 164.3995663
  5.1008335 -18.6040396 164.5501054  -3.5503295   1.2806458  -3.5512293   1.2782516 -18.6074860 164.5758594
  5.2008501 -18.6307302 164.7049123  -3.5500601   1.2471126  -3.5504428   1.2421664 -18.6241833 164.6727170
  5.3008668 -18.6445848 164.7861776  -3.5481270   1.2136767  -3.5492909   1.2107509 -18.6369224 164.7900091
  5.4008835 -18.6540484 164.9618425  -3.5459207   1.1779471  -3.5474712   1.1731894 -18.6604917 164.9961979
  5.5009002 -18.6872303 165.0745203  -3.5446988   1.1404703  -3.5457426   1.1371058 -18.6865727 165.0978225
  5.6009168 -18.6950577 165.2185521  -3.5436413   1.1091129  -3.5449525   1.1025313 -18.7043588 165.2588696
  5.7009335 -18.7175789 165.3078033  -3.5426895   1.0729743  -3.5429366   1.0712821 -18.7124519 165.3320449
  5.8009502 -18.7379985 165.4040397  -3.5412878   1.0382372  -3.5415396   1.0312215 -18.7320113 165.4413395
  5.9009668 -18.7722190 165.6045115  -3.5395229   1.0068476  -3.5402750   1.0019769 -18.7636810 165.5738316
  6.0009835 -18.7826555 165.7668632  -3.5391004   0.9761127  -3.5397765   0.9727587 -18.7753435 165.7106011
  6.1010002 -18.7974283 165.7829635  -3.5374229   0.9383327  -3.5384621   0.9385684 -18.7956159 165.8193543
  6.2010168 -18.8041358 165.9305745  -3.5366163   0.9136940  -3.5377705   0.9080760 -18.8104927 165.9366732
  6.3010335 -18.8250564 166.0990698  -3.5354570   0.8813155  -3.5365888   0.8779830 -18.8183910 166.1242699
  6.4010502 -18.8359336 166.1191783  -3.5345310   0.8497050  -3.5352502   0.8471004 -18.8397798 166.1782070
  6.5010668 -18.8670828 166.1899825  -3.5337486   0.8203132  -3.5351561   0.8160525 -18.8744818 166.1729720
  6.6010835 -18.8704823 166.3086644  -3.5327798   0.7934478  -3.5340693   0.7934714 -18.8735254 166.3303798
  6.7011002 -18.8875748 166.4513662  -3.5320860   0.7644993  -3.5332144   0.7581139 -18.8816533 166.5012518
  6.8011169 -18.8911234 166.5416666  -3.5304865   0.7360287  -3.5314465   0.7335832 -18.8962778 166.5532161
  6.9011335 -18.9119284 166.6585553  -3.5297781   0.7070785  -3.5308708   0.7050504 -18.9051197 166.6431344
  7.0011502 -18.9184373 166.7082750  -3.5289898   0.6781846  -3.5301400   0.6754401 -18.9226718 166.7188524
  7.1011669 -18.9307793 166.8361176  -3.5284564   0.6545084  -3.5293310   0.6511843 -18.9261145 166.8330330
  7.2011835 -18.9616069 166.9428988  -3.5271552   0.6257988  -3.5284514   0.6183027 -18.9547823 166.9106131
  7.3012002 -18.9519371 167.0295754  -3.5265719   0.6002839  -3.5274287   0.5992631 -18.9489968 167.0448095
  7.4012169 -18.9781859 167.1258313  -3.5258462   0.5686061  -3.5272459   0.5673742 -18.9755287 167.1764995
  7.5012335 -18.9814942 167.1248043  -3.5257333   0.5451360  -3.5267092   0.5407746 -18.9778557 167.1622133
  7.6012502 -18.9871574 167.3571534  -3.5249717   0.5267579  -3.5264839   0.5215594 -18.9843718 167.3309304
  7.7012669 -18.9986903 167.3129091  -3.5244271   0.5008980  -3.5256557   0.4984534 -18.9908019 167.3786996
  7.8012835 -19.0088004 167.3644205  -3.5239032   0.4799016  -3.5245353   0.4744063 -19.0084182 167.4430941
  7.9013002 -19.0229213 167.4196542  -3.5226915   0.4551413  -3.5238579   0.4496306 -19.0213806 167.4521949
  8.0013169 -19.0302573 167.5369461  -3.5226473   0.4294171  -3.5234956   0.4250101 -19.0300387 167.5803748
  8.1013336 -19.0543887 167.6125636  -3.5219411   0.4077427  -3.5227163   0.4038931 -19.0427599 167.6341203
  8.2013502 -19.0473054 167.7028786  -3.5211894   0.3819818  -3.5225093   0.3815916 -19.0505655 167.6942596
  8.3013669 -19.0684741 167.7411004  -3.5202294   0.3587574  -3.5209655   0.3548397 -19.0695775 167.7221578
  8.4013836 -19.0723593 167.7896288  -3.5198090   0.3374355  -3.5203066   0.3321810 -19.0708242 167.8063274
  8.5014002 -19.0916054 167.8188947  -3.5197269   0.3154317  -3.5201247   0.3114588 -19.0868170 167.8118230
  8.6014169 -19.0958983 167.9059284  -3.5184652   0.2893317  -3.5196334   0.2899054 -19.0866683 167.9440889
  8.7014336 -19.1015935 168.0422990  -3.5190013   0.2669557  -3.5195414   0.2646857 -19.0929573 168.0941090
  8.8014502 -19.1044274 168.0423279  -3.5176080   0.2499427  -3.5191994   0.2463252 -19.1091906 168.1087661
  8.9014669 -19.1114792 168.0558366  -3.5179982   0.2295883  -3.5185507   0.2255379 -19.1024400 168.1174757
  9.0014836 -19.1262752 168.1650036  -3.5173662   0.2085203  -3.5181725   0.2040285 -19.1180773 168.1228316
  9.1015003 -19.1306469 168.2378707  -3.5168754   0.1853928  -3.5172220   0.1816128 -19.1288683 168.1755363
  9.2015169 -19.1333071 168.2753773  -3.5162473   0.1630005  -3.5175659   0.1607857 -19.1358086 168.2725641
  9.3015336 -19.1618970 168.2693412  -3.5158729   0.1454794  -3.5167244   0.1403881 -19.1446984 168.3094818
  9.4015503 -19.1548876 168.3860313  -3.5158289   0.1236336  -3.5165716   0.1218230 -19.1556837 168.4224433
  9.5015669 -19.1667317 168.4180279  -3.5148651   0.1043243  -3.5158843   0.1019299 -19.1653493 168.3924982
  9.6015836 -19.1761850 168.4574493  -3.5149216   0.0852663  -3.5156811   0.0821041 -19.1739297 168.4540219
  9.7016003 -19.1701571 168.4639529  -3.5142518   0.0634325  -3.5153005   0.0608713 -19.1739713 168.4914137
  9.8016169 -19.1927883 168.6065450  -3.5138254   0.0410420  -3.5141134   0.0403278 -19.1901189 168.6879471
  9.9016336 -19.1954323 168.5843299  -3.5141921   0.0243057  -3.5151558   0.0207066 -19.1977643 168.5618266
 10.0016503 -19.1916685 168.6699557  -3.5140021   0.0035279  -3.5148800   0.0003877 -19.1841937 168.7108742
 10.1016669 -19.1935827 168.7123351  -3.5137273  -0.0176644  -3.5149479  -0.0207465 -19.1963693 168.7509183
 10.2016836 -19.2069745 168.7567671  -3.5127650  -0.0303433  -3.5135416  -0.0341193 -19.1995808 168.7445461
 10.3017003 -19.2043424 168.7275493  -3.5128642  -0.0528417  -3.5138921  -0.0561786 -19.1972101 168.7914477
 10.4017170 -19.2159413 168.8375925  -3.5122102  -0.0703789  -3.5133411  -0.0752595 -19.2159364 168.8739780
 10.5017336 -19.2217601 168.8438962  -3.5127323  -0.0870316  -3.5135023  -0.0899040 -19.2200977 168.8824241
 10.6017503 -19.2365060 168.9352476  -3.5118289  -0.1060181  -3.5126166  -0.1103216 -19.2327033 168.8656073
 10.7017670 -19.2368007 168.9417677  -3.5120829  -0.1259838  -3.5124670  -0.1251043 -19.2327720 168.9955516
 10.8017836 -19.2478531 168.9572346  -3.5114322  -0.1457229  -3.5126671  -0.1466080 -19.2428581 168.9469457
 10.9018003 -19.2452695 169.0148439  -3.5115071  -0.1612310  -3.5120501  -0.1651524 -19.2428658 169.0211632
 11.0018170 -19.2500591 169.0638366  -3.5111761  -0.1801468  -3.5117682  -0.1826353 -19.2524781 169.1211200
 11.1018336 -19.2681957 169.0669279  -3.5108177  -0.1992339  -3.5114705  -0.1998666 -19.2646505 169.0931177
 11.2018503 -19.2540680 169.1442563  -3.5106322  -0.2156151  -3.5112735  -0.2173770 -19.2572383 169.0925359
 11.3018670 -19.2774373 169.1113017  -3.5097468  -0.2328347  -3.5106305  -0.2356707 -19.2719645 169.1470393
 11.4018836 -19.2656797 169.1796262  -3.5099178  -0.2482788  -3.5109418  -0.2515469 -19.2574359 169.1952417
 11.5019003 -19.2783988 169.2449864  -3.5091754  -0.2642538  -3.5103397  -0.2656460 -19.2756647 169.2151479
 11.6019170 -19.2856392 169.2511186  -3.5090649  -0.2824023  -3.5098529  -0.2871683 -19.2778693 169.2207740
 11.7019337 -19.2816127 169.3190223  -3.5085713  -0.2994897  -3.5097682  -0.3031615 -19.2862153 169.2850540
 11.8019503 -19.2882650 169.3001518  -3.5086532  -0.3204916  -3.5096963  -0.3214380 -19.2872638 169.2589965
 11.9019670 -19.2869499 169.3099164  -3.5081965  -0.3336155  -3.5095843  -0.3359262 -19.2903566 169.2570772
 12.0019837 -19.3023046 169.3738311  -3.5083597  -0.3506878  -3.5097592  -0.3526447 -19.2915721 169.3619626
 12.1020003 -19.2995855 169.4275868  -3.5078043  -0.3670153  -3.5090636  -0.3670988 -19.2988023 169.3708843
 12.2020170 -19.2997751 169.3836049  -3.5075626  -0.3859222  -3.5089566  -0.3902784 -19.2984667 169.4280838
 12.3020337 -19.3233649 169.3937451  -3.5069624  -0.4003543  -3.5088098  -0.4038779 -19.3162220 169.4886302
 12.4020503 -19.3229581 169.4338693  -3.5069453  -0.4191916  -3.5082008  -0.4206702 -19.3143194 169.4750237
 12.5020670 -19.3299510 169.5004613  -3.5069932  -0.4330014  -3.5084263  -0.4374576 -19.3339084 169.4679552
 12.6020837 -19.3330344 169.5226355  -3.5067037  -0.4496549  -3.5075660  -0.4530424 -19.3236651 169.5438862
 12.7021004 -19.3245465 169.4935935  -3.5071696  -0.4688583  -3.5081242  -0.4687703 -19.3246611 169.5386135
 12.8021170 -19.3316268 169.5120837  -3.5066979  -0.4792304  -3.5074582  -0.4810860 -19.3267770 169.5419124
 12.9021337 -19.3385272 169.5706807  -3.5065148  -0.4973993  -3.5072575  -0.5016825 -19.3377107 169.5941419
 13.0021504 -19.3452513 169.5976195  -3.5058652  -0.5117998  -3.5073407  -0.5131790 -19.3331233 169.5717131
 13.1021670 -19.3432534 169.6100772  -3.5062704  -0.5284995  -3.5077495  -0.5298100 -19.3445006 169.5679705
 13.2021837 -19.3507453 169.5634311  -3.5060043  -0.5415897  -3.5074959  -0.5455746 -19.3422113 169.6173344
 13.3022004 -19.3521273 169.6378100  -3.5064818  -0.5582574  -3.5076001  -0.5613723 -19.3533438 169.6319508
 13.4022170 -19.3526831 169.7280911  -3.5060458  -0.5733445  -3.5077659  -0.5767707 -19.3575392 169.7132789
 13.5022337 -19.3647609 169.7552323  -3.5060704  -0.5860105  -3.5079168  -0.5889352 -19.3649730 169.7262294
 13.6022504 -19.3706542 169.7250276  -3.5059701  -0.6032790  -3.5076574  -0.6105286 -19.3622468 169.6851005
 13.7022670 -19.3715192 169.7208221  -3.5059276  -0.6180127  -3.5076739  -0.6195970 -19.3662788 169.7529638
 13.8022837 -19.3695138 169.7380809  -3.5061722  -0.6333397  -3.5077775  -0.6349200 -19.3688957 169.6867722
 13.9023004 -19.3700199 169.7447144  -3.5052252  -0.6510241  -3.5068666  -0.6509201 -19.3670162 169.7161854
 14.0023171 -19.3758579 169.7529641  -3.5062224  -0.6679437  -3.5071119  -0.6681652 -19.3835545 169.7835273
 14.1023337 -19.3810267 169.7816370  -3.5053208  -0.6805946  -3.5069342  -0.6801215 -19.3835722 169.7869643
 14.2023504 -19.3822604 169.8184888  -3.5053949  -0.6944133  -3.5069003  -0.6956390 -19.3755883 169.8050532
 14.3023671 -19.3921139 169.8220910  -3.5049644  -0.7078751  -3.5063929  -0.7103293 -19.3864374 169.8308650
 14.4023837 -19.3955609 169.8180537  -3.5054004  -0.7252029  -3.5068454  -0.7271566 -19.3867920 169.7951706
 14.5024004 -19.4010609 169.8400409  -3.5052882  -0.7389040  -3.5063922  -0.7414778 -19.4008624 169.8556564
 14.6024171 -19.3941303 169.8744063  -3.5042175  -0.7535347  -3.5059405  -0.7551991 -19.3859010 169.9029185
 14.7024337 -19.3972713 169.8694673  -3.5052736  -0.7639627  -3.5064518  -0.7714153 -19.3943211 169.8604264
 14.8024504 -19.4088806 169.9085742  -3.5046910  -0.7848592  -3.5058642  -0.7869409 -19.3986348 169.9387410
 14.9024671 -19.4132497 169.9037692  -3.5050433  -0.7964349  -3.5066359  -0.7975862 -19.4011445 169.9194405
 15.0024837 -19.4004999 169.9132185  -3.5044300  -0.8123344  -3.5059105  -0.8129732 -19.4019726 169.9334294
 15.1025004 -19.4119768 169.8857139  -3.5055172  -0.8236574  -3.5066103  -0.8266780 -19.4087218 169.9333166
 15.2025171 -19.4104414 169.8858367  -3.5055232  -0.8404058  -3.5068436  -0.8422083 -19.4096264 169.9438089
 15.3025338 -19.4201503 169.9685696  -3.5046940  -0.8515243  -3.5059024  -0.8540019 -19.4218019 169.9402568
 15.4025504 -19.4142075 169.9008284  -3.5045746  -0.8693678  -3.5058687  -0.8724770 -19.4203440 169.9377828
 15.5025671 -19.4261304 169.9606610  -3.5049795  -0.8800643  -3.5062290  -0.8836877 -19.4206488 169.9693378
 15.6025838 -19.4235321 169.9542927  -3.5050986  -0.8921637  -3.5063669  -0.8936635 -19.4204320 169.9071728
 15.7026004 -19.4284244 169.9439340  -3.5047140  -0.9073919  -3.5060462  -0.9097591 -19.4260391 169.9384272
 15.8026171 -19.4300297 170.0369581  -3.5047485  -0.9223150  -3.5058457  -0.9247114 -19.4309918 170.0139373
 15.9026338 -19.4288161 169.9540262  -3.5042775  -0.9353054  -3.5056568  -0.9368315 -19.4328695 170.0241315
 16.0026504 -19.4382889 169.9960657  -3.5047082  -0.9477939  -3.5059917  -0.9514282 -19.4271631 170.0090872
 16.1026671 -19.4474595 170.0400730  -3.5052398  -0.9643534  -3.5062011  -0.9659186 -19.4337789 170.0723613
 16.2026838 -19.4503040 169.9558077  -3.5044635  -0.9779765  -3.5062403  -0.9780399 -19.4385195 169.9654106
 16.3027005 -19.4435335 170.0483926  -3.5046148  -0.9900118  -3.5057982  -0.9899283 -19.4364051 169.9667391
 16.4027171 -19.4431007 169.9281216  -3.5044397  -1.0053598  -3.5059054  -1.0076591 -19.4359140 169.9499691
 16.5027338 -19.4478076 170.0822792  -3.5047044  -1.0180837  -3.5058926  -1.0208439 -19.4491447 169.9859757
 16.6027505 -19.4480087 170.0131111  -3.5050475  -1.0308127  -3.5060123  -1.0332428 -19.4437285 170.0391845
 16.7027671 -19.4451018 170.0442067  -3.5046045  -1.0442288  -3.5054178  -1.0478436 -19.4415554 170.0269933
 16.8027838 -19.4554826 170.0509275  -3.5046879  -1.0584066  -3.5056168  -1.0597727 -19.4567456 170.0039908
 16.9028005 -19.4723149 170.0323098  -3.5042932  -1.0667258  -3.5056056  -1.0725418 -19.4684659 170.0211917
 17.0028171 -19.4682973 170.0479124  -3.5047337  -1.0857235  -3.5059007  -1.0858809 -19.4642073 170.0261388
 17.1028338 -19.4680041 170.0168584  -3.5046012  -1.0960226  -3.5061515  -1.0982306 -19.4608917 169.9814592
 17.2028505 -19.4694851 170.0453309  -3.5045307  -1.1097833  -3.5057590  -1.1104904 -19.4526036 170.0263323
 17.3028671 -19.4653068 170.1094986  -3.5052928  -1.1281401  -3.5063623  -1.1278598 -19.4635463 170.0316106
 17.4028838 -19.4724682 170.0250613  -3.5047583  -1.1365122  -3.5061080  -1.1398375 -19.4688961 170.1075707
 17.5029005 -19.4778588 170.0666964  -3.5049945  -1.1508674  -3.5063195  -1.1540882 -19.4720920 170.0418473
 17.6029172 -19.4797372 170.0344167  -3.5046562  -1.1604599  -3.5054137  -1.1621599 -19.4750272 170.0545911
 17.7029338 -19.4815837 170.0716732  -3.5046829  -1.1738882  -3.5054734  -1.1785853 -19.4838093 170.0764440
 17.8029505 -19.4911365 169.9865563  -3.5041529  -1.1878114  -3.5048249  -1.1880271 -19.4866582 169.9710730
 17.9029672 -19.4823766 170.0854269  -3.5046270  -1.2006183  -3.5058305  -1.2011277 -19.4799025 170.0680977
 18.0029838 -19.4840475 170.0355208  -3.5045347  -1.2111364  -3.5055846  -1.2130722 -19.4814555 170.0136091
 18.1030005 -19.4876369 170.0549496  -3.5051393  -1.2266880  -3.5060398  -1.2254150 -19.4806975 170.0733302
 18.2030172 -19.4895780 170.1029472  -3.5042310  -1.2408272  -3.5060971  -1.2399269 -19.4932031 170.0326155
