! ListType=Lin
# MHz S DB R 50
 98.0000000 -76.3148345   0.0000000
 98.0039101 -76.5222423   0.0000000
 98.0078201 -76.7956153   0.0000000
 98.0117302 -76.6219667   0.0000000
 98.0156403 -76.6036369   0.0000000
 98.0195503 -76.6383643   0.0000000
 98.0234604 -76.6693070   0.0000000
 98.0273705 -76.7786563   0.0000000
 98.0312805 -76.5086048   0.0000000
 98.0351906 -76.7756520   0.0000000
 98.0391007 -76.6542692   0.0000000
 98.0430108 -76.6832996   0.0000000
 98.0469208 -76.6489966   0.0000000
 98.0508309 -76.6705539   0.0000000
 98.0547410 -76.6905363   0.0000000
 98.0586510 -76.6072421   0.0000000
 98.0625611 -76.6095847   0.0000000
 98.0664712 -76.4494393   0.0000000
 98.0703812 -76.5869815   0.0000000
 98.0742913 -76.4781308   0.0000000
 98.0782014 -76.6199502   0.0000000
 98.0821114 -76.4046457   0.0000000
 98.0860215 -76.5779212   0.0000000
 98.0899316 -76.5422420   0.0000000
 98.0938416 -76.6210797   0.0000000
 98.0977517 -76.3427384   0.0000000
 98.1016618 -76.4414647   0.0000000
 98.1055718 -76.5878917   0.0000000
 98.1094819 -76.4807113   0.0000000
 98.1133920 -76.6426726   0.0000000
 98.1173021 -76.5145663   0.0000000
 98.1212121 -76.5232513   0.0000000
 98.1251222 -76.5438818   0.0000000
 98.1290323 -76.6998419   0.0000000
 98.1329423 -76.6514772   0.0000000
 98.1368524 -76.8358382   0.0000000
 98.1407625 -76.5935045   0.0000000
 98.1446725 -76.8326995   0.0000000
 98.1485826 -76.5933417   0.0000000
 98.1524927 -76.6435350   0.0000000
 98.1564027 -76.6752445   0.0000000
 98.1603128 -76.8187780   0.0000000
 98.1642229 -76.5546737   0.0000000
 98.1681329 -76.5501126   0.0000000
 98.1720430 -76.5294764   0.0000000
 98.1759531 -76.6437227   0.0000000
 98.1798631 -76.5624753   0.0000000
 98.1837732 -76.5446599   0.0000000
 98.1876833 -76.5909353   0.0000000
 98.1915934 -76.5952230   0.0000000
 98.1955034 -76.5968813   0.0000000
 98.1994135 -76.6434223   0.0000000
 98.2033236 -76.6404837   0.0000000
 98.2072336 -76.7697821   0.0000000
 98.2111437 -76.6976569   0.0000000
 98.2150538 -76.7515616   0.0000000
 98.2189638 -76.8077699   0.0000000
 98.2228739 -76.5350110   0.0000000
 98.2267840 -76.6265201   0.0000000
 98.2306940 -76.6262540   0.0000000
 98.2346041 -76.7178431   0.0000000
 98.2385142 -76.6134944   0.0000000
 98.2424242 -76.5973093   0.0000000
 98.2463343 -76.6905619   0.0000000
 98.2502444 -76.7032826   0.0000000
 98.2541544 -76.5074371   0.0000000
 98.2580645 -76.7078931   0.0000000
 98.2619746 -76.7585848   0.0000000
 98.2658847 -76.6030765   0.0000000
 98.2697947 -76.7248971   0.0000000
 98.2737048 -76.7036789   0.0000000
 98.2776149 -76.7410429   0.0000000
 98.2815249 -76.6907026   0.0000000
 98.2854350 -76.7777187   0.0000000
 98.2893451 -76.5614275   0.0000000
 98.2932551 -76.7213535   0.0000000
 98.2971652 -76.6021195   0.0000000
 98.3010753 -76.5962793   0.0000000
 98.3049853 -76.6908337   0.0000000
 98.3088954 -76.6095784   0.0000000
 98.3128055 -76.6338623   0.0000000
 98.3167155 -76.5323676   0.0000000
 98.3206256 -76.6242174   0.0000000
 98.3245357 -76.7549041   0.0000000
 98.3284457 -76.5772555   0.0000000
 98.3323558 -76.5841088   0.0000000
 98.3362659 -76.4869988   0.0000000
 98.3401760 -76.5843728   0.0000000
 98.3440860 -76.6362595   0.0000000
 98.3479961 -76.6503557   0.0000000
 98.3519062 -76.5134734   0.0000000
 98.3558162 -76.5441733   0.0000000
 98.3597263 -76.5970429   0.0000000
 98.3636364 -76.5982620   0.0000000
 98.3675464 -76.7839015   0.0000000
 98.3714565 -76.5169311   0.0000000
 98.3753666 -76.5836207   0.0000000
 98.3792766 -76.5458240   0.0000000
 98.3831867 -76.5680199   0.0000000
 98.3870968 -76.6680418   0.0000000
 98.3910068 -76.5840309   0.0000000
 98.3949169 -76.4772353   0.0000000
 98.3988270 -76.5719997   0.0000000
 98.4027370 -76.7174293   0.0000000
 98.4066471 -76.5329996   0.0000000
 98.4105572 -76.5019986   0.0000000
 98.4144673 -76.7235966   0.0000000
 98.4183773 -76.5978968   0.0000000
 98.4222874 -76.3858524   0.0000000
 98.4261975 -76.6074174   0.0000000
 98.4301075 -76.4276597   0.0000000
 98.4340176 -76.5410455   0.0000000
 98.4379277 -76.7023558   0.0000000
 98.4418377 -76.5074876   0.0000000
 98.4457478 -76.4685070   0.0000000
 98.4496579 -76.5473699   0.0000000
 98.4535679 -76.6254928   0.0000000
 98.4574780 -76.4242297   0.0000000
 98.4613881 -76.6479484   0.0000000
 98.4652981 -76.6326928   0.0000000
 98.4692082 -76.5054177   0.0000000
 98.4731183 -76.4748538   0.0000000
 98.4770283 -76.4521648   0.0000000
 98.4809384 -76.5901472   0.0000000
 98.4848485 -76.6218746   0.0000000
 98.4887586 -76.4137921   0.0000000
 98.4926686 -76.4858830   0.0000000
 98.4965787 -76.5122592   0.0000000
 98.5004888 -76.5910926   0.0000000
 98.5043988 -76.5557033   0.0000000
 98.5083089 -76.3622990   0.0000000
 98.5122190 -76.2893769   0.0000000
 98.5161290 -76.5102379   0.0000000
 98.5200391 -76.4286892   0.0000000
 98.5239492 -76.6260444   0.0000000
 98.5278592 -76.3906192   0.0000000
 98.5317693 -76.4950845   0.0000000
 98.5356794 -76.4962258   0.0000000
 98.5395894 -76.4083374   0.0000000
 98.5434995 -76.4560710   0.0000000
 98.5474096 -76.5952405   0.0000000
 98.5513196 -76.4523293   0.0000000
 98.5552297 -76.4987821   0.0000000
 98.5591398 -76.5046252   0.0000000
 98.5630499 -76.4676450   0.0000000
 98.5669599 -76.6011942   0.0000000
 98.5708700 -76.5593905   0.0000000
 98.5747801 -76.6568042   0.0000000
 98.5786901 -76.3775759   0.0000000
 98.5826002 -76.5586213   0.0000000
 98.5865103 -76.3314680   0.0000000
 98.5904203 -76.4407061   0.0000000
 98.5943304 -76.4521571   0.0000000
 98.5982405 -76.4385017   0.0000000
 98.6021505 -76.4428885   0.0000000
 98.6060606 -76.5283368   0.0000000
 98.6099707 -76.5400691   0.0000000
 98.6138807 -76.4145077   0.0000000
 98.6177908 -76.3694532   0.0000000
 98.6217009 -76.5246282   0.0000000
 98.6256109 -76.3808988   0.0000000
 98.6295210 -76.3869645   0.0000000
 98.6334311 -76.2877109   0.0000000
 98.6373412 -76.3836918   0.0000000
 98.6412512 -76.3899964   0.0000000
 98.6451613 -76.2445412   0.0000000
 98.6490714 -76.3927268   0.0000000
 98.6529814 -76.4118491   0.0000000
 98.6568915 -76.4170741   0.0000000
 98.6608016 -76.3996599   0.0000000
 98.6647116 -76.1891317   0.0000000
 98.6686217 -76.2428107   0.0000000
 98.6725318 -76.5031159   0.0000000
 98.6764418 -76.3596410   0.0000000
 98.6803519 -76.2988834   0.0000000
 98.6842620 -76.4160073   0.0000000
 98.6881720 -76.2647322   0.0000000
 98.6920821 -76.1154791   0.0000000
 98.6959922 -76.3087303   0.0000000
 98.6999022 -76.4710329   0.0000000
 98.7038123 -76.2342603   0.0000000
 98.7077224 -76.4302050   0.0000000
 98.7116325 -76.2439131   0.0000000
 98.7155425 -76.4351046   0.0000000
 98.7194526 -76.3924202   0.0000000
 98.7233627 -76.2524614   0.0000000
 98.7272727 -76.3135332   0.0000000
 98.7311828 -76.1395252   0.0000000
 98.7350929 -76.2133596   0.0000000
 98.7390029 -76.2733801   0.0000000
 98.7429130 -76.2318924   0.0000000
 98.7468231 -76.2476287   0.0000000
 98.7507331 -76.2347331   0.0000000
 98.7546432 -76.2050725   0.0000000
 98.7585533 -76.3383403   0.0000000
 98.7624633 -76.0762740   0.0000000
 98.7663734 -76.0815940   0.0000000
 98.7702835 -76.1512777   0.0000000
 98.7741935 -76.3194354   0.0000000
 98.7781036 -75.9829982   0.0000000
 98.7820137 -76.1790332   0.0000000
 98.7859238 -75.9821514   0.0000000
 98.7898338 -76.1296180   0.0000000
 98.7937439 -76.0873054   0.0000000
 98.7976540 -76.0264329   0.0000000
 98.8015640 -76.0496753   0.0000000
 98.8054741 -76.0010462   0.0000000
 98.8093842 -76.0730439   0.0000000
 98.8132942 -76.0145460   0.0000000
 98.8172043 -75.8976393   0.0000000
 98.8211144 -76.0513912   0.0000000
 98.8250244 -76.0517855   0.0000000
 98.8289345 -75.8612089   0.0000000
 98.8328446 -75.9950969   0.0000000
 98.8367546 -75.9942411   0.0000000
 98.8406647 -75.9272061   0.0000000
 98.8445748 -75.9843923   0.0000000
 98.8484848 -75.9164240   0.0000000
 98.8523949 -75.8937542   0.0000000
 98.8563050 -75.9039419   0.0000000
 98.8602151 -76.0010115   0.0000000
 98.8641251 -75.9229633   0.0000000
 98.8680352 -75.9218596   0.0000000
 98.8719453 -75.8528858   0.0000000
 98.8758553 -75.7880582   0.0000000
 98.8797654 -75.8506246   0.0000000
 98.8836755 -75.6525212   0.0000000
 98.8875855 -75.7056734   0.0000000
 98.8914956 -75.6520092   0.0000000
 98.8954057 -75.7923664   0.0000000
 98.8993157 -75.7133018   0.0000000
 98.9032258 -75.6878206   0.0000000
 98.9071359 -75.8306160   0.0000000
 98.9110459 -75.8181016   0.0000000
 98.9149560 -75.6486014   0.0000000
 98.9188661 -75.7892562   0.0000000
 98.9227761 -75.6939051   0.0000000
 98.9266862 -75.4692587   0.0000000
 98.9305963 -75.7556111   0.0000000
 98.9345064 -75.5486695   0.0000000
 98.9384164 -75.6143630   0.0000000
 98.9423265 -75.4152202   0.0000000
 98.9462366 -75.4938496   0.0000000
 98.9501466 -75.6903958   0.0000000
 98.9540567 -75.5904524   0.0000000
 98.9579668 -75.5175311   0.0000000
 98.9618768 -75.6434215   0.0000000
 98.9657869 -75.3614819   0.0000000
 98.9696970 -75.4191461   0.0000000
 98.9736070 -75.5631382   0.0000000
 98.9775171 -75.3599752   0.0000000
 98.9814272 -75.4462488   0.0000000
 98.9853372 -75.2183428   0.0000000
 98.9892473 -75.3971159   0.0000000
 98.9931574 -75.3244698   0.0000000
 98.9970674 -75.5168375   0.0000000
 99.0009775 -75.4039640   0.0000000
 99.0048876 -75.3675992   0.0000000
 99.0087977 -75.4503448   0.0000000
 99.0127077 -75.2491811   0.0000000
 99.0166178 -75.1961463   0.0000000
 99.0205279 -75.2556109   0.0000000
 99.0244379 -75.4708336   0.0000000
 99.0283480 -75.2923127   0.0000000
 99.0322581 -75.2491958   0.0000000
 99.0361681 -75.2518700   0.0000000
 99.0400782 -75.1629914   0.0000000
 99.0439883 -75.0890177   0.0000000
 99.0478983 -75.1529602   0.0000000
 99.0518084 -75.0795718   0.0000000
 99.0557185 -75.1444551   0.0000000
 99.0596285 -75.2465599   0.0000000
 99.0635386 -75.1615303   0.0000000
 99.0674487 -75.0230060   0.0000000
 99.0713587 -74.9397549   0.0000000
 99.0752688 -75.0689849   0.0000000
 99.0791789 -75.1042344   0.0000000
 99.0830890 -74.9366691   0.0000000
 99.0869990 -74.8624269   0.0000000
 99.0909091 -74.9940312   0.0000000
 99.0948192 -74.9836898   0.0000000
 99.0987292 -74.8871833   0.0000000
 99.1026393 -74.8358658   0.0000000
 99.1065494 -74.7651065   0.0000000
 99.1104594 -74.7872247   0.0000000
 99.1143695 -74.9936444   0.0000000
 99.1182796 -74.8218586   0.0000000
 99.1221896 -74.8001435   0.0000000
 99.1260997 -74.9288644   0.0000000
 99.1300098 -74.8085402   0.0000000
 99.1339198 -74.7655905   0.0000000
 99.1378299 -74.8993778   0.0000000
 99.1417400 -74.7665647   0.0000000
 99.1456500 -74.8434817   0.0000000
 99.1495601 -74.7721220   0.0000000
 99.1534702 -74.7923816   0.0000000
 99.1573803 -74.7620114   0.0000000
 99.1612903 -74.7162748   0.0000000
 99.1652004 -74.7529218   0.0000000
 99.1691105 -74.7723804   0.0000000
 99.1730205 -74.7834111   0.0000000
 99.1769306 -74.5392296   0.0000000
 99.1808407 -74.6660810   0.0000000
 99.1847507 -74.8724316   0.0000000
 99.1886608 -74.8068597   0.0000000
 99.1925709 -74.5025568   0.0000000
 99.1964809 -74.5471264   0.0000000
 99.2003910 -74.4755095   0.0000000
 99.2043011 -74.5085660   0.0000000
 99.2082111 -74.5122668   0.0000000
 99.2121212 -74.5677123   0.0000000
 99.2160313 -74.4547732   0.0000000
 99.2199413 -74.5052832   0.0000000
 99.2238514 -74.4115842   0.0000000
 99.2277615 -74.4259820   0.0000000
 99.2316716 -74.5487481   0.0000000
 99.2355816 -74.4321661   0.0000000
 99.2394917 -74.3473319   0.0000000
 99.2434018 -74.3345209   0.0000000
 99.2473118 -74.4384188   0.0000000
 99.2512219 -74.5833256   0.0000000
 99.2551320 -74.4616751   0.0000000
 99.2590420 -74.2460440   0.0000000
 99.2629521 -74.4585198   0.0000000
 99.2668622 -74.5092426   0.0000000
 99.2707722 -74.4720751   0.0000000
 99.2746823 -74.2146710   0.0000000
 99.2785924 -74.4398390   0.0000000
 99.2825024 -74.3568347   0.0000000
 99.2864125 -74.3670114   0.0000000
 99.2903226 -74.2448164   0.0000000
 99.2942326 -74.3915876   0.0000000
 99.2981427 -74.0988013   0.0000000
 99.3020528 -74.3166850   0.0000000
 99.3059629 -74.2201080   0.0000000
 99.3098729 -74.1533901   0.0000000
 99.3137830 -74.1278805   0.0000000
 99.3176931 -74.1283396   0.0000000
 99.3216031 -74.1322824   0.0000000
 99.3255132 -74.0443491   0.0000000
 99.3294233 -73.8819920   0.0000000
 99.3333333 -73.4885504   0.0000000
 99.3372434 -74.0229295   0.0000000
 99.3411535 -74.0711185   0.0000000
 99.3450635 -74.0145285   0.0000000
 99.3489736 -73.8227728   0.0000000
 99.3528837 -73.9953471   0.0000000
 99.3567937 -73.8972646   0.0000000
 99.3607038 -74.0741189   0.0000000
 99.3646139 -74.0232441   0.0000000
 99.3685239 -74.0077140   0.0000000
 99.3724340 -73.9260447   0.0000000
 99.3763441 -73.8343000   0.0000000
 99.3802542 -73.9189256   0.0000000
 99.3841642 -73.8235616   0.0000000
 99.3880743 -73.6678283   0.0000000
 99.3919844 -73.7649358   0.0000000
 99.3958944 -73.6739059   0.0000000
 99.3998045 -73.7206141   0.0000000
 99.4037146 -73.7405901   0.0000000
 99.4076246 -73.7381580   0.0000000
 99.4115347 -73.5930166   0.0000000
 99.4154448 -73.4722559   0.0000000
 99.4193548 -73.5372040   0.0000000
 99.4232649 -73.5109904   0.0000000
 99.4271750 -73.4462948   0.0000000
 99.4310850 -73.4510543   0.0000000
 99.4349951 -73.5077279   0.0000000
 99.4389052 -73.4075722   0.0000000
 99.4428152 -73.4049916   0.0000000
 99.4467253 -73.3965127   0.0000000
 99.4506354 -73.3122898   0.0000000
 99.4545455 -73.1650394   0.0000000
 99.4584555 -73.0978505   0.0000000
 99.4623656 -73.2450301   0.0000000
 99.4662757 -73.3110150   0.0000000
 99.4701857 -73.1274473   0.0000000
 99.4740958 -72.9785871   0.0000000
 99.4780059 -72.9930519   0.0000000
 99.4819159 -73.0833078   0.0000000
 99.4858260 -73.0430055   0.0000000
 99.4897361 -72.4477456   0.0000000
 99.4936461 -72.3866303   0.0000000
 99.4975562 -71.8859364   0.0000000
 99.5014663 -71.8323450   0.0000000
 99.5053763 -72.1799031   0.0000000
 99.5092864 -72.3090366   0.0000000
 99.5131965 -72.6848844   0.0000000
 99.5171065 -72.6132266   0.0000000
 99.5210166 -72.6116088   0.0000000
 99.5249267 -72.3256439   0.0000000
 99.5288368 -72.4634890   0.0000000
 99.5327468 -72.3837772   0.0000000
 99.5366569 -72.4198833   0.0000000
 99.5405670 -72.0833232   0.0000000
 99.5444770 -72.4066905   0.0000000
 99.5483871 -72.0420344   0.0000000
 99.5522972 -72.0337056   0.0000000
 99.5562072 -71.8654616   0.0000000
 99.5601173 -71.8639625   0.0000000
 99.5640274 -71.9034914   0.0000000
 99.5679374 -71.8959210   0.0000000
 99.5718475 -71.5797754   0.0000000
 99.5757576 -71.6360933   0.0000000
 99.5796676 -71.5741825   0.0000000
 99.5835777 -71.5087399   0.0000000
 99.5874878 -71.5187603   0.0000000
 99.5913978 -71.3910409   0.0000000
 99.5953079 -71.3490332   0.0000000
 99.5992180 -71.2672190   0.0000000
 99.6031281 -71.0135032   0.0000000
 99.6070381 -71.0275132   0.0000000
 99.6109482 -70.9891841   0.0000000
 99.6148583 -70.7364433   0.0000000
 99.6187683 -70.8055930   0.0000000
 99.6226784 -70.6721925   0.0000000
 99.6265885 -70.5469383   0.0000000
 99.6304985 -70.5405080   0.0000000
 99.6344086 -70.2448208   0.0000000
 99.6383187 -70.2896879   0.0000000
 99.6422287 -70.1239787   0.0000000
 99.6461388 -69.9707725   0.0000000
 99.6500489 -69.8088192   0.0000000
 99.6539589 -69.7799427   0.0000000
 99.6578690 -69.7893780   0.0000000
 99.6617791 -69.5300076   0.0000000
 99.6656891 -69.3536766   0.0000000
 99.6695992 -69.2441458   0.0000000
 99.6735093 -69.1748887   0.0000000
 99.6774194 -68.9810246   0.0000000
 99.6813294 -68.8460526   0.0000000
 99.6852395 -68.7310662   0.0000000
 99.6891496 -68.6209376   0.0000000
 99.6930596 -68.4274395   0.0000000
 99.6969697 -68.3244970   0.0000000
 99.7008798 -68.2966947   0.0000000
 99.7047898 -68.2826301   0.0000000
 99.7086999 -68.0271004   0.0000000
 99.7126100 -67.6563080   0.0000000
 99.7165200 -67.5722309   0.0000000
 99.7204301 -67.5190494   0.0000000
 99.7243402 -67.4085015   0.0000000
 99.7282502 -67.0832391   0.0000000
 99.7321603 -67.0038264   0.0000000
 99.7360704 -66.6824024   0.0000000
 99.7399804 -66.6136362   0.0000000
 99.7438905 -66.4536070   0.0000000
 99.7478006 -66.2733571   0.0000000
 99.7517107 -66.0598180   0.0000000
 99.7556207 -65.9556694   0.0000000
 99.7595308 -65.7923419   0.0000000
 99.7634409 -65.5439554   0.0000000
 99.7673509 -65.4533403   0.0000000
 99.7712610 -65.1864115   0.0000000
 99.7751711 -65.1533775   0.0000000
 99.7790811 -65.0743873   0.0000000
 99.7829912 -64.9289864   0.0000000
 99.7869013 -64.6609812   0.0000000
 99.7908113 -64.6020137   0.0000000
 99.7947214 -64.4842921   0.0000000
 99.7986315 -64.2409844   0.0000000
 99.8025415 -64.0818958   0.0000000
 99.8064516 -64.1097526   0.0000000
 99.8103617 -64.0348595   0.0000000
 99.8142717 -63.8505410   0.0000000
 99.8181818 -63.7006327   0.0000000
 99.8220919 -63.4587125   0.0000000
 99.8260020 -63.5172420   0.0000000
 99.8299120 -63.4910865   0.0000000
 99.8338221 -63.2247519   0.0000000
 99.8377322 -63.2600267   0.0000000
 99.8416422 -63.2623607   0.0000000
 99.8455523 -63.1647412   0.0000000
 99.8494624 -63.0762722   0.0000000
 99.8533724 -63.2457917   0.0000000
 99.8572825 -63.2044558   0.0000000
 99.8611926 -62.9148448   0.0000000
 99.8651026 -63.0185711   0.0000000
 99.8690127 -62.7513297   0.0000000
 99.8729228 -62.8411451   0.0000000
 99.8768328 -62.7441336   0.0000000
 99.8807429 -62.7269809   0.0000000
 99.8846530 -62.4864897   0.0000000
 99.8885630 -62.5629306   0.0000000
 99.8924731 -62.4319610   0.0000000
 99.8963832 -62.3273436   0.0000000
 99.9002933 -62.0742175   0.0000000
 99.9042033 -61.9318489   0.0000000
 99.9081134 -61.8550168   0.0000000
 99.9120235 -61.5694295   0.0000000
 99.9159335 -61.3873955   0.0000000
 99.9198436 -61.2479870   0.0000000
 99.9237537 -60.9491352   0.0000000
 99.9276637 -60.6827818   0.0000000
 99.9315738 -60.4100539   0.0000000
 99.9354839 -60.2108794   0.0000000
 99.9393939 -59.7018410   0.0000000
 99.9433040 -59.3955438   0.0000000
 99.9472141 -58.9131343   0.0000000
 99.9511241 -58.6087836   0.0000000
 99.9550342 -58.2419825   0.0000000
 99.9589443 -57.8250135   0.0000000
 99.9628543 -57.3400428   0.0000000
 99.9667644 -57.3542819   0.0000000
 99.9706745 -57.1133608   0.0000000
 99.9745846 -34.4049199   0.0000000
 99.9784946 -25.4495560   0.0000000
 99.9824047 -24.2944383   0.0000000
 99.9863148 -23.0608898   0.0000000
 99.9902248 -21.8673514   0.0000000
 99.9941349 -20.8875496   0.0000000
 99.9980450 -20.3960641   0.0000000
100.0019550 -20.5279104   0.0000000
100.0058651 -21.1754567   0.0000000
100.0097752 -22.2334350   0.0000000
100.0136852 -23.4363169   0.0000000
100.0175953 -24.6588957   0.0000000
100.0215054 -26.1242078   0.0000000
100.0254154 -45.8143273   0.0000000
100.0293255 -57.1456467   0.0000000
100.0332356 -57.3278954   0.0000000
100.0371457 -57.6872138   0.0000000
100.0410557 -57.9302939   0.0000000
100.0449658 -58.2851945   0.0000000
100.0488759 -58.8943419   0.0000000
100.0527859 -59.3179108   0.0000000
100.0566960 -59.5061025   0.0000000
100.0606061 -59.8396406   0.0000000
100.0645161 -60.3932294   0.0000000
100.0684262 -60.5301496   0.0000000
100.0723363 -60.7151934   0.0000000
100.0762463 -61.0089399   0.0000000
100.0801564 -61.1208759   0.0000000
100.0840665 -61.4007039   0.0000000
100.0879765 -61.6084542   0.0000000
100.0918866 -61.7611203   0.0000000
100.0957967 -62.2166482   0.0000000
100.0997067 -62.1238745   0.0000000
100.1036168 -62.3723339   0.0000000
