! ListType=Lin
# MHZ S DB R 50
 40.0000000  -4.0027668 149.5041639 -54.3387163 -127.5972883 -3000.0000000 -90.0000000 -3000.0000000 -90.0000000
 40.0293040  -4.0033062 149.4554710 -54.3138870 -127.5308845 -3000.0000000 -90.0000000 -3000.0000000 -90.0000000
 40.0586081  -4.0027052 149.4226246 -54.2914605 -127.5669626 -3000.0000000 -90.0000000 -3000.0000000 -90.0000000
 40.0879121  -4.0032975 149.3911220 -54.2567377 -127.5593352 -3000.0000000 -90.0000000 -3000.0000000 -90.0000000
 40.1172161  -4.0033418 149.3594731 -54.2395020 -127.7037134 -3000.0000000 -90.0000000 -3000.0000000 -90.0000000
 40.1465201  -4.0023085 149.3289138 -54.2022572 -127.5797799 -3000.0000000 -90.0000000 -3000.0000000 -90.0000000
 40.1758242  -4.0024235 149.2936288 -54.1776243 -127.5677758 -3000.0000000 -90.0000000 -3000.0000000 -90.0000000
 40.2051282  -4.0021506 149.2652777 -54.1342618 -127.6467790 -3000.0000000 -90.0000000 -3000.0000000 -90.0000000
 40.2344322  -4.0018744 149.2318396 -54.1325859 -127.6993917 -3000.0000000 -90.0000000 -3000.0000000 -90.0000000
 40.2637363  -4.0014185 149.2019779 -54.1027117 -127.8259398 -3000.0000000 -90.0000000 -3000.0000000 -90.0000000
 40.2930403  -4.0010703 149.1721127 -54.0835937 -127.7957379 -3000.0000000 -90.0000000 -3000.0000000 -90.0000000
 40.3223443  -4.0009630 149.1426035 -54.0431226 -127.8226349 -3000.0000000 -90.0000000 -3000.0000000 -90.0000000
 40.3516484  -4.0002503 149.1092431 -54.0186231 -127.7763278 -3000.0000000 -90.0000000 -3000.0000000 -90.0000000
 40.3809524  -4.0001536 149.0757325 -53.9787527 -127.8106999 -3000.0000000 -90.0000000 -3000.0000000 -90.0000000
 40.4102564  -4.0001332 149.0449240 -53.9509806 -127.8292710 -3000.0000000 -90.0000000 -3000.0000000 -90.0000000
 40.4395604  -3.9994694 149.0157703 -53.9289483 -127.8733674 -3000.0000000 -90.0000000 -3000.0000000 -90.0000000
 40.4688645  -3.9987101 148.9861109 -53.8993336 -127.9273039 -3000.0000000 -90.0000000 -3000.0000000 -90.0000000
 40.4981685  -3.9988283 148.9570859 -53.8781751 -127.8861905 -3000.0000000 -90.0000000 -3000.0000000 -90.0000000
 40.5274725  -3.9987109 148.9203705 -53.8350459 -127.9736093 -3000.0000000 -90.0000000 -3000.0000000 -90.0000000
 40.5567766  -3.9989507 148.8901857 -53.8301128 -128.0164973 -3000.0000000 -90.0000000 -3000.0000000 -90.0000000
 40.5860806  -3.9985377 148.8571997 -53.7935624 -128.0707815 -3000.0000000 -90.0000000 -3000.0000000 -90.0000000
 40.6153846  -3.9978961 148.8265626 -53.7604953 -128.1030098 -3000.0000000 -90.0000000 -3000.0000000 -90.0000000
 40.6446886  -3.9974592 148.7943797 -53.7424511 -128.0063191 -3000.0000000 -90.0000000 -3000.0000000 -90.0000000
 40.6739927  -3.9977707 148.7602534 -53.7154499 -128.1480958 -3000.0000000 -90.0000000 -3000.0000000 -90.0000000
 40.7032967  -3.9972815 148.7282881 -53.6931787 -128.1252668 -3000.0000000 -90.0000000 -3000.0000000 -90.0000000
 40.7326007  -3.9972993 148.6991821 -53.6644035 -128.1432502 -3000.0000000 -90.0000000 -3000.0000000 -90.0000000
 40.7619048  -3.9974031 148.6670454 -53.6177570 -128.1473417 -3000.0000000 -90.0000000 -3000.0000000 -90.0000000
 40.7912088  -3.9967059 148.6345360 -53.6024813 -128.1852597 -3000.0000000 -90.0000000 -3000.0000000 -90.0000000
 40.8205128  -3.9967862 148.6033768 -53.5696316 -128.2132796 -3000.0000000 -90.0000000 -3000.0000000 -90.0000000
 40.8498168  -3.9965864 148.5718468 -53.5412700 -128.2424232 -3000.0000000 -90.0000000 -3000.0000000 -90.0000000
 40.8791209  -3.9966012 148.5404183 -53.5091770 -128.3162439 -3000.0000000 -90.0000000 -3000.0000000 -90.0000000
 40.9084249  -3.9970759 148.5114047 -53.5039956 -128.3936739 -3000.0000000 -90.0000000 -3000.0000000 -90.0000000
 40.9377289  -3.9958440 148.4774562 -53.4668302 -128.2622472 -3000.0000000 -90.0000000 -3000.0000000 -90.0000000
 40.9670330  -3.9956409 148.4442291 -53.4332443 -128.3242739 -3000.0000000 -90.0000000 -3000.0000000 -90.0000000
 40.9963370  -3.9951492 148.4103799 -53.4255455 -128.3433474 -3000.0000000 -90.0000000 -3000.0000000 -90.0000000
 41.0256410  -3.9954097 148.3773477 -53.3810318 -128.4265007 -3000.0000000 -90.0000000 -3000.0000000 -90.0000000
 41.0549451  -3.9948665 148.3475421 -53.3612377 -128.3936229 -3000.0000000 -90.0000000 -3000.0000000 -90.0000000
 41.0842491  -3.9949716 148.3175049 -53.3262315 -128.4264002 -3000.0000000 -90.0000000 -3000.0000000 -90.0000000
 41.1135531  -3.9951315 148.2840249 -53.2972691 -128.4840894 -3000.0000000 -90.0000000 -3000.0000000 -90.0000000
 41.1428571  -3.9937661 148.2581968 -53.2922474 -128.5323385 -3000.0000000 -90.0000000 -3000.0000000 -90.0000000
 41.1721612  -3.9946595 148.2176695 -53.2670534 -128.6107895 -3000.0000000 -90.0000000 -3000.0000000 -90.0000000
 41.2014652  -3.9943193 148.1900708 -53.2250708 -128.5031992 -3000.0000000 -90.0000000 -3000.0000000 -90.0000000
 41.2307692  -3.9939007 148.1572318 -53.1908052 -128.5890544 -3000.0000000 -90.0000000 -3000.0000000 -90.0000000
 41.2600733  -3.9928676 148.1223136 -53.1708172 -128.6146248 -3000.0000000 -90.0000000 -3000.0000000 -90.0000000
 41.2893773  -3.9934419 148.0931508 -53.1551001 -128.7016779 -3000.0000000 -90.0000000 -3000.0000000 -90.0000000
 41.3186813  -3.9926151 148.0589431 -53.0997961 -128.6392178 -3000.0000000 -90.0000000 -3000.0000000 -90.0000000
 41.3479853  -3.9921473 148.0261843 -53.1010221 -128.7284648 -3000.0000000 -90.0000000 -3000.0000000 -90.0000000
 41.3772894  -3.9921288 147.9913342 -53.0579113 -128.7703442 -3000.0000000 -90.0000000 -3000.0000000 -90.0000000
 41.4065934  -3.9918362 147.9647175 -53.0215207 -128.7092753 -3000.0000000 -90.0000000 -3000.0000000 -90.0000000
 41.4358974  -3.9916049 147.9305919 -53.0108540 -128.7628211 -3000.0000000 -90.0000000 -3000.0000000 -90.0000000
 41.4652015  -3.9915837 147.8958917 -52.9748094 -128.7142256 -3000.0000000 -90.0000000 -3000.0000000 -90.0000000
 41.4945055  -3.9913229 147.8659401 -52.9453469 -128.9105834 -3000.0000000 -90.0000000 -3000.0000000 -90.0000000
 41.5238095  -3.9912776 147.8343803 -52.9254520 -128.8159765 -3000.0000000 -90.0000000 -3000.0000000 -90.0000000
 41.5531136  -3.9914863 147.7998771 -52.8994251 -128.8142028 -3000.0000000 -90.0000000 -3000.0000000 -90.0000000
 41.5824176  -3.9915385 147.7649862 -52.8749809 -128.8159612 -3000.0000000 -90.0000000 -3000.0000000 -90.0000000
 41.6117216  -3.9907287 147.7338164 -52.8490571 -128.9104547 -3000.0000000 -90.0000000 -3000.0000000 -90.0000000
 41.6410256  -3.9903949 147.7014471 -52.8226322 -128.8599584 -3000.0000000 -90.0000000 -3000.0000000 -90.0000000
 41.6703297  -3.9902231 147.6692080 -52.7834201 -128.8775088 -3000.0000000 -90.0000000 -3000.0000000 -90.0000000
 41.6996337  -3.9901156 147.6389048 -52.7565587 -128.9105231 -3000.0000000 -90.0000000 -3000.0000000 -90.0000000
 41.7289377  -3.9900209 147.6048434 -52.7225279 -128.9207202 -3000.0000000 -90.0000000 -3000.0000000 -90.0000000
 41.7582418  -3.9897274 147.5714554 -52.7030503 -128.9883925 -3000.0000000 -90.0000000 -3000.0000000 -90.0000000
 41.7875458  -3.9892854 147.5399956 -52.6844800 -129.0971593 -3000.0000000 -90.0000000 -3000.0000000 -90.0000000
 41.8168498  -3.9895462 147.5071153 -52.6499683 -129.0916602 -3000.0000000 -90.0000000 -3000.0000000 -90.0000000
 41.8461538  -3.9888961 147.4739774 -52.6245369 -129.1893907 -3000.0000000 -90.0000000 -3000.0000000 -90.0000000
 41.8754579  -3.9885493 147.4381974 -52.5982180 -129.1496615 -3000.0000000 -90.0000000 -3000.0000000 -90.0000000
 41.9047619  -3.9883081 147.4080508 -52.5633414 -129.1491856 -3000.0000000 -90.0000000 -3000.0000000 -90.0000000
 41.9340659  -3.9888522 147.3765604 -52.5363319 -129.1970760 -3000.0000000 -90.0000000 -3000.0000000 -90.0000000
 41.9633700  -3.9883528 147.3432587 -52.5053243 -129.1915246 -3000.0000000 -90.0000000 -3000.0000000 -90.0000000
 41.9926740  -3.9887649 147.3099240 -52.4884504 -129.2940658 -3000.0000000 -90.0000000 -3000.0000000 -90.0000000
 42.0219780  -3.9879206 147.2798603 -52.4640773 -129.2740323 -3000.0000000 -90.0000000 -3000.0000000 -90.0000000
 42.0512821  -3.9879590 147.2408380 -52.4265912 -129.3533874 -3000.0000000 -90.0000000 -3000.0000000 -90.0000000
 42.0805861  -3.9870988 147.2129109 -52.4214554 -129.2640858 -3000.0000000 -90.0000000 -3000.0000000 -90.0000000
 42.1098901  -3.9866613 147.1776025 -52.3780097 -129.4153014 -3000.0000000 -90.0000000 -3000.0000000 -90.0000000
 42.1391941  -3.9868119 147.1479926 -52.3356271 -129.2962213 -3000.0000000 -90.0000000 -3000.0000000 -90.0000000
 42.1684982  -3.9866618 147.1139709 -52.3133290 -129.2109975 -3000.0000000 -90.0000000 -3000.0000000 -90.0000000
 42.1978022  -3.9861047 147.0791764 -52.2940467 -129.4688336 -3000.0000000 -90.0000000 -3000.0000000 -90.0000000
 42.2271062  -3.9859531 147.0446467 -52.2639242 -129.5687683 -3000.0000000 -90.0000000 -3000.0000000 -90.0000000
 42.2564103  -3.9854963 147.0092885 -52.2273199 -129.4469665 -3000.0000000 -90.0000000 -3000.0000000 -90.0000000
 42.2857143  -3.9856289 146.9819227 -52.2021250 -129.4795015 -3000.0000000 -90.0000000 -3000.0000000 -90.0000000
 42.3150183  -3.9850804 146.9514173 -52.1887532 -129.5773884 -3000.0000000 -90.0000000 -3000.0000000 -90.0000000
 42.3443223  -3.9838625 146.9144988 -52.1528413 -129.6101388 -3000.0000000 -90.0000000 -3000.0000000 -90.0000000
 42.3736264  -3.9840785 146.8818422 -52.1340096 -129.5957883 -3000.0000000 -90.0000000 -3000.0000000 -90.0000000
 42.4029304  -3.9840664 146.8466411 -52.1000510 -129.6538380 -3000.0000000 -90.0000000 -3000.0000000 -90.0000000
 42.4322344  -3.9838232 146.8147956 -52.0820844 -129.6915764 -3000.0000000 -90.0000000 -3000.0000000 -90.0000000
 42.4615385  -3.9835629 146.7733217 -52.0438374 -129.6733693 -3000.0000000 -90.0000000 -3000.0000000 -90.0000000
 42.4908425  -3.9838798 146.7474284 -52.0088596 -129.6868835 -3000.0000000 -90.0000000 -3000.0000000 -90.0000000
 42.5201465  -3.9830281 146.7127873 -51.9974751 -129.7873273 -3000.0000000 -90.0000000 -3000.0000000 -90.0000000
 42.5494505  -3.9830510 146.6792454 -51.9741858 -129.7456281 -3000.0000000 -90.0000000 -3000.0000000 -90.0000000
 42.5787546  -3.9827428 146.6437755 -51.9484476 -129.7715487 -3000.0000000 -90.0000000 -3000.0000000 -90.0000000
 42.6080586  -3.9822229 146.6121986 -51.9262424 -129.8284151 -3000.0000000 -90.0000000 -3000.0000000 -90.0000000
 42.6373626  -3.9824473 146.5782428 -51.9047856 -129.8408264 -3000.0000000 -90.0000000 -3000.0000000 -90.0000000
 42.6666667  -3.9827263 146.5504984 -51.8665580 -129.9277347 -3000.0000000 -90.0000000 -3000.0000000 -90.0000000
 42.6959707  -3.9818380 146.5068757 -51.8322983 -129.8579457 -3000.0000000 -90.0000000 -3000.0000000 -90.0000000
 42.7252747  -3.9813624 146.4780902 -51.8145608 -129.9024005 -3000.0000000 -90.0000000 -3000.0000000 -90.0000000
 42.7545788  -3.9818575 146.4407788 -51.7824912 -129.9500264 -3000.0000000 -90.0000000 -3000.0000000 -90.0000000
 42.7838828  -3.9811158 146.4081131 -51.7585974 -129.9679066 -3000.0000000 -90.0000000 -3000.0000000 -90.0000000
 42.8131868  -3.9807249 146.3764771 -51.7203433 -129.9543327 -3000.0000000 -90.0000000 -3000.0000000 -90.0000000
 42.8424908  -3.9811789 146.3410501 -51.7024345 -130.0176360 -3000.0000000 -90.0000000 -3000.0000000 -90.0000000
 42.8717949  -3.9804140 146.3080527 -51.6790396 -130.0582991 -3000.0000000 -90.0000000 -3000.0000000 -90.0000000
 42.9010989  -3.9804734 146.2767313 -51.6526064 -130.0765741 -3000.0000000 -90.0000000 -3000.0000000 -90.0000000
 42.9304029  -3.9806301 146.2405811 -51.6183966 -130.0756995 -3000.0000000 -90.0000000 -3000.0000000 -90.0000000
 42.9597070  -3.9791848 146.2080912 -51.5955339 -130.1013335 -3000.0000000 -90.0000000 -3000.0000000 -90.0000000
 42.9890110  -3.9789108 146.1719876 -51.5640801 -130.1721496 -3000.0000000 -90.0000000 -3000.0000000 -90.0000000
 43.0183150  -3.9789602 146.1401851 -51.5468284 -130.1346591 -3000.0000000 -90.0000000 -3000.0000000 -90.0000000
 43.0476190  -3.9786703 146.1027214 -51.5177528 -130.2646147 -3000.0000000 -90.0000000 -3000.0000000 -90.0000000
 43.0769231  -3.9785212 146.0718978 -51.4791495 -130.2495249 -3000.0000000 -90.0000000 -3000.0000000 -90.0000000
 43.1062271  -3.9777918 146.0396612 -51.4605760 -130.2004605 -3000.0000000 -90.0000000 -3000.0000000 -90.0000000
 43.1355311  -3.9778184 146.0053014 -51.4236648 -130.2688394 -3000.0000000 -90.0000000 -3000.0000000 -90.0000000
 43.1648352  -3.9778017 145.9707312 -51.3982189 -130.2365831 -3000.0000000 -90.0000000 -3000.0000000 -90.0000000
 43.1941392  -3.9773297 145.9355866 -51.3722851 -130.3879422 -3000.0000000 -90.0000000 -3000.0000000 -90.0000000
 43.2234432  -3.9776230 145.9071791 -51.3550163 -130.3955406 -3000.0000000 -90.0000000 -3000.0000000 -90.0000000
 43.2527473  -3.9773712 145.8655825 -51.3235712 -130.3808606 -3000.0000000 -90.0000000 -3000.0000000 -90.0000000
 43.2820513  -3.9780073 145.8347297 -51.2840188 -130.4571032 -3000.0000000 -90.0000000 -3000.0000000 -90.0000000
 43.3113553  -3.9767208 145.7998831 -51.2628026 -130.3705636 -3000.0000000 -90.0000000 -3000.0000000 -90.0000000
 43.3406593  -3.9767399 145.7608228 -51.2369287 -130.4591818 -3000.0000000 -90.0000000 -3000.0000000 -90.0000000
 43.3699634  -3.9756526 145.7286612 -51.2058385 -130.4938473 -3000.0000000 -90.0000000 -3000.0000000 -90.0000000
 43.3992674  -3.9756203 145.6924858 -51.1943513 -130.5103276 -3000.0000000 -90.0000000 -3000.0000000 -90.0000000
 43.4285714  -3.9754139 145.6595199 -51.1594935 -130.5555008 -3000.0000000 -90.0000000 -3000.0000000 -90.0000000
 43.4578755  -3.9754276 145.6275210 -51.1343523 -130.5984306 -3000.0000000 -90.0000000 -3000.0000000 -90.0000000
 43.4871795  -3.9751747 145.5934905 -51.1076245 -130.6315555 -3000.0000000 -90.0000000 -3000.0000000 -90.0000000
 43.5164835  -3.9740625 145.5613941 -51.0897760 -130.6988417 -3000.0000000 -90.0000000 -3000.0000000 -90.0000000
 43.5457875  -3.9743743 145.5262805 -51.0528546 -130.6460931 -3000.0000000 -90.0000000 -3000.0000000 -90.0000000
 43.5750916  -3.9741112 145.4960110 -51.0296177 -130.7952295 -3000.0000000 -90.0000000 -3000.0000000 -90.0000000
 43.6043956  -3.9740609 145.4585751 -51.0118850 -130.6729705 -3000.0000000 -90.0000000 -3000.0000000 -90.0000000
 43.6336996  -3.9740169 145.4213436 -50.9739047 -130.8042314 -3000.0000000 -90.0000000 -3000.0000000 -90.0000000
 43.6630037  -3.9736063 145.3825792 -50.9426246 -130.7293682 -3000.0000000 -90.0000000 -3000.0000000 -90.0000000
 43.6923077  -3.9729982 145.3539282 -50.9206441 -130.8389736 -3000.0000000 -90.0000000 -3000.0000000 -90.0000000
 43.7216117  -3.9730262 145.3158593 -50.8920300 -130.8821387 -3000.0000000 -90.0000000 -3000.0000000 -90.0000000
 43.7509158  -3.9728944 145.2869107 -50.8582562 -130.8567406 -3000.0000000 -90.0000000 -3000.0000000 -90.0000000
 43.7802198  -3.9727246 145.2527276 -50.8441715 -130.8702487 -3000.0000000 -90.0000000 -3000.0000000 -90.0000000
 43.8095238  -3.9719943 145.2118055 -50.8039049 -130.8831516 -3000.0000000 -90.0000000 -3000.0000000 -90.0000000
 43.8388278  -3.9712566 145.1808488 -50.7872040 -130.9477972 -3000.0000000 -90.0000000 -3000.0000000 -90.0000000
 43.8681319  -3.9707288 145.1411755 -50.7614346 -131.0004149 -3000.0000000 -90.0000000 -3000.0000000 -90.0000000
 43.8974359  -3.9710714 145.1110986 -50.7275008 -131.0676580 -3000.0000000 -90.0000000 -3000.0000000 -90.0000000
 43.9267399  -3.9713908 145.0749600 -50.6991463 -131.0450456 -3000.0000000 -90.0000000 -3000.0000000 -90.0000000
 43.9560440  -3.9708378 145.0409578 -50.6855762 -131.0221615 -3000.0000000 -90.0000000 -3000.0000000 -90.0000000
 43.9853480  -3.9702655 145.0101224 -50.6431442 -131.0612924 -3000.0000000 -90.0000000 -3000.0000000 -90.0000000
 44.0146520  -3.9703576 144.9728416 -50.6171828 -131.1249851 -3000.0000000 -90.0000000 -3000.0000000 -90.0000000
 44.0439560  -3.9702213 144.9373731 -50.5895023 -131.1973114 -3000.0000000 -90.0000000 -3000.0000000 -90.0000000
 44.0732601  -3.9697023 144.9010721 -50.5694986 -131.2151394 -3000.0000000 -90.0000000 -3000.0000000 -90.0000000
 44.1025641  -3.9699835 144.8663571 -50.5342961 -131.1456857 -3000.0000000 -90.0000000 -3000.0000000 -90.0000000
 44.1318681  -3.9688791 144.8276515 -50.5152102 -131.2789710 -3000.0000000 -90.0000000 -3000.0000000 -90.0000000
 44.1611722  -3.9689658 144.7919012 -50.4918266 -131.3117440 -3000.0000000 -90.0000000 -3000.0000000 -90.0000000
 44.1904762  -3.9688733 144.7613853 -50.4696649 -131.2764278 -3000.0000000 -90.0000000 -3000.0000000 -90.0000000
 44.2197802  -3.9684875 144.7268275 -50.4362841 -131.3538555 -3000.0000000 -90.0000000 -3000.0000000 -90.0000000
 44.2490842  -3.9675710 144.6907107 -50.4073491 -131.3515916 -3000.0000000 -90.0000000 -3000.0000000 -90.0000000
 44.2783883  -3.9677617 144.6572774 -50.3977868 -131.4269924 -3000.0000000 -90.0000000 -3000.0000000 -90.0000000
 44.3076923  -3.9667813 144.6228036 -50.3595424 -131.3462751 -3000.0000000 -90.0000000 -3000.0000000 -90.0000000
 44.3369963  -3.9670558 144.5868259 -50.3211103 -131.4717252 -3000.0000000 -90.0000000 -3000.0000000 -90.0000000
 44.3663004  -3.9661673 144.5464480 -50.3029732 -131.4412233 -3000.0000000 -90.0000000 -3000.0000000 -90.0000000
 44.3956044  -3.9660268 144.5130070 -50.2702920 -131.4934021 -3000.0000000 -90.0000000 -3000.0000000 -90.0000000
 44.4249084  -3.9659356 144.4793038 -50.2581509 -131.5632090 -3000.0000000 -90.0000000 -3000.0000000 -90.0000000
 44.4542125  -3.9655178 144.4461880 -50.2311186 -131.5661643 -3000.0000000 -90.0000000 -3000.0000000 -90.0000000
 44.4835165  -3.9658640 144.4107877 -50.1977060 -131.6034966 -3000.0000000 -90.0000000 -3000.0000000 -90.0000000
 44.5128205  -3.9650235 144.3769242 -50.1643619 -131.5898948 -3000.0000000 -90.0000000 -3000.0000000 -90.0000000
 44.5421245  -3.9655813 144.3390792 -50.1544625 -131.6955482 -3000.0000000 -90.0000000 -3000.0000000 -90.0000000
 44.5714286  -3.9651327 144.3107912 -50.1152185 -131.6664948 -3000.0000000 -90.0000000 -3000.0000000 -90.0000000
 44.6007326  -3.9647105 144.2698316 -50.0888752 -131.7077047 -3000.0000000 -90.0000000 -3000.0000000 -90.0000000
 44.6300366  -3.9640705 144.2348619 -50.0628196 -131.7245425 -3000.0000000 -90.0000000 -3000.0000000 -90.0000000
 44.6593407  -3.9639259 144.2012635 -50.0385685 -131.7792818 -3000.0000000 -90.0000000 -3000.0000000 -90.0000000
 44.6886447  -3.9627682 144.1641483 -50.0130674 -131.8007792 -3000.0000000 -90.0000000 -3000.0000000 -90.0000000
 44.7179487  -3.9632579 144.1262096 -49.9850345 -131.8026885 -3000.0000000 -90.0000000 -3000.0000000 -90.0000000
 44.7472527  -3.9638075 144.0924020 -49.9464711 -131.8374107 -3000.0000000 -90.0000000 -3000.0000000 -90.0000000
 44.7765568  -3.9634071 144.0592272 -49.9231892 -131.8916702 -3000.0000000 -90.0000000 -3000.0000000 -90.0000000
 44.8058608  -3.9631289 144.0213853 -49.9067942 -131.9212636 -3000.0000000 -90.0000000 -3000.0000000 -90.0000000
 44.8351648  -3.9622600 143.9873865 -49.8817278 -131.9803102 -3000.0000000 -90.0000000 -3000.0000000 -90.0000000
 44.8644689  -3.9626160 143.9464307 -49.8438098 -131.9605840 -3000.0000000 -90.0000000 -3000.0000000 -90.0000000
 44.8937729  -3.9616321 143.9123766 -49.8223616 -132.0090840 -3000.0000000 -90.0000000 -3000.0000000 -90.0000000
 44.9230769  -3.9612428 143.8755072 -49.7943754 -132.0604481 -3000.0000000 -90.0000000 -3000.0000000 -90.0000000
 44.9523810  -3.9609761 143.8406822 -49.7689809 -132.0329471 -3000.0000000 -90.0000000 -3000.0000000 -90.0000000
 44.9816850  -3.9606210 143.8097047 -49.7372600 -131.9882041 -3000.0000000 -90.0000000 -3000.0000000 -90.0000000
 45.0109890  -3.9604291 143.7723524 -49.7236095 -132.1658345 -3000.0000000 -90.0000000 -3000.0000000 -90.0000000
 45.0402930  -3.9604521 143.7349266 -49.6852184 -132.1493866 -3000.0000000 -90.0000000 -3000.0000000 -90.0000000
 45.0695971  -3.9603612 143.6977111 -49.6654172 -132.1133209 -3000.0000000 -90.0000000 -3000.0000000 -90.0000000
 45.0989011  -3.9603111 143.6634071 -49.6338873 -132.1854791 -3000.0000000 -90.0000000 -3000.0000000 -90.0000000
