! ListType=Lin
! Comment=Upconverter_100MHz_2560pts_50ms
# MHz S DB R 50
  0.0010000 -23.0869662   0.0000000
  0.0400778 -16.2407210   0.0000000
  0.0791555  -8.7657431   0.0000000
  0.1182333  -7.0044458   0.0000000
  0.1573111  -6.4374778   0.0000000
  0.1963888  -6.2269828   0.0000000
  0.2354666  -6.1191873   0.0000000
  0.2745444  -6.0499670   0.0000000
  0.3136221  -6.0023019   0.0000000
  0.3526999  -5.9693244   0.0000000
  0.3917776  -5.9417448   0.0000000
  0.4308554  -5.9167445   0.0000000
  0.4699332  -5.8956150   0.0000000
  0.5090109  -5.8793475   0.0000000
  0.5480887  -5.8588371   0.0000000
  0.5871665  -5.8414083   0.0000000
  0.6262442  -5.8281982   0.0000000
  0.6653220  -5.8148956   0.0000000
  0.7043998  -5.7888869   0.0000000
  0.7434775  -5.7764533   0.0000000
  0.7825553  -5.7707703   0.0000000
  0.8216331  -5.7440797   0.0000000
  0.8607108  -5.7308373   0.0000000
  0.8997886  -5.7319302   0.0000000
  0.9388664  -5.6954838   0.0000000
  0.9779441  -5.6976516   0.0000000
  1.0170219  -5.6853193   0.0000000
  1.0560996  -5.6573612   0.0000000
  1.0951774  -5.6693500   0.0000000
  1.1342552  -5.6264543   0.0000000
  1.1733329  -5.6478827   0.0000000
  1.2124107  -5.6009565   0.0000000
  1.2514885  -5.6209030   0.0000000
  1.2905662  -5.5730197   0.0000000
  1.3296440  -5.6022546   0.0000000
  1.3687218  -5.5541126   0.0000000
  1.4077995  -5.5828281   0.0000000
  1.4468773  -5.5412436   0.0000000
  1.4859551  -5.5462882   0.0000000
  1.5250328  -5.5475306   0.0000000
  1.5641106  -5.5057107   0.0000000
  1.6031884  -5.5408167   0.0000000
  1.6422661  -5.5052832   0.0000000
  1.6813439  -5.4906998   0.0000000
  1.7204216  -5.5201228   0.0000000
  1.7594994  -5.4876845   0.0000000
  1.7985772  -5.4629367   0.0000000
  1.8376549  -5.4901260   0.0000000
  1.8767327  -5.4891954   0.0000000
  1.9158105  -5.4482632   0.0000000
  1.9548882  -5.4388931   0.0000000
  1.9939660  -5.4616939   0.0000000
  2.0330438  -5.4684972   0.0000000
  2.0721215  -5.4475874   0.0000000
  2.1111993  -5.4200526   0.0000000
  2.1502771  -5.4098711   0.0000000
  2.1893548  -5.4169028   0.0000000
  2.2284326  -5.4281524   0.0000000
  2.2675104  -5.4324214   0.0000000
  2.3065881  -5.4279265   0.0000000
  2.3456659  -5.4187592   0.0000000
  2.3847436  -5.4117696   0.0000000
  2.4238214  -5.4017937   0.0000000
  2.4628992  -5.3991301   0.0000000
  2.5019769  -5.3945116   0.0000000
  2.5410547  -5.3953552   0.0000000
  2.5801325  -5.3939778   0.0000000
  2.6192102  -5.3936353   0.0000000
  2.6582880  -5.3937668   0.0000000
  2.6973658  -5.3942341   0.0000000
  2.7364435  -5.3969519   0.0000000
  2.7755213  -5.3948455   0.0000000
  2.8145991  -5.3910202   0.0000000
  2.8536768  -5.3855968   0.0000000
  2.8927546  -5.3792006   0.0000000
  2.9318324  -5.3792800   0.0000000
  2.9709101  -5.3788574   0.0000000
  3.0099879  -5.3829789   0.0000000
  3.0490657  -5.3846504   0.0000000
  3.0881434  -5.3828297   0.0000000
  3.1272212  -5.3837141   0.0000000
  3.1662989  -5.3840334   0.0000000
  3.2053767  -5.3818610   0.0000000
  3.2444545  -5.3830582   0.0000000
  3.2835322  -5.3916610   0.0000000
  3.3226100  -5.3851931   0.0000000
  3.3616878  -5.3810637   0.0000000
  3.4007655  -5.3984543   0.0000000
  3.4398433  -5.3900076   0.0000000
  3.4789211  -5.3861524   0.0000000
  3.5179988  -5.4052936   0.0000000
  3.5570766  -5.3891096   0.0000000
  3.5961544  -5.3992749   0.0000000
  3.6352321  -5.4091865   0.0000000
  3.6743099  -5.3923586   0.0000000
  3.7133877  -5.4221443   0.0000000
  3.7524654  -5.3925320   0.0000000
  3.7915432  -5.4282835   0.0000000
  3.8306209  -5.3991888   0.0000000
  3.8696987  -5.4345756   0.0000000
  3.9087765  -5.4046380   0.0000000
  3.9478542  -5.4456254   0.0000000
  3.9869320  -5.4093020   0.0000000
  4.0260098  -5.4511643   0.0000000
  4.0650875  -5.4260364   0.0000000
  4.1041653  -5.4454153   0.0000000
  4.1432431  -5.4539086   0.0000000
  4.1823208  -5.4294561   0.0000000
  4.2213986  -5.4745232   0.0000000
  4.2604764  -5.4480033   0.0000000
  4.2995541  -5.4479913   0.0000000
  4.3386319  -5.4887889   0.0000000
  4.3777097  -5.4672708   0.0000000
  4.4167874  -5.4581467   0.0000000
  4.4558652  -5.4988168   0.0000000
  4.4949429  -5.4997442   0.0000000
  4.5340207  -5.4714483   0.0000000
  4.5730985  -5.4904844   0.0000000
  4.6121762  -5.5232552   0.0000000
  4.6512540  -5.5208595   0.0000000
  4.6903318  -5.4976456   0.0000000
  4.7294095  -5.5030570   0.0000000
  4.7684873  -5.5303963   0.0000000
  4.8075651  -5.5512876   0.0000000
  4.8466428  -5.5474134   0.0000000
  4.8857206  -5.5354274   0.0000000
  4.9247984  -5.5278517   0.0000000
  4.9638761  -5.5289087   0.0000000
  5.0029539  -5.5376668   0.0000000
  5.0420317  -5.5520517   0.0000000
  5.0811094  -5.5646562   0.0000000
  5.1201872  -5.5740794   0.0000000
  5.1592649  -5.5808036   0.0000000
  5.1983427  -5.5828770   0.0000000
  5.2374205  -5.5851898   0.0000000
  5.2764982  -5.5868777   0.0000000
  5.3155760  -5.5911596   0.0000000
  5.3546538  -5.5927886   0.0000000
  5.3937315  -5.5950881   0.0000000
  5.4328093  -5.5962660   0.0000000
  5.4718871  -5.5973617   0.0000000
  5.5109648  -5.5970739   0.0000000
  5.5500426  -5.5958042   0.0000000
  5.5891204  -5.5955068   0.0000000
  5.6281981  -5.5975523   0.0000000
  5.6672759  -5.6031537   0.0000000
  5.7063537  -5.6115900   0.0000000
  5.7454314  -5.6173835   0.0000000
  5.7845092  -5.6201558   0.0000000
  5.8235869  -5.6207277   0.0000000
  5.8626647  -5.6231852   0.0000000
  5.9017425  -5.6274288   0.0000000
  5.9408202  -5.6279785   0.0000000
  5.9798980  -5.6311470   0.0000000
  6.0189758  -5.6365002   0.0000000
  6.0580535  -5.6408518   0.0000000
  6.0971313  -5.6373975   0.0000000
  6.1362091  -5.6396617   0.0000000
  6.1752868  -5.6507845   0.0000000
  6.2143646  -5.6475125   0.0000000
  6.2534424  -5.6459023   0.0000000
  6.2925201  -5.6618643   0.0000000
  6.3315979  -5.6549396   0.0000000
  6.3706757  -5.6533640   0.0000000
  6.4097534  -5.6724091   0.0000000
  6.4488312  -5.6528433   0.0000000
  6.4879089  -5.6693828   0.0000000
  6.5269867  -5.6692785   0.0000000
  6.5660645  -5.6613523   0.0000000
  6.6051422  -5.6849994   0.0000000
  6.6442200  -5.6585501   0.0000000
  6.6832978  -5.6915998   0.0000000
  6.7223755  -5.6609447   0.0000000
  6.7614533  -5.6969795   0.0000000
  6.8005311  -5.6627156   0.0000000
  6.8396088  -5.6995598   0.0000000
  6.8786866  -5.6646293   0.0000000
  6.9177644  -5.6969445   0.0000000
  6.9568421  -5.6729232   0.0000000
  6.9959199  -5.6871156   0.0000000
  7.0349977  -5.6919346   0.0000000
  7.0740754  -5.6689301   0.0000000
  7.1131532  -5.7085316   0.0000000
  7.1522309  -5.6753413   0.0000000
  7.1913087  -5.6815972   0.0000000
  7.2303865  -5.7069438   0.0000000
  7.2694642  -5.6694927   0.0000000
  7.3085420  -5.6890632   0.0000000
  7.3476198  -5.7072262   0.0000000
  7.3866975  -5.6711881   0.0000000
  7.4257753  -5.6815039   0.0000000
  7.4648531  -5.7109285   0.0000000
  7.5039308  -5.6860228   0.0000000
  7.5430086  -5.6691246   0.0000000
  7.5820864  -5.6979935   0.0000000
  7.6211641  -5.7101351   0.0000000
  7.6602419  -5.6829288   0.0000000
  7.6993197  -5.6702535   0.0000000
  7.7383974  -5.6934693   0.0000000
  7.7774752  -5.7104285   0.0000000
  7.8165530  -5.7052056   0.0000000
  7.8556307  -5.6828797   0.0000000
  7.8947085  -5.6712367   0.0000000
  7.9337862  -5.6796874   0.0000000
  7.9728640  -5.6991143   0.0000000
  8.0119418  -5.7108025   0.0000000
  8.0510195  -5.7111399   0.0000000
  8.0900973  -5.7000476   0.0000000
  8.1291751  -5.6926644   0.0000000
  8.1682528  -5.6853637   0.0000000
  8.2073306  -5.6806072   0.0000000
  8.2464084  -5.6816110   0.0000000
  8.2854861  -5.6842206   0.0000000
  8.3245639  -5.6887883   0.0000000
  8.3636417  -5.6930237   0.0000000
  8.4027194  -5.6971417   0.0000000
  8.4417972  -5.6975996   0.0000000
  8.4808750  -5.7007174   0.0000000
  8.5199527  -5.7016763   0.0000000
  8.5590305  -5.7033709   0.0000000
  8.5981082  -5.7033882   0.0000000
  8.6371860  -5.7044316   0.0000000
  8.6762638  -5.7052179   0.0000000
  8.7153415  -5.7073129   0.0000000
  8.7544193  -5.7102792   0.0000000
  8.7934971  -5.7161939   0.0000000
  8.8325748  -5.7239281   0.0000000
  8.8716526  -5.7303897   0.0000000
  8.9107304  -5.7355050   0.0000000
  8.9498081  -5.7386137   0.0000000
  8.9888859  -5.7372390   0.0000000
  9.0279637  -5.7361445   0.0000000
  9.0670414  -5.7383469   0.0000000
  9.1061192  -5.7437367   0.0000000
  9.1451970  -5.7500945   0.0000000
  9.1842747  -5.7551543   0.0000000
  9.2233525  -5.7580483   0.0000000
  9.2624302  -5.7595081   0.0000000
  9.3015080  -5.7662429   0.0000000
  9.3405858  -5.7688945   0.0000000
  9.3796635  -5.7727479   0.0000000
  9.4187413  -5.7796329   0.0000000
  9.4578191  -5.7859260   0.0000000
  9.4968968  -5.7870527   0.0000000
  9.5359746  -5.7906936   0.0000000
  9.5750524  -5.8009572   0.0000000
  9.6141301  -5.8040011   0.0000000
  9.6532079  -5.8020380   0.0000000
  9.6922857  -5.8175993   0.0000000
  9.7313634  -5.8230210   0.0000000
  9.7704412  -5.8171143   0.0000000
  9.8095190  -5.8350915   0.0000000
  9.8485967  -5.8416124   0.0000000
  9.8876745  -5.8353197   0.0000000
  9.9267522  -5.8606300   0.0000000
  9.9658300  -5.8535515   0.0000000
 10.0049078  -5.8601743   0.0000000
 10.0439855  -5.8783824   0.0000000
 10.0830633  -5.8648665   0.0000000
 10.1221411  -5.8979679   0.0000000
 10.1612188  -5.8825735   0.0000000
 10.2002966  -5.9035538   0.0000000
 10.2393744  -5.9067877   0.0000000
 10.2784521  -5.9094385   0.0000000
 10.3175299  -5.9232673   0.0000000
 10.3566077  -5.9208327   0.0000000
 10.3956854  -5.9434144   0.0000000
 10.4347632  -5.9335399   0.0000000
 10.4738410  -5.9585392   0.0000000
 10.5129187  -5.9491649   0.0000000
 10.5519965  -5.9714469   0.0000000
 10.5910742  -5.9719830   0.0000000
 10.6301520  -5.9771883   0.0000000
 10.6692298  -6.0041833   0.0000000
 10.7083075  -5.9811137   0.0000000
 10.7473853  -6.0270343   0.0000000
 10.7864631  -6.0006251   0.0000000
 10.8255408  -6.0300749   0.0000000
 10.8646186  -6.0411128   0.0000000
 10.9036964  -6.0207395   0.0000000
 10.9427741  -6.0696366   0.0000000
 10.9818519  -6.0571984   0.0000000
 11.0209297  -6.0522119   0.0000000
 11.0600074  -6.0970718   0.0000000
 11.0990852  -6.0796111   0.0000000
 11.1381630  -6.0765504   0.0000000
 11.1772407  -6.1213280   0.0000000
 11.2163185  -6.1191951   0.0000000
 11.2553962  -6.1009054   0.0000000
 11.2944740  -6.1269542   0.0000000
 11.3335518  -6.1621355   0.0000000
 11.3726295  -6.1484109   0.0000000
 11.4117073  -6.1375039   0.0000000
 11.4507851  -6.1684010   0.0000000
 11.4898628  -6.1977790   0.0000000
 11.5289406  -6.1930146   0.0000000
 11.5680184  -6.1793956   0.0000000
 11.6070961  -6.1873490   0.0000000
 11.6461739  -6.2148384   0.0000000
 11.6852517  -6.2413219   0.0000000
 11.7243294  -6.2509379   0.0000000
 11.7634072  -6.2464288   0.0000000
 11.8024850  -6.2410422   0.0000000
 11.8415627  -6.2424343   0.0000000
 11.8806405  -6.2560265   0.0000000
 11.9197182  -6.2735585   0.0000000
 11.9587960  -6.2906473   0.0000000
 11.9978738  -6.3099833   0.0000000
 12.0369515  -6.3242316   0.0000000
 12.0760293  -6.3361764   0.0000000
 12.1151071  -6.3443373   0.0000000
 12.1541848  -6.3516207   0.0000000
 12.1932626  -6.3604104   0.0000000
 12.2323404  -6.3707148   0.0000000
 12.2714181  -6.3799580   0.0000000
 12.3104959  -6.3893108   0.0000000
 12.3495737  -6.3990353   0.0000000
 12.3886514  -6.4079527   0.0000000
 12.4277292  -6.4150546   0.0000000
 12.4668070  -6.4214318   0.0000000
 12.5058847  -6.4283466   0.0000000
 12.5449625  -6.4324760   0.0000000
 12.5840403  -6.4369057   0.0000000
 12.6231180  -6.4480106   0.0000000
 12.6621958  -6.4591121   0.0000000
 12.7012735  -6.4720918   0.0000000
 12.7403513  -6.4870627   0.0000000
 12.7794291  -6.4938843   0.0000000
 12.8185068  -6.5010578   0.0000000
 12.8575846  -6.5085141   0.0000000
 12.8966624  -6.5151451   0.0000000
 12.9357401  -6.5279091   0.0000000
 12.9748179  -6.5379725   0.0000000
 13.0138957  -6.5471770   0.0000000
 13.0529734  -6.5565519   0.0000000
 13.0920512  -6.5686477   0.0000000
 13.1311290  -6.5712338   0.0000000
 13.1702067  -6.5822929   0.0000000
 13.2092845  -6.5971170   0.0000000
 13.2483623  -6.6034592   0.0000000
 13.2874400  -6.6062688   0.0000000
 13.3265178  -6.6218064   0.0000000
 13.3655955  -6.6300349   0.0000000
 13.4046733  -6.6284942   0.0000000
 13.4437511  -6.6490677   0.0000000
 13.4828288  -6.6609933   0.0000000
 13.5219066  -6.6543552   0.0000000
 13.5609844  -6.6816978   0.0000000
 13.6000621  -6.6806003   0.0000000
 13.6391399  -6.6835353   0.0000000
 13.6782177  -6.7102855   0.0000000
 13.7172954  -6.6957686   0.0000000
 13.7563732  -6.7280336   0.0000000
 13.7954510  -6.7216450   0.0000000
 13.8345287  -6.7358974   0.0000000
 13.8736065  -6.7471217   0.0000000
 13.9126843  -6.7429319   0.0000000
 13.9517620  -6.7692186   0.0000000
 13.9908398  -6.7538551   0.0000000
 14.0299175  -6.7884718   0.0000000
 14.0689953  -6.7680000   0.0000000
 14.1080731  -6.8061925   0.0000000
 14.1471508  -6.7851051   0.0000000
 14.1862286  -6.8189996   0.0000000
 14.2253064  -6.8037591   0.0000000
 14.2643841  -6.8296674   0.0000000
 14.3034619  -6.8274933   0.0000000
 14.3425397  -6.8344628   0.0000000
 14.3816174  -6.8568587   0.0000000
 14.4206952  -6.8374195   0.0000000
 14.4597730  -6.8831335   0.0000000
 14.4988507  -6.8534986   0.0000000
 14.5379285  -6.8825713   0.0000000
 14.5770063  -6.8922055   0.0000000
 14.6160840  -6.8696406   0.0000000
 14.6551618  -6.9158573   0.0000000
 14.6942395  -6.9045196   0.0000000
 14.7333173  -6.8978291   0.0000000
 14.7723951  -6.9389090   0.0000000
 14.8114728  -6.9283303   0.0000000
 14.8505506  -6.9148759   0.0000000
 14.8896284  -6.9557307   0.0000000
 14.9287061  -6.9571966   0.0000000
 14.9677839  -6.9366016   0.0000000
 15.0068617  -6.9586266   0.0000000
 15.0459394  -6.9904536   0.0000000
 15.0850172  -6.9810911   0.0000000
 15.1240950  -6.9617249   0.0000000
 15.1631727  -6.9781324   0.0000000
 15.2022505  -7.0084697   0.0000000
 15.2413283  -7.0199359   0.0000000
 15.2804060  -7.0064228   0.0000000
 15.3194838  -6.9933416   0.0000000
 15.3585615  -7.0066921   0.0000000
 15.3976393  -7.0306624   0.0000000
 15.4367171  -7.0506519   0.0000000
 15.4757948  -7.0532976   0.0000000
 15.5148726  -7.0493264   0.0000000
 15.5539504  -7.0391586   0.0000000
 15.5930281  -7.0389548   0.0000000
 15.6321059  -7.0464943   0.0000000
 15.6711837  -7.0590548   0.0000000
 15.7102614  -7.0712293   0.0000000
 15.7493392  -7.0830603   0.0000000
 15.7884170  -7.0943928   0.0000000
 15.8274947  -7.1024517   0.0000000
 15.8665725  -7.1088387   0.0000000
 15.9056503  -7.1165061   0.0000000
 15.9447280  -7.1204837   0.0000000
 15.9838058  -7.1244652   0.0000000
 16.0228835  -7.1286307   0.0000000
 16.0619613  -7.1337203   0.0000000
 16.1010391  -7.1360114   0.0000000
 16.1401168  -7.1360829   0.0000000
 16.1791946  -7.1394132   0.0000000
 16.2182724  -7.1410840   0.0000000
 16.2573501  -7.1412170   0.0000000
 16.2964279  -7.1451333   0.0000000
 16.3355057  -7.1492190   0.0000000
 16.3745834  -7.1557124   0.0000000
 16.4136612  -7.1672692   0.0000000
 16.4527390  -7.1747137   0.0000000
 16.4918167  -7.1787792   0.0000000
 16.5308945  -7.1792333   0.0000000
 16.5699723  -7.1798975   0.0000000
 16.6090500  -7.1842491   0.0000000
 16.6481278  -7.1902226   0.0000000
 16.6872055  -7.1945298   0.0000000
 16.7262833  -7.1985549   0.0000000
 16.7653611  -7.2054944   0.0000000
 16.8044388  -7.2074243   0.0000000
 16.8435166  -7.2067389   0.0000000
 16.8825944  -7.2133913   0.0000000
 16.9216721  -7.2203487   0.0000000
 16.9607499  -7.2231272   0.0000000
 16.9998277  -7.2194883   0.0000000
 17.0389054  -7.2283448   0.0000000
 17.0779832  -7.2376930   0.0000000
 17.1170610  -7.2297354   0.0000000
 17.1561387  -7.2390374   0.0000000
 17.1952165  -7.2479241   0.0000000
 17.2342943  -7.2377511   0.0000000
 17.2733720  -7.2499185   0.0000000
 17.3124498  -7.2555197   0.0000000
 17.3515275  -7.2439118   0.0000000
 17.3906053  -7.2695263   0.0000000
 17.4296831  -7.2554757   0.0000000
 17.4687608  -7.2687616   0.0000000
 17.5078386  -7.2727822   0.0000000
 17.5469164  -7.2623709   0.0000000
 17.5859941  -7.2820665   0.0000000
 17.6250719  -7.2605643   0.0000000
 17.6641497  -7.2861958   0.0000000
 17.7032274  -7.2606358   0.0000000
 17.7423052  -7.2916128   0.0000000
 17.7813830  -7.2638812   0.0000000
 17.8204607  -7.2956738   0.0000000
 17.8595385  -7.2702165   0.0000000
 17.8986163  -7.2918888   0.0000000
 17.9376940  -7.2855941   0.0000000
 17.9767718  -7.2793006   0.0000000
 18.0158496  -7.3062998   0.0000000
 18.0549273  -7.2700711   0.0000000
 18.0940051  -7.3071902   0.0000000
 18.1330828  -7.2935089   0.0000000
 18.1721606  -7.2795361   0.0000000
 18.2112384  -7.3156217   0.0000000
 18.2503161  -7.2926141   0.0000000
 18.2893939  -7.2857106   0.0000000
 18.3284717  -7.3188934   0.0000000
 18.3675494  -7.2958401   0.0000000
 18.4066272  -7.2823425   0.0000000
 18.4457050  -7.3163330   0.0000000
 18.4847827  -7.3144549   0.0000000
 18.5238605  -7.2854778   0.0000000
 18.5629383  -7.2884679   0.0000000
 18.6020160  -7.3171073   0.0000000
 18.6410938  -7.3230614   0.0000000
 18.6801716  -7.2991529   0.0000000
 18.7192493  -7.2847931   0.0000000
 18.7583271  -7.2981441   0.0000000
 18.7974048  -7.3178000   0.0000000
 18.8364826  -7.3236427   0.0000000
 18.8755604  -7.3088588   0.0000000
 18.9146381  -7.2971890   0.0000000
 18.9537159  -7.2861984   0.0000000
 18.9927937  -7.2882430   0.0000000
 19.0318714  -7.2972131   0.0000000
 19.0709492  -7.3080471   0.0000000
 19.1100270  -7.3154104   0.0000000
 19.1491047  -7.3180841   0.0000000
 19.1881825  -7.3179067   0.0000000
 19.2272603  -7.3171514   0.0000000
 19.2663380  -7.3144237   0.0000000
 19.3054158  -7.3098062   0.0000000
 19.3444936  -7.3057998   0.0000000
 19.3835713  -7.3023337   0.0000000
 19.4226491  -7.3020620   0.0000000
 19.4617268  -7.3014277   0.0000000
 19.5008046  -7.3026350   0.0000000
 19.5398824  -7.3031620   0.0000000
 19.5789601  -7.3013504   0.0000000
 19.6180379  -7.3011520   0.0000000
 19.6571157  -7.2983704   0.0000000
 19.6961934  -7.2928490   0.0000000
 19.7352712  -7.2877785   0.0000000
 19.7743490  -7.2815734   0.0000000
 19.8134267  -7.2772522   0.0000000
 19.8525045  -7.2748328   0.0000000
 19.8915823  -7.2778701   0.0000000
 19.9306600  -7.2789193   0.0000000
 19.9697378  -7.2806844   0.0000000
 20.0088156  -7.2751097   0.0000000
 20.0478933  -7.2700633   0.0000000
 20.0869711  -7.2698712   0.0000000
 20.1260488  -7.2672463   0.0000000
 20.1651266  -7.2643965   0.0000000
 20.2042044  -7.2626321   0.0000000
 20.2432821  -7.2620751   0.0000000
 20.2823599  -7.2594447   0.0000000
 20.3214377  -7.2532376   0.0000000
 20.3605154  -7.2539873   0.0000000
 20.3995932  -7.2565619   0.0000000
 20.4386710  -7.2454716   0.0000000
 20.4777487  -7.2436079   0.0000000
 20.5168265  -7.2499891   0.0000000
 20.5559043  -7.2354033   0.0000000
 20.5949820  -7.2340031   0.0000000
 20.6340598  -7.2432066   0.0000000
 20.6731376  -7.2213414   0.0000000
 20.7122153  -7.2310566   0.0000000
 20.7512931  -7.2249211   0.0000000
 20.7903708  -7.2157697   0.0000000
 20.8294486  -7.2289055   0.0000000
 20.8685264  -7.2015224   0.0000000
 20.9076041  -7.2238623   0.0000000
 20.9466819  -7.1948043   0.0000000
 20.9857597  -7.2123995   0.0000000
