! ListType=Lin
# MHZ S DB R 50
 70.0000000  -0.6025101  54.8333811 -51.3689796 133.0868249 -3000.0000000 -90.0000000 -3000.0000000 -90.0000000
 70.0635076  -0.6035195  54.6212217 -51.2601079 132.8590530 -3000.0000000 -90.0000000 -3000.0000000 -90.0000000
 70.1270151  -0.6052833  54.4202598 -51.0992697 133.4550469 -3000.0000000 -90.0000000 -3000.0000000 -90.0000000
 70.1905227  -0.6064813  54.2088745 -51.0028004 133.2514056 -3000.0000000 -90.0000000 -3000.0000000 -90.0000000
 70.2540303  -0.6065017  53.9974507 -50.8913543 132.9464861 -3000.0000000 -90.0000000 -3000.0000000 -90.0000000
 70.3175379  -0.6084610  53.7859613 -50.7924972 132.7278972 -3000.0000000 -90.0000000 -3000.0000000 -90.0000000
 70.3810454  -0.6093706  53.5771343 -50.6722690 132.4911718 -3000.0000000 -90.0000000 -3000.0000000 -90.0000000
 70.4445530  -0.6101073  53.3617102 -50.5679541 132.3936859 -3000.0000000 -90.0000000 -3000.0000000 -90.0000000
 70.5080606  -0.6112220  53.1531583 -50.4668900 132.0959871 -3000.0000000 -90.0000000 -3000.0000000 -90.0000000
 70.5715681  -0.6124347  52.9421155 -50.3648366 131.8955478 -3000.0000000 -90.0000000 -3000.0000000 -90.0000000
 70.6350757  -0.6131198  52.7315525 -50.2578487 131.6758188 -3000.0000000 -90.0000000 -3000.0000000 -90.0000000
 70.6985833  -0.6144886  52.5163857 -50.1562915 131.4961410 -3000.0000000 -90.0000000 -3000.0000000 -90.0000000
 70.7620909  -0.6151236  52.3040006 -50.0471817 131.1573755 -3000.0000000 -90.0000000 -3000.0000000 -90.0000000
 70.8255984  -0.6165207  52.0918241 -49.9541112 130.9459122 -3000.0000000 -90.0000000 -3000.0000000 -90.0000000
 70.8891060  -0.6178820  51.8772641 -49.8393882 130.7679782 -3000.0000000 -90.0000000 -3000.0000000 -90.0000000
 70.9526136  -0.6187578  51.6604729 -49.7324805 130.5708578 -3000.0000000 -90.0000000 -3000.0000000 -90.0000000
 71.0161212  -0.6193899  51.4460090 -49.6340097 130.2614503 -3000.0000000 -90.0000000 -3000.0000000 -90.0000000
 71.0796287  -0.6211770  51.2300660 -49.5262380 130.0813415 -3000.0000000 -90.0000000 -3000.0000000 -90.0000000
 71.1431363  -0.6224780  51.0199313 -49.4222802 129.8317749 -3000.0000000 -90.0000000 -3000.0000000 -90.0000000
 71.2066439  -0.6230499  50.8015645 -49.3107669 129.6391144 -3000.0000000 -90.0000000 -3000.0000000 -90.0000000
 71.2701514  -0.6236997  50.5834671 -49.2007000 129.3666890 -3000.0000000 -90.0000000 -3000.0000000 -90.0000000
 71.3336590  -0.6254351  50.3707345 -49.1085683 129.1522545 -3000.0000000 -90.0000000 -3000.0000000 -90.0000000
 71.3971666  -0.6269522  50.1485855 -48.9908181 128.9413900 -3000.0000000 -90.0000000 -3000.0000000 -90.0000000
 71.4606742  -0.6280190  49.9328326 -48.8885395 128.7612661 -3000.0000000 -90.0000000 -3000.0000000 -90.0000000
 71.5241817  -0.6285476  49.7103158 -48.7751825 128.5331741 -3000.0000000 -90.0000000 -3000.0000000 -90.0000000
 71.5876893  -0.6297650  49.4933625 -48.6783221 128.2785125 -3000.0000000 -90.0000000 -3000.0000000 -90.0000000
 71.6511969  -0.6312185  49.2723068 -48.5649797 128.0518221 -3000.0000000 -90.0000000 -3000.0000000 -90.0000000
 71.7147044  -0.6317146  49.0534156 -48.4629123 127.7835435 -3000.0000000 -90.0000000 -3000.0000000 -90.0000000
 71.7782120  -0.6335158  48.8351122 -48.3621796 127.5126500 -3000.0000000 -90.0000000 -3000.0000000 -90.0000000
 71.8417196  -0.6347157  48.6190535 -48.2584744 127.3493362 -3000.0000000 -90.0000000 -3000.0000000 -90.0000000
 71.9052272  -0.6352132  48.3905153 -48.1473892 127.0825015 -3000.0000000 -90.0000000 -3000.0000000 -90.0000000
 71.9687347  -0.6367585  48.1719583 -48.0539801 126.9167335 -3000.0000000 -90.0000000 -3000.0000000 -90.0000000
 72.0322423  -0.6383293  47.9459134 -47.9532712 126.5289644 -3000.0000000 -90.0000000 -3000.0000000 -90.0000000
 72.0957499  -0.6390519  47.7294111 -47.8503775 126.2041167 -3000.0000000 -90.0000000 -3000.0000000 -90.0000000
 72.1592574  -0.6405803  47.5064225 -47.7432399 125.9735550 -3000.0000000 -90.0000000 -3000.0000000 -90.0000000
 72.2227650  -0.6440452  47.2761273 -47.6207845 125.9096057 -3000.0000000 -90.0000000 -3000.0000000 -90.0000000
 72.2862726  -0.6455491  47.0576968 -47.5121052 125.6473275 -3000.0000000 -90.0000000 -3000.0000000 -90.0000000
 72.3497802  -0.6468054  46.8332624 -47.4070122 125.4529945 -3000.0000000 -90.0000000 -3000.0000000 -90.0000000
 72.4132877  -0.6476970  46.6075404 -47.2996078 125.1819587 -3000.0000000 -90.0000000 -3000.0000000 -90.0000000
 72.4767953  -0.6492281  46.3822458 -47.1934433 124.9527691 -3000.0000000 -90.0000000 -3000.0000000 -90.0000000
 72.5403029  -0.6503946  46.1543636 -47.0836753 124.6982146 -3000.0000000 -90.0000000 -3000.0000000 -90.0000000
 72.6038105  -0.6517293  45.9266589 -46.9805224 124.4761175 -3000.0000000 -90.0000000 -3000.0000000 -90.0000000
 72.6673180  -0.6531112  45.6991022 -46.8763356 124.2718233 -3000.0000000 -90.0000000 -3000.0000000 -90.0000000
 72.7308256  -0.6536999  45.4754264 -46.7690494 124.0052993 -3000.0000000 -90.0000000 -3000.0000000 -90.0000000
 72.7943332  -0.6553622  45.2492572 -46.6630922 123.7667631 -3000.0000000 -90.0000000 -3000.0000000 -90.0000000
 72.8578407  -0.6564132  45.0163651 -46.5549058 123.4732607 -3000.0000000 -90.0000000 -3000.0000000 -90.0000000
 72.9213483  -0.6578876  44.7861065 -46.4552056 123.2488543 -3000.0000000 -90.0000000 -3000.0000000 -90.0000000
 72.9848559  -0.6591384  44.5596607 -46.3501120 123.0349968 -3000.0000000 -90.0000000 -3000.0000000 -90.0000000
 73.0483635  -0.6607856  44.3272643 -46.2400279 122.7920260 -3000.0000000 -90.0000000 -3000.0000000 -90.0000000
 73.1118710  -0.6621092  44.0944238 -46.1337640 122.5258909 -3000.0000000 -90.0000000 -3000.0000000 -90.0000000
 73.1753786  -0.6624219  43.8648724 -46.0314386 122.2996685 -3000.0000000 -90.0000000 -3000.0000000 -90.0000000
 73.2388862  -0.6642345  43.6367679 -45.9231440 122.0380008 -3000.0000000 -90.0000000 -3000.0000000 -90.0000000
 73.3023937  -0.6653907  43.4041584 -45.8198417 121.7753395 -3000.0000000 -90.0000000 -3000.0000000 -90.0000000
 73.3659013  -0.6671843  43.1716503 -45.7012768 121.5912867 -3000.0000000 -90.0000000 -3000.0000000 -90.0000000
 73.4294089  -0.6687355  42.9389697 -45.5935777 121.3399037 -3000.0000000 -90.0000000 -3000.0000000 -90.0000000
 73.4929165  -0.6696830  42.7028289 -45.4976369 121.0454983 -3000.0000000 -90.0000000 -3000.0000000 -90.0000000
 73.5564240  -0.6709348  42.4744349 -45.3863419 120.8098999 -3000.0000000 -90.0000000 -3000.0000000 -90.0000000
 73.6199316  -0.6724349  42.2376193 -45.2772628 120.5450961 -3000.0000000 -90.0000000 -3000.0000000 -90.0000000
 73.6834392  -0.6732664  42.0023549 -45.1724956 120.2920897 -3000.0000000 -90.0000000 -3000.0000000 -90.0000000
 73.7469468  -0.6749189  41.7667981 -45.0599259 120.0540028 -3000.0000000 -90.0000000 -3000.0000000 -90.0000000
 73.8104543  -0.6766495  41.5282410 -44.9604327 119.8115383 -3000.0000000 -90.0000000 -3000.0000000 -90.0000000
 73.8739619  -0.6775459  41.2887621 -44.8476642 119.5740905 -3000.0000000 -90.0000000 -3000.0000000 -90.0000000
 73.9374695  -0.6785413  41.0557474 -44.7438176 119.3242199 -3000.0000000 -90.0000000 -3000.0000000 -90.0000000
 74.0009770  -0.6801852  40.8147979 -44.6283015 119.0783961 -3000.0000000 -90.0000000 -3000.0000000 -90.0000000
 74.0644846  -0.6811103  40.5837299 -44.5271914 118.7805330 -3000.0000000 -90.0000000 -3000.0000000 -90.0000000
 74.1279922  -0.6830628  40.3342360 -44.4191829 118.5787168 -3000.0000000 -90.0000000 -3000.0000000 -90.0000000
 74.1914998  -0.6842064  40.0994214 -44.3125817 118.2878980 -3000.0000000 -90.0000000 -3000.0000000 -90.0000000
 74.2550073  -0.6852026  39.8584487 -44.2070921 118.0627268 -3000.0000000 -90.0000000 -3000.0000000 -90.0000000
 74.3185149  -0.6869364  39.6222955 -44.1004782 117.7833029 -3000.0000000 -90.0000000 -3000.0000000 -90.0000000
 74.3820225  -0.6880072  39.3838780 -43.9871306 117.5540015 -3000.0000000 -90.0000000 -3000.0000000 -90.0000000
 74.4455300  -0.6898792  39.1340336 -43.8802527 117.2307303 -3000.0000000 -90.0000000 -3000.0000000 -90.0000000
 74.5090376  -0.6913785  38.8906519 -43.7706149 117.0123023 -3000.0000000 -90.0000000 -3000.0000000 -90.0000000
 74.5725452  -0.6928871  38.6550386 -43.6631322 116.7536576 -3000.0000000 -90.0000000 -3000.0000000 -90.0000000
 74.6360528  -0.6937107  38.4126731 -43.5546335 116.4789723 -3000.0000000 -90.0000000 -3000.0000000 -90.0000000
 74.6995603  -0.6954476  38.1649546 -43.4456707 116.2396545 -3000.0000000 -90.0000000 -3000.0000000 -90.0000000
 74.7630679  -0.6974515  37.9237858 -43.3338967 115.9726248 -3000.0000000 -90.0000000 -3000.0000000 -90.0000000
 74.8265755  -0.6984071  37.6756265 -43.2319207 115.6982912 -3000.0000000 -90.0000000 -3000.0000000 -90.0000000
 74.8900830  -0.7004224  37.4340388 -43.1205477 115.4731267 -3000.0000000 -90.0000000 -3000.0000000 -90.0000000
 74.9535906  -0.7015919  37.1799712 -43.0135626 115.1437940 -3000.0000000 -90.0000000 -3000.0000000 -90.0000000
 75.0170982  -0.7033548  36.9350917 -42.9047618 114.8924141 -3000.0000000 -90.0000000 -3000.0000000 -90.0000000
 75.0806058  -0.7048273  36.6893101 -42.7924121 114.6027443 -3000.0000000 -90.0000000 -3000.0000000 -90.0000000
 75.1441133  -0.7064787  36.4423303 -42.6883730 114.3370249 -3000.0000000 -90.0000000 -3000.0000000 -90.0000000
 75.2076209  -0.7080208  36.1930052 -42.5792346 114.1001820 -3000.0000000 -90.0000000 -3000.0000000 -90.0000000
 75.2711285  -0.7091898  35.9418619 -42.4705146 113.8250448 -3000.0000000 -90.0000000 -3000.0000000 -90.0000000
 75.3346361  -0.7100036  35.6941384 -42.3627622 113.5621195 -3000.0000000 -90.0000000 -3000.0000000 -90.0000000
 75.3981436  -0.7121056  35.4453136 -42.2500529 113.2966496 -3000.0000000 -90.0000000 -3000.0000000 -90.0000000
 75.4616512  -0.7143754  35.1889072 -42.1466651 113.0121231 -3000.0000000 -90.0000000 -3000.0000000 -90.0000000
 75.5251588  -0.7151461  34.9382550 -42.0347421 112.7267452 -3000.0000000 -90.0000000 -3000.0000000 -90.0000000
 75.5886663  -0.7161031  34.6865602 -41.9269472 112.4775733 -3000.0000000 -90.0000000 -3000.0000000 -90.0000000
 75.6521739  -0.7180529  34.4357612 -41.8118143 112.2155181 -3000.0000000 -90.0000000 -3000.0000000 -90.0000000
 75.7156815  -0.7197313  34.1865811 -41.7069679 111.8878584 -3000.0000000 -90.0000000 -3000.0000000 -90.0000000
 75.7791891  -0.7212112  33.9230657 -41.5974231 111.6204911 -3000.0000000 -90.0000000 -3000.0000000 -90.0000000
 75.8426966  -0.7228735  33.6735316 -41.4893819 111.3493745 -3000.0000000 -90.0000000 -3000.0000000 -90.0000000
 75.9062042  -0.7238005  33.4185395 -41.3837857 111.1128095 -3000.0000000 -90.0000000 -3000.0000000 -90.0000000
 75.9697118  -0.7254819  33.1632030 -41.2683339 110.8171935 -3000.0000000 -90.0000000 -3000.0000000 -90.0000000
 76.0332193  -0.7269832  32.9036167 -41.1620200 110.5173421 -3000.0000000 -90.0000000 -3000.0000000 -90.0000000
 76.0967269  -0.7289807  32.6470381 -41.0510478 110.2604676 -3000.0000000 -90.0000000 -3000.0000000 -90.0000000
 76.1602345  -0.7300321  32.3908173 -40.9461356 109.9653163 -3000.0000000 -90.0000000 -3000.0000000 -90.0000000
 76.2237421  -0.7325477  32.1334065 -40.8323425 109.7100504 -3000.0000000 -90.0000000 -3000.0000000 -90.0000000
 76.2872496  -0.7348483  31.8728831 -40.7215300 109.4096330 -3000.0000000 -90.0000000 -3000.0000000 -90.0000000
 76.3507572  -0.7348895  31.6129621 -40.6107550 109.1523569 -3000.0000000 -90.0000000 -3000.0000000 -90.0000000
 76.4142648  -0.7374718  31.3528634 -40.4980138 108.8410499 -3000.0000000 -90.0000000 -3000.0000000 -90.0000000
 76.4777723  -0.7387099  31.0942080 -40.3906604 108.5578131 -3000.0000000 -90.0000000 -3000.0000000 -90.0000000
 76.5412799  -0.7407023  30.8300415 -40.2804102 108.2992144 -3000.0000000 -90.0000000 -3000.0000000 -90.0000000
 76.6047875  -0.7422298  30.5688693 -40.1681523 107.9707717 -3000.0000000 -90.0000000 -3000.0000000 -90.0000000
 76.6682951  -0.7435953  30.3050464 -40.0592052 107.6932319 -3000.0000000 -90.0000000 -3000.0000000 -90.0000000
 76.7318026  -0.7453341  30.0428260 -39.9477397 107.4057983 -3000.0000000 -90.0000000 -3000.0000000 -90.0000000
 76.7953102  -0.7472296  29.7746215 -39.8387769 107.1373568 -3000.0000000 -90.0000000 -3000.0000000 -90.0000000
 76.8588178  -0.7486624  29.5120278 -39.7302433 106.8505704 -3000.0000000 -90.0000000 -3000.0000000 -90.0000000
 76.9223254  -0.7503564  29.2497764 -39.6207939 106.5594642 -3000.0000000 -90.0000000 -3000.0000000 -90.0000000
 76.9858329  -0.7529285  28.9761726 -39.5080368 106.2513237 -3000.0000000 -90.0000000 -3000.0000000 -90.0000000
 77.0493405  -0.7542098  28.7145819 -39.3969330 105.9669296 -3000.0000000 -90.0000000 -3000.0000000 -90.0000000
 77.1128481  -0.7554787  28.4472621 -39.2861564 105.6795762 -3000.0000000 -90.0000000 -3000.0000000 -90.0000000
 77.1763556  -0.7574341  28.1775422 -39.1731029 105.3679122 -3000.0000000 -90.0000000 -3000.0000000 -90.0000000
 77.2398632  -0.7593009  27.9083515 -39.0622323 105.0917899 -3000.0000000 -90.0000000 -3000.0000000 -90.0000000
 77.3033708  -0.7613634  27.6364743 -38.9522060 104.7996851 -3000.0000000 -90.0000000 -3000.0000000 -90.0000000
 77.3668784  -0.7624939  27.3698270 -38.8420108 104.4950438 -3000.0000000 -90.0000000 -3000.0000000 -90.0000000
 77.4303859  -0.7647242  27.0947660 -38.7299769 104.2196087 -3000.0000000 -90.0000000 -3000.0000000 -90.0000000
 77.4938935  -0.7665057  26.8262395 -38.6182674 103.8828290 -3000.0000000 -90.0000000 -3000.0000000 -90.0000000
 77.5574011  -0.7676722  26.5507851 -38.5037353 103.5975810 -3000.0000000 -90.0000000 -3000.0000000 -90.0000000
 77.6209086  -0.7698988  26.2799174 -38.3979464 103.2956263 -3000.0000000 -90.0000000 -3000.0000000 -90.0000000
 77.6844162  -0.7717576  26.0023918 -38.2847493 102.9960963 -3000.0000000 -90.0000000 -3000.0000000 -90.0000000
 77.7479238  -0.7738196  25.7327380 -38.1732881 102.6984652 -3000.0000000 -90.0000000 -3000.0000000 -90.0000000
 77.8114314  -0.7751742  25.4554092 -38.0616772 102.3980098 -3000.0000000 -90.0000000 -3000.0000000 -90.0000000
 77.8749389  -0.7770256  25.1755105 -37.9489583 102.0743080 -3000.0000000 -90.0000000 -3000.0000000 -90.0000000
 77.9384465  -0.7791144  24.8977402 -37.8362347 101.7741284 -3000.0000000 -90.0000000 -3000.0000000 -90.0000000
 78.0019541  -0.7808095  24.6258649 -37.7272523 101.4834268 -3000.0000000 -90.0000000 -3000.0000000 -90.0000000
 78.0654617  -0.7835774  24.3450578 -37.6126957 101.1643632 -3000.0000000 -90.0000000 -3000.0000000 -90.0000000
 78.1289692  -0.7847501  24.0673423 -37.4968546 100.8639841 -3000.0000000 -90.0000000 -3000.0000000 -90.0000000
 78.1924768  -0.7867875  23.7865601 -37.3917062 100.5597871 -3000.0000000 -90.0000000 -3000.0000000 -90.0000000
 78.2559844  -0.7889430  23.5038633 -37.2775327 100.2510930 -3000.0000000 -90.0000000 -3000.0000000 -90.0000000
 78.3194919  -0.7910180  23.2185802 -37.1660109  99.9223359 -3000.0000000 -90.0000000 -3000.0000000 -90.0000000
 78.3829995  -0.7928318  22.9423584 -37.0530930  99.6360660 -3000.0000000 -90.0000000 -3000.0000000 -90.0000000
 78.4465071  -0.7945381  22.6581846 -36.9406739  99.3260292 -3000.0000000 -90.0000000 -3000.0000000 -90.0000000
 78.5100147  -0.7967001  22.3742229 -36.8288935  98.9896933 -3000.0000000 -90.0000000 -3000.0000000 -90.0000000
 78.5735222  -0.7987864  22.0923062 -36.7160726  98.6827002 -3000.0000000 -90.0000000 -3000.0000000 -90.0000000
 78.6370298  -0.8011375  21.8085117 -36.6011552  98.3844181 -3000.0000000 -90.0000000 -3000.0000000 -90.0000000
 78.7005374  -0.8030782  21.5161982 -36.4886879  98.0477926 -3000.0000000 -90.0000000 -3000.0000000 -90.0000000
 78.7640449  -0.8045245  21.2289171 -36.3762085  97.7370906 -3000.0000000 -90.0000000 -3000.0000000 -90.0000000
 78.8275525  -0.8069622  20.9429801 -36.2653290  97.4128644 -3000.0000000 -90.0000000 -3000.0000000 -90.0000000
 78.8910601  -0.8093203  20.6553298 -36.1495016  97.0807742 -3000.0000000 -90.0000000 -3000.0000000 -90.0000000
 78.9545677  -0.8115290  20.3650515 -36.0352851  96.7777394 -3000.0000000 -90.0000000 -3000.0000000 -90.0000000
 79.0180752  -0.8136067  20.0727712 -35.9210233  96.4629177 -3000.0000000 -90.0000000 -3000.0000000 -90.0000000
 79.0815828  -0.8157085  19.7853721 -35.8094423  96.1199983 -3000.0000000 -90.0000000 -3000.0000000 -90.0000000
 79.1450904  -0.8177001  19.4955487 -35.6962981  95.7873160 -3000.0000000 -90.0000000 -3000.0000000 -90.0000000
 79.2085979  -0.8199727  19.2043916 -35.5820277  95.4873221 -3000.0000000 -90.0000000 -3000.0000000 -90.0000000
 79.2721055  -0.8220820  18.9082228 -35.4689595  95.1511304 -3000.0000000 -90.0000000 -3000.0000000 -90.0000000
 79.3356131  -0.8237872  18.6077114 -35.3554802  94.8195128 -3000.0000000 -90.0000000 -3000.0000000 -90.0000000
 79.3991207  -0.8264274  18.3195221 -35.2433443  94.4782624 -3000.0000000 -90.0000000 -3000.0000000 -90.0000000
 79.4626282  -0.8284391  18.0221160 -35.1281704  94.1876434 -3000.0000000 -90.0000000 -3000.0000000 -90.0000000
 79.5261358  -0.8312265  17.7242522 -35.0151240  93.8215892 -3000.0000000 -90.0000000 -3000.0000000 -90.0000000
 79.5896434  -0.8328698  17.4247024 -34.9004499  93.5229644 -3000.0000000 -90.0000000 -3000.0000000 -90.0000000
 79.6531510  -0.8352276  17.1263067 -34.7848737  93.1690271 -3000.0000000 -90.0000000 -3000.0000000 -90.0000000
 79.7166585  -0.8380381  16.8294941 -34.6732446  92.8303741 -3000.0000000 -90.0000000 -3000.0000000 -90.0000000
 79.7801661  -0.8393009  16.5290415 -34.5559332  92.4880211 -3000.0000000 -90.0000000 -3000.0000000 -90.0000000
 79.8436737  -0.8421525  16.2286005 -34.4433725  92.1632963 -3000.0000000 -90.0000000 -3000.0000000 -90.0000000
 79.9071812  -0.8447482  15.9205305 -34.3310963  91.8205571 -3000.0000000 -90.0000000 -3000.0000000 -90.0000000
 79.9706888  -0.8472264  15.6248950 -34.2160599  91.4954222 -3000.0000000 -90.0000000 -3000.0000000 -90.0000000
 80.0341964  -0.8490836  15.3199165 -34.0990307  91.1416881 -3000.0000000 -90.0000000 -3000.0000000 -90.0000000
 80.0977040  -0.8512851  15.0134773 -33.9851860  90.7969965 -3000.0000000 -90.0000000 -3000.0000000 -90.0000000
 80.1612115  -0.8544201  14.7038158 -33.8676091  90.4622225 -3000.0000000 -90.0000000 -3000.0000000 -90.0000000
 80.2247191  -0.8571017  14.4001207 -33.7517788  90.1029613 -3000.0000000 -90.0000000 -3000.0000000 -90.0000000
 80.2882267  -0.8593622  14.0934980 -33.6360621  89.7578128 -3000.0000000 -90.0000000 -3000.0000000 -90.0000000
 80.3517342  -0.8609174  13.7852220 -33.5235096  89.4200681 -3000.0000000 -90.0000000 -3000.0000000 -90.0000000
 80.4152418  -0.8641509  13.4782653 -33.4073593  89.0719090 -3000.0000000 -90.0000000 -3000.0000000 -90.0000000
 80.4787494  -0.8663186  13.1633685 -33.2921707  88.7206204 -3000.0000000 -90.0000000 -3000.0000000 -90.0000000
 80.5422570  -0.8691001  12.8518096 -33.1766630  88.3708584 -3000.0000000 -90.0000000 -3000.0000000 -90.0000000
 80.6057645  -0.8714269  12.5438783 -33.0622977  87.9998041 -3000.0000000 -90.0000000 -3000.0000000 -90.0000000
 80.6692721  -0.8742246  12.2288606 -32.9444100  87.6569975 -3000.0000000 -90.0000000 -3000.0000000 -90.0000000
 80.7327797  -0.8768897  11.9128150 -32.8280093  87.3032716 -3000.0000000 -90.0000000 -3000.0000000 -90.0000000
 80.7962872  -0.8792465  11.6004486 -32.7138884  86.9500585 -3000.0000000 -90.0000000 -3000.0000000 -90.0000000
 80.8597948  -0.8818280  11.2840008 -32.5971194  86.5929269 -3000.0000000 -90.0000000 -3000.0000000 -90.0000000
 80.9233024  -0.8850566  10.9653480 -32.4828457  86.2408677 -3000.0000000 -90.0000000 -3000.0000000 -90.0000000
 80.9868100  -0.8874475  10.6491626 -32.3639558  85.8692291 -3000.0000000 -90.0000000 -3000.0000000 -90.0000000
 81.0503175  -0.8900309  10.3291857 -32.2480603  85.5144832 -3000.0000000 -90.0000000 -3000.0000000 -90.0000000
 81.1138251  -0.8924992  10.0064390 -32.1320417  85.1556895 -3000.0000000 -90.0000000 -3000.0000000 -90.0000000
