! ListType=Lin
# MHZ S DB R 50
  0.1000000  -5.2457998 -168.0349530 -16.3746697  67.7123600 -3000.0000000 -90.0000000 -3000.0000000 -90.0000000
  0.4174359  -3.3745137 -149.5297363 -16.9041153 -21.0952397 -3000.0000000 -90.0000000 -3000.0000000 -90.0000000
  0.7348718  -2.9809961 -163.5906621 -19.4070885 -14.6480385 -3000.0000000 -90.0000000 -3000.0000000 -90.0000000
  1.0523077  -2.9037560 -169.2886706 -20.2318338  -6.9962360 -3000.0000000 -90.0000000 -3000.0000000 -90.0000000
  1.3697436  -2.8821565 -172.5059872 -20.5020901  -0.7285265 -3000.0000000 -90.0000000 -3000.0000000 -90.0000000
  1.6871795  -2.8789450 -174.6515182 -20.5365580   4.4156185 -3000.0000000 -90.0000000 -3000.0000000 -90.0000000
  2.0046154  -2.8829836 -176.2332285 -20.4506974   8.7588401 -3000.0000000 -90.0000000 -3000.0000000 -90.0000000
  2.3220513  -2.8927542 -177.4818682 -20.2936346  12.4977755 -3000.0000000 -90.0000000 -3000.0000000 -90.0000000
  2.6394872  -2.9050129 -178.5204856 -20.0896408  15.7685314 -3000.0000000 -90.0000000 -3000.0000000 -90.0000000
  2.9569231  -2.9199461 -179.4145805 -19.8538782  18.6480959 -3000.0000000 -90.0000000 -3000.0000000 -90.0000000
  3.2743590  -2.9379668 179.7938333 -19.5962698  21.1969238 -3000.0000000 -90.0000000 -3000.0000000 -90.0000000
  3.5917949  -2.9568138 179.0793251 -19.3226738  23.4543499 -3000.0000000 -90.0000000 -3000.0000000 -90.0000000
  3.9092308  -2.9782803 178.4232643 -19.0377181  25.4575675 -3000.0000000 -90.0000000 -3000.0000000 -90.0000000
  4.2266667  -3.0021978 177.8165472 -18.7462944  27.2328063 -3000.0000000 -90.0000000 -3000.0000000 -90.0000000
  4.5441026  -3.0279128 177.2497789 -18.4490519  28.7905773 -3000.0000000 -90.0000000 -3000.0000000 -90.0000000
  4.8615385  -3.0551521 176.7095541 -18.1507235  30.1642521 -3000.0000000 -90.0000000 -3000.0000000 -90.0000000
  5.1789744  -3.0852418 176.2009420 -17.8512195  31.3624354 -3000.0000000 -90.0000000 -3000.0000000 -90.0000000
  5.4964103  -3.1176160 175.7114902 -17.5523168  32.4056687 -3000.0000000 -90.0000000 -3000.0000000 -90.0000000
  5.8138462  -3.1520410 175.2487209 -17.2563851  33.2962573 -3000.0000000 -90.0000000 -3000.0000000 -90.0000000
  6.1312821  -3.1893595 174.8054001 -16.9621198  34.0565658 -3000.0000000 -90.0000000 -3000.0000000 -90.0000000
  6.4487179  -3.2282105 174.3763395 -16.6713305  34.6857319 -3000.0000000 -90.0000000 -3000.0000000 -90.0000000
  6.7661538  -3.2705255 173.9750768 -16.3842587  35.1994376 -3000.0000000 -90.0000000 -3000.0000000 -90.0000000
  7.0835897  -3.3146256 173.5866327 -16.1015786  35.5978914 -3000.0000000 -90.0000000 -3000.0000000 -90.0000000
  7.4010256  -3.3628900 173.2236305 -15.8243794  35.8899734 -3000.0000000 -90.0000000 -3000.0000000 -90.0000000
  7.7184615  -3.4124791 172.8748028 -15.5503860  36.0892366 -3000.0000000 -90.0000000 -3000.0000000 -90.0000000
  8.0358974  -3.4665811 172.5473395 -15.2815095  36.1871620 -3000.0000000 -90.0000000 -3000.0000000 -90.0000000
  8.3533333  -3.5227646 172.2406492 -15.0187743  36.1948595 -3000.0000000 -90.0000000 -3000.0000000 -90.0000000
  8.6707692  -3.5817928 171.9599918 -14.7609768  36.1147980 -3000.0000000 -90.0000000 -3000.0000000 -90.0000000
  8.9882051  -3.6450945 171.7075359 -14.5094721  35.9468576 -3000.0000000 -90.0000000 -3000.0000000 -90.0000000
  9.3056410  -3.7110234 171.4830699 -14.2633226  35.6925353 -3000.0000000 -90.0000000 -3000.0000000 -90.0000000
  9.6230769  -3.7807053 171.2986534 -14.0235513  35.3573390 -3000.0000000 -90.0000000 -3000.0000000 -90.0000000
  9.9405128  -3.8538783 171.1475273 -13.7896298  34.9309581 -3000.0000000 -90.0000000 -3000.0000000 -90.0000000
 10.2579487  -3.9296867 171.0384843 -13.5630699  34.4261704 -3000.0000000 -90.0000000 -3000.0000000 -90.0000000
 10.5753846  -4.0081156 170.9773645 -13.3432141  33.8355530 -3000.0000000 -90.0000000 -3000.0000000 -90.0000000
 10.8928205  -4.0899274 170.9725437 -13.1318013  33.1598323 -3000.0000000 -90.0000000 -3000.0000000 -90.0000000
 11.2102564  -4.1736565 171.0253137 -12.9279710  32.3963374 -3000.0000000 -90.0000000 -3000.0000000 -90.0000000
 11.5276923  -4.2593888 171.1492101 -12.7340246  31.5434683 -3000.0000000 -90.0000000 -3000.0000000 -90.0000000
 11.8451282  -4.3447632 171.3493500 -12.5498859  30.5989690 -3000.0000000 -90.0000000 -3000.0000000 -90.0000000
 12.1625641  -4.4295439 171.6211982 -12.3764986  29.5648994 -3000.0000000 -90.0000000 -3000.0000000 -90.0000000
 12.4800000  -4.5126697 172.0008422 -12.2168300  28.4360797 -3000.0000000 -90.0000000 -3000.0000000 -90.0000000
 12.7974359  -4.5902348 172.4679768 -12.0713820  27.2127282 -3000.0000000 -90.0000000 -3000.0000000 -90.0000000
 13.1148718  -4.6605149 173.0413820 -11.9411393  25.8911603 -3000.0000000 -90.0000000 -3000.0000000 -90.0000000
 13.4323077  -4.7207069 173.7226694 -11.8301141  24.4772325 -3000.0000000 -90.0000000 -3000.0000000 -90.0000000
 13.7497436  -4.7665600 174.5148059 -11.7396172  22.9633998 -3000.0000000 -90.0000000 -3000.0000000 -90.0000000
 14.0671795  -4.7941499 175.4032610 -11.6731028  21.3637358 -3000.0000000 -90.0000000 -3000.0000000 -90.0000000
 14.3846154  -4.8004892 176.3685021 -11.6334923  19.6828991 -3000.0000000 -90.0000000 -3000.0000000 -90.0000000
 14.7020513  -4.7793956 177.4045868 -11.6244418  17.9229311 -3000.0000000 -90.0000000 -3000.0000000 -90.0000000
 15.0194872  -4.7281233 178.4608788 -11.6501785  16.1119581 -3000.0000000 -90.0000000 -3000.0000000 -90.0000000
 15.3369231  -4.6450149 179.5069505 -11.7136899  14.2643514 -3000.0000000 -90.0000000 -3000.0000000 -90.0000000
 15.6543590  -4.5283823 -179.5001066 -11.8201524  12.4059500 -3000.0000000 -90.0000000 -3000.0000000 -90.0000000
 15.9717949  -4.3804220 -178.6222073 -11.9730556  10.5775087 -3000.0000000 -90.0000000 -3000.0000000 -90.0000000
 16.2892308  -4.2040233 -177.8865476 -12.1764590   8.8218223 -3000.0000000 -90.0000000 -3000.0000000 -90.0000000
 16.6066667  -4.0047178 -177.3477823 -12.4322972   7.1938097 -3000.0000000 -90.0000000 -3000.0000000 -90.0000000
 16.9241026  -3.7893956 -177.0250897 -12.7425860   5.7565842 -3000.0000000 -90.0000000 -3000.0000000 -90.0000000
 17.2415385  -3.5646798 -176.9331309 -13.1076308   4.5902537 -3000.0000000 -90.0000000 -3000.0000000 -90.0000000
 17.5589744  -3.3381376 -177.0726076 -13.5244191   3.7739717 -3000.0000000 -90.0000000 -3000.0000000 -90.0000000
 17.8764103  -3.1166166 -177.4346741 -13.9885794   3.4096443 -3000.0000000 -90.0000000 -3000.0000000 -90.0000000
 18.1938462  -2.9049501 -177.9956496 -14.4900868   3.5808099 -3000.0000000 -90.0000000 -3000.0000000 -90.0000000
 18.5112821  -2.7091317 -178.7299506 -15.0152139   4.3892671 -3000.0000000 -90.0000000 -3000.0000000 -90.0000000
 18.8287179  -2.5309223 -179.6044510 -15.5444446   5.9197210 -3000.0000000 -90.0000000 -3000.0000000 -90.0000000
 19.1461538  -2.3725006 179.4037928 -16.0512714   8.2205615 -3000.0000000 -90.0000000 -3000.0000000 -90.0000000
 19.4635897  -2.2342374 178.3237559 -16.5061238  11.2891316 -3000.0000000 -90.0000000 -3000.0000000 -90.0000000
 19.7810256  -2.1155707 177.1914312 -16.8742744  15.0587570 -3000.0000000 -90.0000000 -3000.0000000 -90.0000000
 20.0984615  -2.0161917 176.0142506 -17.1273918  19.3661566 -3000.0000000 -90.0000000 -3000.0000000 -90.0000000
 20.4158974  -1.9354635 174.8212056 -17.2450103  23.9868602 -3000.0000000 -90.0000000 -3000.0000000 -90.0000000
 20.7333333  -1.8710680 173.6171314 -17.2220364  28.6425085 -3000.0000000 -90.0000000 -3000.0000000 -90.0000000
 21.0507692  -1.8218917 172.4176970 -17.0697848  33.0888461 -3000.0000000 -90.0000000 -3000.0000000 -90.0000000
 21.3682051  -1.7853039 171.2341848 -16.8101781  37.1304685 -3000.0000000 -90.0000000 -3000.0000000 -90.0000000
 21.6856410  -1.7619316 170.0668996 -16.4710987  40.6827876 -3000.0000000 -90.0000000 -3000.0000000 -90.0000000
 22.0030769  -1.7491910 168.9172745 -16.0784023  43.6863726 -3000.0000000 -90.0000000 -3000.0000000 -90.0000000
 22.3205128  -1.7451402 167.7956505 -15.6557825  46.1631224 -3000.0000000 -90.0000000 -3000.0000000 -90.0000000
 22.6379487  -1.7496312 166.7031446 -15.2199695  48.1698594 -3000.0000000 -90.0000000 -3000.0000000 -90.0000000
 22.9553846  -1.7614397 165.6285726 -14.7828569  49.7537333 -3000.0000000 -90.0000000 -3000.0000000 -90.0000000
 23.2728205  -1.7798771 164.5820038 -14.3523621  50.9820708 -3000.0000000 -90.0000000 -3000.0000000 -90.0000000
 23.5902564  -1.8046717 163.5598881 -13.9332026  51.9032900 -3000.0000000 -90.0000000 -3000.0000000 -90.0000000
 23.9076923  -1.8337621 162.5610280 -13.5286769  52.5772308 -3000.0000000 -90.0000000 -3000.0000000 -90.0000000
 24.2251282  -1.8674608 161.5855518 -13.1402545  53.0341261 -3000.0000000 -90.0000000 -3000.0000000 -90.0000000
 24.5425641  -1.9061837 160.6275656 -12.7689109  53.3209170 -3000.0000000 -90.0000000 -3000.0000000 -90.0000000
 24.8600000  -1.9480531 159.6922229 -12.4130729  53.4546830 -3000.0000000 -90.0000000 -3000.0000000 -90.0000000
 25.1774359  -1.9938723 158.7684274 -12.0729472  53.4705386 -3000.0000000 -90.0000000 -3000.0000000 -90.0000000
 25.4948718  -2.0430293 157.8618310 -11.7482652  53.3807226 -3000.0000000 -90.0000000 -3000.0000000 -90.0000000
 25.8123077  -2.0953274 156.9736206 -11.4368223  53.2046744 -3000.0000000 -90.0000000 -3000.0000000 -90.0000000
 26.1297436  -2.1506447 156.0948998 -11.1383036  52.9531861 -3000.0000000 -90.0000000 -3000.0000000 -90.0000000
 26.4471795  -2.2086230 155.2289207 -10.8522578  52.6455521 -3000.0000000 -90.0000000 -3000.0000000 -90.0000000
 26.7646154  -2.2687196 154.3732924 -10.5781655  52.2728911 -3000.0000000 -90.0000000 -3000.0000000 -90.0000000
 27.0820513  -2.3321383 153.5293984 -10.3134015  51.8586498 -3000.0000000 -90.0000000 -3000.0000000 -90.0000000
 27.3994872  -2.3987051 152.6908046 -10.0592549  51.4024513 -3000.0000000 -90.0000000 -3000.0000000 -90.0000000
 27.7169231  -2.4677289 151.8574061  -9.8143020  50.9116335 -3000.0000000 -90.0000000 -3000.0000000 -90.0000000
 28.0343590  -2.5390480 151.0274086  -9.5768918  50.3864465 -3000.0000000 -90.0000000 -3000.0000000 -90.0000000
 28.3517949  -2.6142263 150.2097813  -9.3476295  49.8313542 -3000.0000000 -90.0000000 -3000.0000000 -90.0000000
 28.6692308  -2.6914813 149.3958809  -9.1254131  49.2534052 -3000.0000000 -90.0000000 -3000.0000000 -90.0000000
 28.9866667  -2.7717693 148.5818968  -8.9103665  48.6502046 -3000.0000000 -90.0000000 -3000.0000000 -90.0000000
 29.3041026  -2.8553333 147.7716768  -8.7017782  48.0247583 -3000.0000000 -90.0000000 -3000.0000000 -90.0000000
 29.6215385  -2.9417326 146.9640938  -8.4991483  47.3796986 -3000.0000000 -90.0000000 -3000.0000000 -90.0000000
 29.9389744  -3.0317515 146.1544423  -8.3010253  46.7153153 -3000.0000000 -90.0000000 -3000.0000000 -90.0000000
 30.2564103  -3.1254237 145.3509719  -8.1094370  46.0288737 -3000.0000000 -90.0000000 -3000.0000000 -90.0000000
 30.5738462  -3.2217026 144.5451637  -7.9221404  45.3301035 -3000.0000000 -90.0000000 -3000.0000000 -90.0000000
 30.8912821  -3.3232082 143.7373543  -7.7397995  44.6112657 -3000.0000000 -90.0000000 -3000.0000000 -90.0000000
 31.2087179  -3.4277797 142.9289007  -7.5618322  43.8735539 -3000.0000000 -90.0000000 -3000.0000000 -90.0000000
 31.5261538  -3.5370084 142.1245549  -7.3883973  43.1223456 -3000.0000000 -90.0000000 -3000.0000000 -90.0000000
 31.8435897  -3.6500244 141.3172696  -7.2182861  42.3537029 -3000.0000000 -90.0000000 -3000.0000000 -90.0000000
 32.1610256  -3.7686064 140.5045780  -7.0523262  41.5701314 -3000.0000000 -90.0000000 -3000.0000000 -90.0000000
 32.4784615  -3.8927607 139.6945897  -6.8899885  40.7693033 -3000.0000000 -90.0000000 -3000.0000000 -90.0000000
 32.7958974  -4.0206807 138.8810603  -6.7315266  39.9543760 -3000.0000000 -90.0000000 -3000.0000000 -90.0000000
 33.1133333  -4.1554314 138.0690435  -6.5767111  39.1193509 -3000.0000000 -90.0000000 -3000.0000000 -90.0000000
 33.4307692  -4.2950111 137.2557252  -6.4249363  38.2696773 -3000.0000000 -90.0000000 -3000.0000000 -90.0000000
 33.7482051  -4.4420603 136.4379707  -6.2763236  37.4058049 -3000.0000000 -90.0000000 -3000.0000000 -90.0000000
 34.0656410  -4.5963992 135.6236243  -6.1308349  36.5204969 -3000.0000000 -90.0000000 -3000.0000000 -90.0000000
 34.3830769  -4.7577267 134.8102039  -5.9888538  35.6211743 -3000.0000000 -90.0000000 -3000.0000000 -90.0000000
 34.7005128  -4.9279088 133.9977423  -5.8500362  34.7001338 -3000.0000000 -90.0000000 -3000.0000000 -90.0000000
 35.0179487  -5.1054651 133.1823007  -5.7140385  33.7643272 -3000.0000000 -90.0000000 -3000.0000000 -90.0000000
 35.3353846  -5.2931444 132.3759265  -5.5818762  32.8093050 -3000.0000000 -90.0000000 -3000.0000000 -90.0000000
 35.6528205  -5.4908743 131.5740683  -5.4523456  31.8315749 -3000.0000000 -90.0000000 -3000.0000000 -90.0000000
 35.9702564  -5.6990333 130.7766594  -5.3260852  30.8357309 -3000.0000000 -90.0000000 -3000.0000000 -90.0000000
 36.2876923  -5.9198834 129.9874178  -5.2034221  29.8186787 -3000.0000000 -90.0000000 -3000.0000000 -90.0000000
 36.6051282  -6.1529881 129.2163757  -5.0838286  28.7800866 -3000.0000000 -90.0000000 -3000.0000000 -90.0000000
 36.9225641  -6.3989638 128.4523106  -4.9673925  27.7204088 -3000.0000000 -90.0000000 -3000.0000000 -90.0000000
 37.2400000  -6.6621091 127.7161721  -4.8547081  26.6332553 -3000.0000000 -90.0000000 -3000.0000000 -90.0000000
 37.5574359  -6.9397140 127.0122546  -4.7459386  25.5280703 -3000.0000000 -90.0000000 -3000.0000000 -90.0000000
 37.8748718  -7.2356233 126.3307148  -4.6406218  24.3960514 -3000.0000000 -90.0000000 -3000.0000000 -90.0000000
 38.1923077  -7.5533068 125.6951161  -4.5395366  23.2359468 -3000.0000000 -90.0000000 -3000.0000000 -90.0000000
 38.5097436  -7.8924771 125.1081222  -4.4424627  22.0509655 -3000.0000000 -90.0000000 -3000.0000000 -90.0000000
 38.8271795  -8.2552375 124.5873638  -4.3501347  20.8391011 -3000.0000000 -90.0000000 -3000.0000000 -90.0000000
 39.1446154  -8.6446032 124.1496027  -4.2620621  19.5992411 -3000.0000000 -90.0000000 -3000.0000000 -90.0000000
 39.4620513  -9.0645341 123.8206214  -4.1786767  18.3271546 -3000.0000000 -90.0000000 -3000.0000000 -90.0000000
 39.7794872  -9.5163793 123.6169057  -4.1011073  17.0285380 -3000.0000000 -90.0000000 -3000.0000000 -90.0000000
 40.0969231 -10.0039675 123.5858060  -4.0291966  15.6958130 -3000.0000000 -90.0000000 -3000.0000000 -90.0000000
 40.4143590 -10.5326998 123.7578399  -3.9631930  14.3311124 -3000.0000000 -90.0000000 -3000.0000000 -90.0000000
 40.7317949 -11.1043455 124.2123488  -3.9037992  12.9345432 -3000.0000000 -90.0000000 -3000.0000000 -90.0000000
 41.0492308 -11.7225494 125.0159435  -3.8513162  11.5009937 -3000.0000000 -90.0000000 -3000.0000000 -90.0000000
 41.3666667 -12.3917134 126.2815332  -3.8070358  10.0353986 -3000.0000000 -90.0000000 -3000.0000000 -90.0000000
 41.6841026 -13.1076666 128.1387896  -3.7709686   8.5328374 -3000.0000000 -90.0000000 -3000.0000000 -90.0000000
 42.0015385 -13.8654985 130.8055139  -3.7439820   6.9940603 -3000.0000000 -90.0000000 -3000.0000000 -90.0000000
 42.3189744 -14.6507695 134.4755253  -3.7270596   5.4185998 -3000.0000000 -90.0000000 -3000.0000000 -90.0000000
 42.6364103 -15.4264810 139.4255700  -3.7211110   3.8075658 -3000.0000000 -90.0000000 -3000.0000000 -90.0000000
 42.9538462 -16.1280542 145.9109628  -3.7277128   2.1567510 -3000.0000000 -90.0000000 -3000.0000000 -90.0000000
 43.2712821 -16.6618544 153.9609515  -3.7469486   0.4760105 -3000.0000000 -90.0000000 -3000.0000000 -90.0000000
 43.5887179 -16.9038365 163.2352448  -3.7815105  -1.2430856 -3000.0000000 -90.0000000 -3000.0000000 -90.0000000
 43.9061538 -16.7810911 172.9404117  -3.8322224  -2.9898985 -3000.0000000 -90.0000000 -3000.0000000 -90.0000000
 44.2235897 -16.2925287 -177.9340219  -3.9006775  -4.7653052 -3000.0000000 -90.0000000 -3000.0000000 -90.0000000
 44.5410256 -15.5197325 -170.2142924  -3.9891623  -6.5628113 -3000.0000000 -90.0000000 -3000.0000000 -90.0000000
 44.8584615 -14.5781469 -164.2604701  -4.0995612  -8.3796043 -3000.0000000 -90.0000000 -3000.0000000 -90.0000000
 45.1758974 -13.5709832 -159.9798854  -4.2341418 -10.2030259 -3000.0000000 -90.0000000 -3000.0000000 -90.0000000
 45.4933333 -12.5631393 -157.1462021  -4.3960031 -12.0158077 -3000.0000000 -90.0000000 -3000.0000000 -90.0000000
 45.8107692 -11.5861399 -155.5014027  -4.5877903 -13.8194735 -3000.0000000 -90.0000000 -3000.0000000 -90.0000000
 46.1282051 -10.6666602 -154.8016207  -4.8121959 -15.5720999 -3000.0000000 -90.0000000 -3000.0000000 -90.0000000
 46.4456410  -9.8061872 -154.8672746  -5.0716247 -17.2705986 -3000.0000000 -90.0000000 -3000.0000000 -90.0000000
 46.7630769  -9.0084372 -155.5397775  -5.3701772 -18.8659654 -3000.0000000 -90.0000000 -3000.0000000 -90.0000000
 47.0805128  -8.2776058 -156.7234953  -5.7107949 -20.3282618 -3000.0000000 -90.0000000 -3000.0000000 -90.0000000
 47.3979487  -7.6097182 -158.3236580  -6.0979072 -21.5963290 -3000.0000000 -90.0000000 -3000.0000000 -90.0000000
 47.7153846  -6.9998597 -160.2753447  -6.5312377 -22.6181588 -3000.0000000 -90.0000000 -3000.0000000 -90.0000000
 48.0328205  -6.4507360 -162.5128037  -7.0122295 -23.3131988 -3000.0000000 -90.0000000 -3000.0000000 -90.0000000
 48.3502564  -5.9570007 -164.9992601  -7.5402140 -23.5712040 -3000.0000000 -90.0000000 -3000.0000000 -90.0000000
 48.6676923  -5.5198024 -167.6967814  -8.1093406 -23.2856012 -3000.0000000 -90.0000000 -3000.0000000 -90.0000000
 48.9851282  -5.1367514 -170.5618754  -8.7091809 -22.3162875 -3000.0000000 -90.0000000 -3000.0000000 -90.0000000
 49.3025641  -4.8070210 -173.5689206  -9.3194478 -20.5165767 -3000.0000000 -90.0000000 -3000.0000000 -90.0000000
 49.6200000  -4.5282060 -176.6852060  -9.9090580 -17.7611140 -3000.0000000 -90.0000000 -3000.0000000 -90.0000000
 49.9374359  -4.3003858 -179.8844177 -10.4314797 -13.9906924 -3000.0000000 -90.0000000 -3000.0000000 -90.0000000
 50.2548718  -4.1205544 176.8535391 -10.8316918  -9.2627881 -3000.0000000 -90.0000000 -3000.0000000 -90.0000000
 50.5723077  -3.9879014 173.5555201 -11.0544430  -3.8313695 -3000.0000000 -90.0000000 -3000.0000000 -90.0000000
 50.8897436  -3.9023640 170.2336663 -11.0647244   1.8827500 -3000.0000000 -90.0000000 -3000.0000000 -90.0000000
 51.2071795  -3.8600624 166.9234523 -10.8632675   7.3707590 -3000.0000000 -90.0000000 -3000.0000000 -90.0000000
 51.5246154  -3.8593647 163.6214984 -10.4831764  12.2087085 -3000.0000000 -90.0000000 -3000.0000000 -90.0000000
 51.8420513  -3.9011780 160.3507317  -9.9782641  16.1492245 -3000.0000000 -90.0000000 -3000.0000000 -90.0000000
 52.1594872  -3.9810246 157.1260536  -9.4034084  19.1322606 -3000.0000000 -90.0000000 -3000.0000000 -90.0000000
 52.4769231  -4.0989307 153.9521929  -8.8014624  21.2148940 -3000.0000000 -90.0000000 -3000.0000000 -90.0000000
 52.7943590  -4.2526005 150.8409731  -8.2030742  22.5141720 -3000.0000000 -90.0000000 -3000.0000000 -90.0000000
 53.1117949  -4.4411644 147.8018052  -7.6279685  23.1724342 -3000.0000000 -90.0000000 -3000.0000000 -90.0000000
 53.4292308  -4.6640539 144.8234525  -7.0846681  23.3047143 -3000.0000000 -90.0000000 -3000.0000000 -90.0000000
 53.7466667  -4.9194243 141.9325838  -6.5801686  23.0231630 -3000.0000000 -90.0000000 -3000.0000000 -90.0000000
 54.0641026  -5.2066170 139.1168106  -6.1139519  22.4184686 -3000.0000000 -90.0000000 -3000.0000000 -90.0000000
 54.3815385  -5.5270643 136.3871339  -5.6869841  21.5589917 -3000.0000000 -90.0000000 -3000.0000000 -90.0000000
 54.6989744  -5.8804010 133.7396113  -5.2973814  20.5032658 -3000.0000000 -90.0000000 -3000.0000000 -90.0000000
 55.0164103  -6.2660541 131.1740292  -4.9426288  19.2951871 -3000.0000000 -90.0000000 -3000.0000000 -90.0000000
 55.3338462  -6.6855101 128.6987059  -4.6201368  17.9664645 -3000.0000000 -90.0000000 -3000.0000000 -90.0000000
 55.6512821  -7.1417480 126.3050124  -4.3277594  16.5473900 -3000.0000000 -90.0000000 -3000.0000000 -90.0000000
