! ListType=Lin
# MHz S DB R 50
 19.0000000 -75.9842245   0.0000000
 19.0068426 -76.1804039   0.0000000
 19.0136852 -76.1748270   0.0000000
 19.0205279 -76.0825330   0.0000000
 19.0273705 -76.0744579   0.0000000
 19.0342131 -76.2141873   0.0000000
 19.0410557 -76.2121050   0.0000000
 19.0478983 -75.9980607   0.0000000
 19.0547410 -76.0417615   0.0000000
 19.0615836 -76.0644326   0.0000000
 19.0684262 -76.1501222   0.0000000
 19.0752688 -75.9946659   0.0000000
 19.0821114 -76.1186772   0.0000000
 19.0889541 -76.1137754   0.0000000
 19.0957967 -76.3170299   0.0000000
 19.1026393 -76.1625668   0.0000000
 19.1094819 -76.1476120   0.0000000
 19.1163245 -76.0831874   0.0000000
 19.1231672 -76.1579057   0.0000000
 19.1300098 -76.1181192   0.0000000
 19.1368524 -76.0094505   0.0000000
 19.1436950 -76.0631548   0.0000000
 19.1505376 -76.3338803   0.0000000
 19.1573803 -76.2289287   0.0000000
 19.1642229 -76.0646321   0.0000000
 19.1710655 -76.0430225   0.0000000
 19.1779081 -76.1457958   0.0000000
 19.1847507 -76.2206957   0.0000000
 19.1915934 -76.2198311   0.0000000
 19.1984360 -76.1126960   0.0000000
 19.2052786 -76.1895346   0.0000000
 19.2121212 -76.0013286   0.0000000
 19.2189638 -76.2158172   0.0000000
 19.2258065 -76.1072544   0.0000000
 19.2326491 -76.1862506   0.0000000
 19.2394917 -76.0738170   0.0000000
 19.2463343 -76.1440866   0.0000000
 19.2531769 -76.0724816   0.0000000
 19.2600196 -76.1169751   0.0000000
 19.2668622 -75.9541015   0.0000000
 19.2737048 -76.1129107   0.0000000
 19.2805474 -76.2066943   0.0000000
 19.2873900 -76.1304234   0.0000000
 19.2942326 -76.2044668   0.0000000
 19.3010753 -76.0738745   0.0000000
 19.3079179 -76.1087470   0.0000000
 19.3147605 -76.2624076   0.0000000
 19.3216031 -76.2881128   0.0000000
 19.3284457 -76.0105271   0.0000000
 19.3352884 -75.9725258   0.0000000
 19.3421310 -76.0984910   0.0000000
 19.3489736 -76.1715288   0.0000000
 19.3558162 -76.3715775   0.0000000
 19.3626588 -76.1470245   0.0000000
 19.3695015 -75.9080724   0.0000000
 19.3763441 -76.0916892   0.0000000
 19.3831867 -76.2104775   0.0000000
 19.3900293 -76.2334201   0.0000000
 19.3968719 -76.1272037   0.0000000
 19.4037146 -76.2298516   0.0000000
 19.4105572 -76.2059486   0.0000000
 19.4173998 -76.1724754   0.0000000
 19.4242424 -75.9405612   0.0000000
 19.4310850 -76.2023114   0.0000000
 19.4379277 -76.0899774   0.0000000
 19.4447703 -76.1824418   0.0000000
 19.4516129 -76.0299378   0.0000000
 19.4584555 -76.1593290   0.0000000
 19.4652981 -76.2850977   0.0000000
 19.4721408 -76.1845678   0.0000000
 19.4789834 -76.0030844   0.0000000
 19.4858260 -76.1256074   0.0000000
 19.4926686 -76.1612771   0.0000000
 19.4995112 -76.0111375   0.0000000
 19.5063539 -76.2257243   0.0000000
 19.5131965 -76.1306497   0.0000000
 19.5200391 -76.0923621   0.0000000
 19.5268817 -76.1524763   0.0000000
 19.5337243 -76.1575043   0.0000000
 19.5405670 -76.1578319   0.0000000
 19.5474096 -76.1307726   0.0000000
 19.5542522 -76.1158699   0.0000000
 19.5610948 -76.1380466   0.0000000
 19.5679374 -76.0369235   0.0000000
 19.5747801 -75.9443109   0.0000000
 19.5816227 -76.0366775   0.0000000
 19.5884653 -76.1844324   0.0000000
 19.5953079 -76.0842602   0.0000000
 19.6021505 -76.0395582   0.0000000
 19.6089932 -76.0959094   0.0000000
 19.6158358 -76.1345765   0.0000000
 19.6226784 -76.0570358   0.0000000
 19.6295210 -76.1122423   0.0000000
 19.6363636 -76.0373362   0.0000000
 19.6432063 -76.1532933   0.0000000
 19.6500489 -76.2687028   0.0000000
 19.6568915 -76.4044084   0.0000000
 19.6637341 -76.1587706   0.0000000
 19.6705767 -76.1457069   0.0000000
 19.6774194 -76.1389563   0.0000000
 19.6842620 -76.2561122   0.0000000
 19.6911046 -76.1202574   0.0000000
 19.6979472 -76.1183296   0.0000000
 19.7047898 -76.1435821   0.0000000
 19.7116325 -75.9925377   0.0000000
 19.7184751 -76.1905263   0.0000000
 19.7253177 -76.0475684   0.0000000
 19.7321603 -76.3199862   0.0000000
 19.7390029 -76.2133525   0.0000000
 19.7458456 -76.1716919   0.0000000
 19.7526882 -75.9983108   0.0000000
 19.7595308 -76.0958153   0.0000000
 19.7663734 -76.0387010   0.0000000
 19.7732160 -76.0333461   0.0000000
 19.7800587 -76.0946661   0.0000000
 19.7869013 -76.1922833   0.0000000
 19.7937439 -76.2067068   0.0000000
 19.8005865 -76.2271313   0.0000000
 19.8074291 -76.1089842   0.0000000
 19.8142717 -76.2012053   0.0000000
 19.8211144 -76.2007951   0.0000000
 19.8279570 -76.1958284   0.0000000
 19.8347996 -76.0669596   0.0000000
 19.8416422 -76.2453744   0.0000000
 19.8484848 -76.2812022   0.0000000
 19.8553275 -76.1206028   0.0000000
 19.8621701 -76.1935535   0.0000000
 19.8690127 -76.2208683   0.0000000
 19.8758553 -76.2653846   0.0000000
 19.8826979 -76.2629820   0.0000000
 19.8895406 -76.2900488   0.0000000
 19.8963832 -76.0488475   0.0000000
 19.9032258 -76.0133528   0.0000000
 19.9100684 -76.1857023   0.0000000
 19.9169110 -76.1600212   0.0000000
 19.9237537 -76.1324889   0.0000000
 19.9305963 -76.3265919   0.0000000
 19.9374389 -76.0786817   0.0000000
 19.9442815 -76.2244136   0.0000000
 19.9511241 -76.0156447   0.0000000
 19.9579668 -76.1061126   0.0000000
 19.9648094 -76.1105416   0.0000000
 19.9716520 -76.1570910   0.0000000
 19.9784946 -76.2181450   0.0000000
 19.9853372 -76.2171868   0.0000000
 19.9921799 -76.1899898   0.0000000
 19.9990225 -68.2790146   0.0000000
 20.0058651 -75.9845351   0.0000000
 20.0127077 -76.1383269   0.0000000
 20.0195503 -76.1111362   0.0000000
 20.0263930 -76.2276757   0.0000000
 20.0332356 -76.2030472   0.0000000
 20.0400782 -76.0622440   0.0000000
 20.0469208 -76.0082723   0.0000000
 20.0537634 -76.0772593   0.0000000
 20.0606061 -76.2660022   0.0000000
 20.0674487 -76.0606949   0.0000000
 20.0742913 -76.0893153   0.0000000
 20.0811339 -76.2435337   0.0000000
 20.0879765 -76.2049902   0.0000000
 20.0948192 -76.2465421   0.0000000
 20.1016618 -76.1845803   0.0000000
 20.1085044 -76.1514341   0.0000000
 20.1153470 -76.1475663   0.0000000
 20.1221896 -76.3076140   0.0000000
 20.1290323 -76.0844319   0.0000000
 20.1358749 -76.2746693   0.0000000
 20.1427175 -76.1617628   0.0000000
 20.1495601 -76.1393034   0.0000000
 20.1564027 -76.2628030   0.0000000
 20.1632454 -76.2703515   0.0000000
 20.1700880 -75.9704547   0.0000000
 20.1769306 -76.1455293   0.0000000
 20.1837732 -76.1713875   0.0000000
 20.1906158 -76.3203544   0.0000000
 20.1974585 -76.1878757   0.0000000
 20.2043011 -76.1552534   0.0000000
 20.2111437 -76.1455715   0.0000000
 20.2179863 -76.0422351   0.0000000
 20.2248289 -76.0081210   0.0000000
 20.2316716 -76.0837840   0.0000000
 20.2385142 -76.1441742   0.0000000
 20.2453568 -76.1727533   0.0000000
 20.2521994 -76.0630910   0.0000000
 20.2590420 -76.0675768   0.0000000
 20.2658847 -76.0787926   0.0000000
 20.2727273 -75.9995058   0.0000000
 20.2795699 -76.3447039   0.0000000
 20.2864125 -76.0963972   0.0000000
 20.2932551 -76.1527021   0.0000000
 20.3000978 -76.0200639   0.0000000
 20.3069404 -76.2171802   0.0000000
 20.3137830 -76.1670430   0.0000000
 20.3206256 -76.0286694   0.0000000
 20.3274682 -76.3301269   0.0000000
 20.3343109 -76.2248140   0.0000000
 20.3411535 -75.9226462   0.0000000
 20.3479961 -76.0696694   0.0000000
 20.3548387 -76.0855041   0.0000000
 20.3616813 -76.1423658   0.0000000
 20.3685239 -76.1555024   0.0000000
 20.3753666 -76.1752510   0.0000000
 20.3822092 -76.2754508   0.0000000
 20.3890518 -76.1206972   0.0000000
 20.3958944 -76.0440246   0.0000000
 20.4027370 -76.0844070   0.0000000
 20.4095797 -76.0772290   0.0000000
 20.4164223 -76.0749666   0.0000000
 20.4232649 -76.1130288   0.0000000
 20.4301075 -76.1559626   0.0000000
 20.4369501 -76.1470706   0.0000000
 20.4437928 -76.1666135   0.0000000
 20.4506354 -75.9695847   0.0000000
 20.4574780 -76.0543730   0.0000000
 20.4643206 -76.2505723   0.0000000
 20.4711632 -76.4598257   0.0000000
 20.4780059 -76.1000667   0.0000000
 20.4848485 -76.1128057   0.0000000
 20.4916911 -76.1585123   0.0000000
 20.4985337 -76.1309422   0.0000000
 20.5053763 -76.3523468   0.0000000
 20.5122190 -76.1818656   0.0000000
 20.5190616 -76.1382070   0.0000000
 20.5259042 -76.1015864   0.0000000
 20.5327468 -76.1563147   0.0000000
 20.5395894 -76.0886086   0.0000000
 20.5464321 -76.1235400   0.0000000
 20.5532747 -76.1983549   0.0000000
 20.5601173 -76.1575738   0.0000000
 20.5669599 -76.2321618   0.0000000
 20.5738025 -76.0778303   0.0000000
 20.5806452 -76.2955003   0.0000000
 20.5874878 -76.0242087   0.0000000
 20.5943304 -76.2515809   0.0000000
 20.6011730 -76.0770418   0.0000000
 20.6080156 -76.1131636   0.0000000
 20.6148583 -76.2866838   0.0000000
 20.6217009 -76.1809942   0.0000000
 20.6285435 -76.1426296   0.0000000
 20.6353861 -76.1393965   0.0000000
 20.6422287 -76.1632628   0.0000000
 20.6490714 -76.1935380   0.0000000
 20.6559140 -76.0648023   0.0000000
 20.6627566 -76.1046655   0.0000000
 20.6695992 -76.1768040   0.0000000
 20.6764418 -76.0819760   0.0000000
 20.6832845 -76.1727142   0.0000000
 20.6901271 -76.0335535   0.0000000
 20.6969697 -76.2490648   0.0000000
 20.7038123 -76.1489621   0.0000000
 20.7106549 -76.2206239   0.0000000
 20.7174976 -76.2545088   0.0000000
 20.7243402 -76.1449190   0.0000000
 20.7311828 -76.2196246   0.0000000
 20.7380254 -76.1253181   0.0000000
 20.7448680 -76.1321056   0.0000000
 20.7517107 -76.2317531   0.0000000
 20.7585533 -76.0943851   0.0000000
 20.7653959 -76.1150660   0.0000000
 20.7722385 -76.3238507   0.0000000
 20.7790811 -76.1838317   0.0000000
 20.7859238 -76.1998106   0.0000000
 20.7927664 -76.2989173   0.0000000
 20.7996090 -76.2018659   0.0000000
 20.8064516 -76.2862959   0.0000000
 20.8132942 -76.1712399   0.0000000
 20.8201369 -76.1081627   0.0000000
 20.8269795 -76.1823152   0.0000000
 20.8338221 -76.2463648   0.0000000
 20.8406647 -76.0813432   0.0000000
 20.8475073 -76.1156990   0.0000000
 20.8543500 -76.0305962   0.0000000
 20.8611926 -76.2423450   0.0000000
 20.8680352 -76.0011860   0.0000000
 20.8748778 -75.9569902   0.0000000
 20.8817204 -76.2588788   0.0000000
 20.8885630 -76.2774902   0.0000000
 20.8954057 -76.0891638   0.0000000
 20.9022483 -76.1747609   0.0000000
 20.9090909 -76.0540022   0.0000000
 20.9159335 -76.0594434   0.0000000
 20.9227761 -76.2792702   0.0000000
 20.9296188 -76.2693840   0.0000000
 20.9364614 -76.2265420   0.0000000
 20.9433040 -76.2240419   0.0000000
 20.9501466 -76.1573054   0.0000000
 20.9569892 -76.1631515   0.0000000
 20.9638319 -76.1768560   0.0000000
 20.9706745 -76.3079521   0.0000000
 20.9775171 -76.2873314   0.0000000
 20.9843597 -76.1251430   0.0000000
 20.9912023 -76.1695771   0.0000000
 20.9980450 -76.2462240   0.0000000
 21.0048876 -76.1802282   0.0000000
 21.0117302 -76.2443136   0.0000000
 21.0185728 -76.1987222   0.0000000
 21.0254154 -76.1124276   0.0000000
 21.0322581 -76.1140212   0.0000000
 21.0391007 -76.1304200   0.0000000
 21.0459433 -76.1197096   0.0000000
 21.0527859 -76.0379882   0.0000000
 21.0596285 -76.1674468   0.0000000
 21.0664712 -76.1070385   0.0000000
 21.0733138 -76.0604105   0.0000000
 21.0801564 -76.1562981   0.0000000
 21.0869990 -76.1987239   0.0000000
 21.0938416 -76.2826129   0.0000000
 21.1006843 -76.0969737   0.0000000
 21.1075269 -76.1286902   0.0000000
 21.1143695 -76.1868461   0.0000000
 21.1212121 -76.1970755   0.0000000
 21.1280547 -76.2156331   0.0000000
 21.1348974 -76.1791680   0.0000000
 21.1417400 -76.1676264   0.0000000
 21.1485826 -76.1797697   0.0000000
 21.1554252 -76.1193940   0.0000000
 21.1622678 -76.2154438   0.0000000
 21.1691105 -76.2263555   0.0000000
 21.1759531 -76.2225954   0.0000000
 21.1827957 -76.1899713   0.0000000
 21.1896383 -76.1422907   0.0000000
 21.1964809 -76.0664005   0.0000000
 21.2033236 -76.1093074   0.0000000
 21.2101662 -76.1898111   0.0000000
 21.2170088 -76.3571617   0.0000000
 21.2238514 -76.0811658   0.0000000
 21.2306940 -76.1899363   0.0000000
 21.2375367 -76.0818717   0.0000000
 21.2443793 -76.2192603   0.0000000
 21.2512219 -76.2720181   0.0000000
 21.2580645 -76.0417937   0.0000000
 21.2649071 -76.2676222   0.0000000
 21.2717498 -76.1940028   0.0000000
 21.2785924 -76.1877323   0.0000000
 21.2854350 -76.1597025   0.0000000
 21.2922776 -76.0747638   0.0000000
 21.2991202 -76.1992740   0.0000000
 21.3059629 -76.2175526   0.0000000
 21.3128055 -76.0756638   0.0000000
 21.3196481 -76.1691755   0.0000000
 21.3264907 -76.2191562   0.0000000
 21.3333333 -76.1585482   0.0000000
 21.3401760 -76.0333050   0.0000000
 21.3470186 -76.2728949   0.0000000
 21.3538612 -76.1683438   0.0000000
 21.3607038 -76.1321626   0.0000000
 21.3675464 -76.2115778   0.0000000
 21.3743891 -76.1645940   0.0000000
 21.3812317 -76.2837047   0.0000000
 21.3880743 -76.1976530   0.0000000
 21.3949169 -76.0872797   0.0000000
 21.4017595 -76.2214145   0.0000000
 21.4086022 -76.1327327   0.0000000
 21.4154448 -76.1815804   0.0000000
 21.4222874 -76.1775056   0.0000000
 21.4291300 -76.1976532   0.0000000
 21.4359726 -76.4114021   0.0000000
 21.4428152 -76.2432093   0.0000000
 21.4496579 -76.2830853   0.0000000
 21.4565005 -76.3506396   0.0000000
 21.4633431 -76.1505677   0.0000000
 21.4701857 -76.2879538   0.0000000
 21.4770283 -76.1074869   0.0000000
 21.4838710 -76.1721433   0.0000000
 21.4907136 -76.1851902   0.0000000
 21.4975562 -76.1570832   0.0000000
 21.5043988 -76.1631151   0.0000000
 21.5112414 -76.2001108   0.0000000
 21.5180841 -76.0888753   0.0000000
 21.5249267 -76.0862966   0.0000000
 21.5317693 -76.1223314   0.0000000
 21.5386119 -76.1805550   0.0000000
 21.5454545 -76.3329849   0.0000000
 21.5522972 -76.1550438   0.0000000
 21.5591398 -76.1554975   0.0000000
 21.5659824 -76.1694787   0.0000000
 21.5728250 -76.0295484   0.0000000
 21.5796676 -76.1833465   0.0000000
 21.5865103 -76.2610155   0.0000000
 21.5933529 -76.1212160   0.0000000
 21.6001955 -76.2966407   0.0000000
 21.6070381 -76.0272393   0.0000000
 21.6138807 -76.1124642   0.0000000
 21.6207234 -75.9584015   0.0000000
 21.6275660 -76.3472591   0.0000000
 21.6344086 -76.2367599   0.0000000
 21.6412512 -76.1124415   0.0000000
 21.6480938 -76.0224105   0.0000000
 21.6549365 -76.2648352   0.0000000
 21.6617791 -76.2937151   0.0000000
 21.6686217 -76.2082265   0.0000000
 21.6754643 -76.1536320   0.0000000
 21.6823069 -76.0350062   0.0000000
 21.6891496 -76.2226169   0.0000000
 21.6959922 -76.1788553   0.0000000
 21.7028348 -76.2437727   0.0000000
 21.7096774 -76.1007673   0.0000000
 21.7165200 -76.2576819   0.0000000
 21.7233627 -76.2732357   0.0000000
 21.7302053 -76.2853590   0.0000000
 21.7370479 -76.1705022   0.0000000
 21.7438905 -76.1589755   0.0000000
 21.7507331 -76.1900969   0.0000000
 21.7575758 -76.2576140   0.0000000
 21.7644184 -76.1812093   0.0000000
 21.7712610 -76.0991133   0.0000000
 21.7781036 -76.3093235   0.0000000
 21.7849462 -76.2058221   0.0000000
 21.7917889 -76.2790902   0.0000000
 21.7986315 -76.2752259   0.0000000
 21.8054741 -76.2066386   0.0000000
 21.8123167 -76.1982980   0.0000000
 21.8191593 -76.2426299   0.0000000
 21.8260020 -76.2570737   0.0000000
 21.8328446 -76.2468212   0.0000000
 21.8396872 -76.2705536   0.0000000
 21.8465298 -76.2224744   0.0000000
 21.8533724 -75.9472004   0.0000000
 21.8602151 -76.2768926   0.0000000
 21.8670577 -76.1730576   0.0000000
 21.8739003 -76.2224250   0.0000000
 21.8807429 -76.2161784   0.0000000
 21.8875855 -76.0792212   0.0000000
 21.8944282 -76.2221135   0.0000000
 21.9012708 -76.1006784   0.0000000
 21.9081134 -76.3269774   0.0000000
 21.9149560 -76.3259352   0.0000000
 21.9217986 -76.0381503   0.0000000
 21.9286413 -76.2017335   0.0000000
 21.9354839 -76.1120264   0.0000000
 21.9423265 -76.1620068   0.0000000
 21.9491691 -76.0574062   0.0000000
 21.9560117 -76.2223788   0.0000000
 21.9628543 -76.3821759   0.0000000
 21.9696970 -76.2851976   0.0000000
 21.9765396 -76.2785898   0.0000000
 21.9833822 -76.2114984   0.0000000
 21.9902248 -76.1806951   0.0000000
 21.9970674 -76.0805913   0.0000000
 22.0039101 -76.2608946   0.0000000
 22.0107527 -76.1986124   0.0000000
 22.0175953 -76.2543321   0.0000000
 22.0244379 -76.0603240   0.0000000
 22.0312805 -76.1616830   0.0000000
 22.0381232 -76.2479876   0.0000000
 22.0449658 -76.2788210   0.0000000
 22.0518084 -76.3264064   0.0000000
 22.0586510 -76.3598256   0.0000000
 22.0654936 -76.2847163   0.0000000
 22.0723363 -76.1622757   0.0000000
 22.0791789 -76.2654384   0.0000000
 22.0860215 -76.2708104   0.0000000
 22.0928641 -76.0931658   0.0000000
 22.0997067 -76.2229633   0.0000000
 22.1065494 -76.2137370   0.0000000
 22.1133920 -76.2023984   0.0000000
 22.1202346 -76.1631989   0.0000000
 22.1270772 -76.3340802   0.0000000
 22.1339198 -76.2083509   0.0000000
 22.1407625 -76.1250034   0.0000000
 22.1476051 -76.2007872   0.0000000
 22.1544477 -76.1392849   0.0000000
 22.1612903 -76.2227681   0.0000000
 22.1681329 -76.1666881   0.0000000
 22.1749756 -76.2749968   0.0000000
 22.1818182 -76.2456698   0.0000000
 22.1886608 -76.1056606   0.0000000
 22.1955034 -76.1547742   0.0000000
 22.2023460 -76.1759805   0.0000000
 22.2091887 -76.1184572   0.0000000
 22.2160313 -76.3223186   0.0000000
 22.2228739 -76.1911986   0.0000000
 22.2297165 -76.1539106   0.0000000
 22.2365591 -76.1628216   0.0000000
 22.2434018 -76.3116439   0.0000000
 22.2502444 -76.1983849   0.0000000
 22.2570870 -76.1299301   0.0000000
 22.2639296 -76.2280787   0.0000000
 22.2707722 -76.0769104   0.0000000
 22.2776149 -76.2521622   0.0000000
 22.2844575 -76.2100767   0.0000000
 22.2913001 -76.1976509   0.0000000
 22.2981427 -76.1688849   0.0000000
 22.3049853 -76.1347849   0.0000000
 22.3118280 -76.2267038   0.0000000
 22.3186706 -76.1121187   0.0000000
 22.3255132 -76.1330753   0.0000000
 22.3323558 -76.1616559   0.0000000
 22.3391984 -76.2165785   0.0000000
 22.3460411 -76.1986584   0.0000000
 22.3528837 -76.0849947   0.0000000
 22.3597263 -76.1284920   0.0000000
 22.3665689 -76.0883251   0.0000000
 22.3734115 -76.2434989   0.0000000
 22.3802542 -76.2541745   0.0000000
 22.3870968 -76.2261384   0.0000000
 22.3939394 -76.1367290   0.0000000
 22.4007820 -76.1775549   0.0000000
 22.4076246 -76.0953766   0.0000000
 22.4144673 -76.2227349   0.0000000
 22.4213099 -76.3130922   0.0000000
 22.4281525 -76.2275148   0.0000000
 22.4349951 -76.1705407   0.0000000
 22.4418377 -76.0675445   0.0000000
 22.4486804 -76.0796535   0.0000000
 22.4555230 -76.2976612   0.0000000
 22.4623656 -76.2779215   0.0000000
 22.4692082 -76.1702732   0.0000000
 22.4760508 -76.2787330   0.0000000
 22.4828935 -76.2584718   0.0000000
 22.4897361 -76.0816635   0.0000000
 22.4965787 -76.2022132   0.0000000
 22.5034213 -76.2647173   0.0000000
 22.5102639 -76.2465862   0.0000000
 22.5171065 -76.1345401   0.0000000
 22.5239492 -76.2721381   0.0000000
 22.5307918 -76.1296965   0.0000000
 22.5376344 -76.1872241   0.0000000
 22.5444770 -76.2627462   0.0000000
 22.5513196 -76.1893464   0.0000000
 22.5581623 -76.3053754   0.0000000
 22.5650049 -76.2211414   0.0000000
 22.5718475 -76.1039280   0.0000000
 22.5786901 -76.2024698   0.0000000
 22.5855327 -76.2149368   0.0000000
 22.5923754 -76.2699138   0.0000000
 22.5992180 -76.2428311   0.0000000
 22.6060606 -76.2466607   0.0000000
 22.6129032 -76.2513656   0.0000000
 22.6197458 -76.1605222   0.0000000
 22.6265885 -76.2343877   0.0000000
 22.6334311 -76.2291540   0.0000000
 22.6402737 -76.3788871   0.0000000
 22.6471163 -76.1778322   0.0000000
 22.6539589 -76.1835704   0.0000000
 22.6608016 -76.2205373   0.0000000
 22.6676442 -76.0714249   0.0000000
 22.6744868 -76.0772173   0.0000000
 22.6813294 -76.3056951   0.0000000
