! ListType=Lin
# MHz S DB R 50
 98.0000000 -76.1769174   0.0000000
 98.0039101 -76.1710734   0.0000000
 98.0078201 -76.2040506   0.0000000
 98.0117302 -76.2316791   0.0000000
 98.0156403 -76.1947531   0.0000000
 98.0195503 -76.1119250   0.0000000
 98.0234604 -76.2816312   0.0000000
 98.0273705 -76.2952286   0.0000000
 98.0312805 -76.2833734   0.0000000
 98.0351906 -76.2232040   0.0000000
 98.0391007 -76.3431533   0.0000000
 98.0430108 -76.2719335   0.0000000
 98.0469208 -76.2505227   0.0000000
 98.0508309 -76.1460265   0.0000000
 98.0547410 -76.2123361   0.0000000
 98.0586510 -76.2035669   0.0000000
 98.0625611 -76.0310774   0.0000000
 98.0664712 -75.9992966   0.0000000
 98.0703812 -75.9604119   0.0000000
 98.0742913 -75.8984060   0.0000000
 98.0782014 -75.8601667   0.0000000
 98.0821114 -75.7540722   0.0000000
 98.0860215 -75.8911261   0.0000000
 98.0899316 -75.5660975   0.0000000
 98.0938416 -75.7846923   0.0000000
 98.0977517 -75.7753453   0.0000000
 98.1016618 -75.6068720   0.0000000
 98.1055718 -75.3921256   0.0000000
 98.1094819 -75.7301748   0.0000000
 98.1133920 -75.8553852   0.0000000
 98.1173021 -75.8971972   0.0000000
 98.1212121 -75.9821019   0.0000000
 98.1251222 -75.9772569   0.0000000
 98.1290323 -75.9694775   0.0000000
 98.1329423 -75.9482861   0.0000000
 98.1368524 -76.1069525   0.0000000
 98.1407625 -76.1718214   0.0000000
 98.1446725 -76.0602958   0.0000000
 98.1485826 -76.1637932   0.0000000
 98.1524927 -76.2157975   0.0000000
 98.1564027 -76.2330910   0.0000000
 98.1603128 -76.4873172   0.0000000
 98.1642229 -76.3804285   0.0000000
 98.1681329 -76.3239099   0.0000000
 98.1720430 -76.2407408   0.0000000
 98.1759531 -76.3321758   0.0000000
 98.1798631 -76.1967005   0.0000000
 98.1837732 -76.2148343   0.0000000
 98.1876833 -76.1920085   0.0000000
 98.1915934 -76.2024959   0.0000000
 98.1955034 -76.4302351   0.0000000
 98.1994135 -76.2337727   0.0000000
 98.2033236 -76.4007359   0.0000000
 98.2072336 -76.3281307   0.0000000
 98.2111437 -76.3343162   0.0000000
 98.2150538 -76.2632063   0.0000000
 98.2189638 -76.3017750   0.0000000
 98.2228739 -76.2970286   0.0000000
 98.2267840 -76.3454141   0.0000000
 98.2306940 -76.1873739   0.0000000
 98.2346041 -76.3804837   0.0000000
 98.2385142 -76.2751896   0.0000000
 98.2424242 -76.1898298   0.0000000
 98.2463343 -76.1730679   0.0000000
 98.2502444 -76.2375611   0.0000000
 98.2541544 -76.2030922   0.0000000
 98.2580645 -76.3840049   0.0000000
 98.2619746 -76.3281856   0.0000000
 98.2658847 -76.2666948   0.0000000
 98.2697947 -76.2731049   0.0000000
 98.2737048 -76.4573429   0.0000000
 98.2776149 -76.3315561   0.0000000
 98.2815249 -76.2706560   0.0000000
 98.2854350 -76.5160075   0.0000000
 98.2893451 -76.2707445   0.0000000
 98.2932551 -76.2647327   0.0000000
 98.2971652 -76.2889051   0.0000000
 98.3010753 -76.4648312   0.0000000
 98.3049853 -76.3607389   0.0000000
 98.3088954 -76.2710991   0.0000000
 98.3128055 -76.3300861   0.0000000
 98.3167155 -76.5387036   0.0000000
 98.3206256 -76.3457541   0.0000000
 98.3245357 -76.2177135   0.0000000
 98.3284457 -76.4153088   0.0000000
 98.3323558 -76.3472599   0.0000000
 98.3362659 -76.4757712   0.0000000
 98.3401760 -76.2525492   0.0000000
 98.3440860 -76.3467970   0.0000000
 98.3479961 -76.3737526   0.0000000
 98.3519062 -76.3666076   0.0000000
 98.3558162 -76.3626830   0.0000000
 98.3597263 -76.3436296   0.0000000
 98.3636364 -76.3519807   0.0000000
 98.3675464 -76.1943441   0.0000000
 98.3714565 -76.3578083   0.0000000
 98.3753666 -76.2774473   0.0000000
 98.3792766 -76.3755985   0.0000000
 98.3831867 -76.3956761   0.0000000
 98.3870968 -76.1231833   0.0000000
 98.3910068 -76.2980227   0.0000000
 98.3949169 -76.2591322   0.0000000
 98.3988270 -76.2314504   0.0000000
 98.4027370 -76.3191248   0.0000000
 98.4066471 -76.2339034   0.0000000
 98.4105572 -76.3157176   0.0000000
 98.4144673 -76.4025233   0.0000000
 98.4183773 -76.2611548   0.0000000
 98.4222874 -76.1532399   0.0000000
 98.4261975 -76.3196502   0.0000000
 98.4301075 -76.3841950   0.0000000
 98.4340176 -76.3665583   0.0000000
 98.4379277 -76.4723528   0.0000000
 98.4418377 -76.4252415   0.0000000
 98.4457478 -76.3032590   0.0000000
 98.4496579 -76.3851830   0.0000000
 98.4535679 -76.2848203   0.0000000
 98.4574780 -76.4325501   0.0000000
 98.4613881 -76.5266047   0.0000000
 98.4652981 -76.3218754   0.0000000
 98.4692082 -76.3895123   0.0000000
 98.4731183 -76.2762427   0.0000000
 98.4770283 -76.2981387   0.0000000
 98.4809384 -76.2811698   0.0000000
 98.4848485 -76.3993445   0.0000000
 98.4887586 -76.4478750   0.0000000
 98.4926686 -76.3532882   0.0000000
 98.4965787 -76.4217133   0.0000000
 98.5004888 -76.2435496   0.0000000
 98.5043988 -76.2997853   0.0000000
 98.5083089 -76.3449174   0.0000000
 98.5122190 -76.2803511   0.0000000
 98.5161290 -76.1304933   0.0000000
 98.5200391 -76.2820099   0.0000000
 98.5239492 -76.3103138   0.0000000
 98.5278592 -76.4124044   0.0000000
 98.5317693 -76.3114926   0.0000000
 98.5356794 -76.4151270   0.0000000
 98.5395894 -76.1792399   0.0000000
 98.5434995 -76.0715528   0.0000000
 98.5474096 -76.3549577   0.0000000
 98.5513196 -76.2901999   0.0000000
 98.5552297 -76.0889671   0.0000000
 98.5591398 -76.1957284   0.0000000
 98.5630499 -76.3837381   0.0000000
 98.5669599 -76.2916443   0.0000000
 98.5708700 -76.2231626   0.0000000
 98.5747801 -76.2005607   0.0000000
 98.5786901 -76.2358981   0.0000000
 98.5826002 -76.3942873   0.0000000
 98.5865103 -76.2805753   0.0000000
 98.5904203 -76.3085601   0.0000000
 98.5943304 -76.3282495   0.0000000
 98.5982405 -76.3576588   0.0000000
 98.6021505 -76.3644163   0.0000000
 98.6060606 -76.4141298   0.0000000
 98.6099707 -76.5109755   0.0000000
 98.6138807 -76.2321122   0.0000000
 98.6177908 -76.2720578   0.0000000
 98.6217009 -76.2391054   0.0000000
 98.6256109 -76.2550505   0.0000000
 98.6295210 -76.3700815   0.0000000
 98.6334311 -76.1846886   0.0000000
 98.6373412 -76.3986591   0.0000000
 98.6412512 -76.3475928   0.0000000
 98.6451613 -76.1758411   0.0000000
 98.6490714 -76.1027394   0.0000000
 98.6529814 -76.2482515   0.0000000
 98.6568915 -76.2099889   0.0000000
 98.6608016 -76.2529076   0.0000000
 98.6647116 -76.3089501   0.0000000
 98.6686217 -76.2121850   0.0000000
 98.6725318 -76.2797455   0.0000000
 98.6764418 -76.1829490   0.0000000
 98.6803519 -76.3764705   0.0000000
 98.6842620 -76.2954104   0.0000000
 98.6881720 -76.1799888   0.0000000
 98.6920821 -76.2979926   0.0000000
 98.6959922 -76.4320953   0.0000000
 98.6999022 -76.3523596   0.0000000
 98.7038123 -76.1865635   0.0000000
 98.7077224 -76.1384499   0.0000000
 98.7116325 -76.1846936   0.0000000
 98.7155425 -76.2979736   0.0000000
 98.7194526 -76.1435931   0.0000000
 98.7233627 -76.1215472   0.0000000
 98.7272727 -76.1856150   0.0000000
 98.7311828 -76.2326221   0.0000000
 98.7350929 -76.2500529   0.0000000
 98.7390029 -76.2506087   0.0000000
 98.7429130 -76.1827487   0.0000000
 98.7468231 -76.4067096   0.0000000
 98.7507331 -76.2436358   0.0000000
 98.7546432 -76.2451301   0.0000000
 98.7585533 -76.1210946   0.0000000
 98.7624633 -76.1676538   0.0000000
 98.7663734 -76.2313425   0.0000000
 98.7702835 -76.1412974   0.0000000
 98.7741935 -76.2101898   0.0000000
 98.7781036 -76.1754084   0.0000000
 98.7820137 -76.2690110   0.0000000
 98.7859238 -76.1867110   0.0000000
 98.7898338 -76.1473752   0.0000000
 98.7937439 -76.0484478   0.0000000
 98.7976540 -76.0699425   0.0000000
 98.8015640 -76.1765461   0.0000000
 98.8054741 -76.0241768   0.0000000
 98.8093842 -76.0242307   0.0000000
 98.8132942 -76.1014504   0.0000000
 98.8172043 -76.1440710   0.0000000
 98.8211144 -76.0180814   0.0000000
 98.8250244 -76.1184658   0.0000000
 98.8289345 -76.1158243   0.0000000
 98.8328446 -76.0820674   0.0000000
 98.8367546 -76.0511109   0.0000000
 98.8406647 -76.0102744   0.0000000
 98.8445748 -76.0410656   0.0000000
 98.8484848 -76.0912214   0.0000000
 98.8523949 -76.1054315   0.0000000
 98.8563050 -76.1187252   0.0000000
 98.8602151 -76.2370503   0.0000000
 98.8641251 -76.0415171   0.0000000
 98.8680352 -76.1207010   0.0000000
 98.8719453 -75.9884629   0.0000000
 98.8758553 -76.0029160   0.0000000
 98.8797654 -76.2008429   0.0000000
 98.8836755 -76.2650468   0.0000000
 98.8875855 -76.0767309   0.0000000
 98.8914956 -76.1512476   0.0000000
 98.8954057 -76.0274904   0.0000000
 98.8993157 -76.1055883   0.0000000
 98.9032258 -76.1239291   0.0000000
 98.9071359 -76.0950759   0.0000000
 98.9110459 -76.0933379   0.0000000
 98.9149560 -76.0814634   0.0000000
 98.9188661 -75.9142698   0.0000000
 98.9227761 -75.9822376   0.0000000
 98.9266862 -76.2056427   0.0000000
 98.9305963 -76.0543032   0.0000000
 98.9345064 -75.9675778   0.0000000
 98.9384164 -76.0609644   0.0000000
 98.9423265 -75.9236585   0.0000000
 98.9462366 -75.9250090   0.0000000
 98.9501466 -75.9975699   0.0000000
 98.9540567 -75.9643446   0.0000000
 98.9579668 -76.0304622   0.0000000
 98.9618768 -76.0409385   0.0000000
 98.9657869 -75.8557843   0.0000000
 98.9696970 -75.9003112   0.0000000
 98.9736070 -76.0352533   0.0000000
 98.9775171 -76.0976530   0.0000000
 98.9814272 -75.8923978   0.0000000
 98.9853372 -75.7573875   0.0000000
 98.9892473 -75.7870335   0.0000000
 98.9931574 -75.8529057   0.0000000
 98.9970674 -75.8403833   0.0000000
 99.0009775 -75.9103144   0.0000000
 99.0048876 -75.9285059   0.0000000
 99.0087977 -75.8776285   0.0000000
 99.0127077 -75.7824749   0.0000000
 99.0166178 -75.8621967   0.0000000
 99.0205279 -75.8715955   0.0000000
 99.0244379 -75.8642630   0.0000000
 99.0283480 -75.8238214   0.0000000
 99.0322581 -75.9039822   0.0000000
 99.0361681 -75.8709117   0.0000000
 99.0400782 -75.5955887   0.0000000
 99.0439883 -75.8339521   0.0000000
 99.0478983 -75.7055632   0.0000000
 99.0518084 -75.7953362   0.0000000
 99.0557185 -75.6964097   0.0000000
 99.0596285 -75.7722736   0.0000000
 99.0635386 -75.7326330   0.0000000
 99.0674487 -75.6271362   0.0000000
 99.0713587 -75.6808622   0.0000000
 99.0752688 -75.4258026   0.0000000
 99.0791789 -75.6159510   0.0000000
 99.0830890 -75.7082285   0.0000000
 99.0869990 -75.5163631   0.0000000
 99.0909091 -75.4064968   0.0000000
 99.0948192 -75.4620714   0.0000000
 99.0987292 -75.5286184   0.0000000
 99.1026393 -75.6837488   0.0000000
 99.1065494 -75.4075510   0.0000000
 99.1104594 -75.5031280   0.0000000
 99.1143695 -75.6207737   0.0000000
 99.1182796 -75.5086852   0.0000000
 99.1221896 -75.5137111   0.0000000
 99.1260997 -75.5273847   0.0000000
 99.1300098 -75.6467755   0.0000000
 99.1339198 -75.4638360   0.0000000
 99.1378299 -75.7235347   0.0000000
 99.1417400 -75.5560552   0.0000000
 99.1456500 -75.4900430   0.0000000
 99.1495601 -75.5856333   0.0000000
 99.1534702 -75.4518423   0.0000000
 99.1573803 -75.5590627   0.0000000
 99.1612903 -75.6473717   0.0000000
 99.1652004 -75.5812557   0.0000000
 99.1691105 -75.6102727   0.0000000
 99.1730205 -75.6957589   0.0000000
 99.1769306 -75.5935555   0.0000000
 99.1808407 -75.6213887   0.0000000
 99.1847507 -75.6748439   0.0000000
 99.1886608 -75.4775343   0.0000000
 99.1925709 -75.6083329   0.0000000
 99.1964809 -75.4626436   0.0000000
 99.2003910 -75.6137914   0.0000000
 99.2043011 -75.3445918   0.0000000
 99.2082111 -75.3394752   0.0000000
 99.2121212 -75.5103977   0.0000000
 99.2160313 -75.3693301   0.0000000
 99.2199413 -75.7207269   0.0000000
 99.2238514 -75.5197766   0.0000000
 99.2277615 -75.5372721   0.0000000
 99.2316716 -75.6398889   0.0000000
 99.2355816 -75.4741690   0.0000000
 99.2394917 -75.4668900   0.0000000
 99.2434018 -75.5411399   0.0000000
 99.2473118 -75.4696607   0.0000000
 99.2512219 -75.3867444   0.0000000
 99.2551320 -75.4476531   0.0000000
 99.2590420 -75.5238866   0.0000000
 99.2629521 -75.5215816   0.0000000
 99.2668622 -75.4448104   0.0000000
 99.2707722 -75.3853230   0.0000000
 99.2746823 -75.4121014   0.0000000
 99.2785924 -75.4512677   0.0000000
 99.2825024 -75.5319901   0.0000000
 99.2864125 -75.2798835   0.0000000
 99.2903226 -75.0584121   0.0000000
 99.2942326 -75.4676978   0.0000000
 99.2981427 -75.3925692   0.0000000
 99.3020528 -75.4464415   0.0000000
 99.3059629 -75.3704107   0.0000000
 99.3098729 -75.1877647   0.0000000
 99.3137830 -75.4735718   0.0000000
 99.3176931 -75.2743580   0.0000000
 99.3216031 -75.3248774   0.0000000
 99.3255132 -75.4943471   0.0000000
 99.3294233 -75.2235927   0.0000000
 99.3333333 -74.8845397   0.0000000
 99.3372434 -75.2160399   0.0000000
 99.3411535 -75.2823205   0.0000000
 99.3450635 -75.2874757   0.0000000
 99.3489736 -75.4476208   0.0000000
 99.3528837 -75.4524813   0.0000000
 99.3567937 -75.2570184   0.0000000
 99.3607038 -75.1860142   0.0000000
 99.3646139 -75.2267976   0.0000000
 99.3685239 -75.1063568   0.0000000
 99.3724340 -75.4411834   0.0000000
 99.3763441 -75.0690237   0.0000000
 99.3802542 -75.1849680   0.0000000
 99.3841642 -75.2867931   0.0000000
 99.3880743 -75.3168792   0.0000000
 99.3919844 -75.2426154   0.0000000
 99.3958944 -74.9523628   0.0000000
 99.3998045 -75.1827497   0.0000000
 99.4037146 -75.0380283   0.0000000
 99.4076246 -75.0181673   0.0000000
 99.4115347 -75.0928616   0.0000000
 99.4154448 -75.1340436   0.0000000
 99.4193548 -75.1384055   0.0000000
 99.4232649 -75.0985148   0.0000000
 99.4271750 -75.1118992   0.0000000
 99.4310850 -74.9893701   0.0000000
 99.4349951 -74.9811688   0.0000000
 99.4389052 -74.9573747   0.0000000
 99.4428152 -74.8647106   0.0000000
 99.4467253 -74.9291408   0.0000000
 99.4506354 -74.9306060   0.0000000
 99.4545455 -74.8041881   0.0000000
 99.4584555 -74.9062946   0.0000000
 99.4623656 -74.7960525   0.0000000
 99.4662757 -74.8784498   0.0000000
 99.4701857 -74.7239314   0.0000000
 99.4740958 -74.8679710   0.0000000
 99.4780059 -74.6207780   0.0000000
 99.4819159 -74.6426607   0.0000000
 99.4858260 -74.7501878   0.0000000
 99.4897361 -74.4378667   0.0000000
 99.4936461 -74.3147884   0.0000000
 99.4975562 -74.1976566   0.0000000
 99.5014663 -74.2386787   0.0000000
 99.5053763 -74.2819121   0.0000000
 99.5092864 -74.3778548   0.0000000
 99.5131965 -74.5427149   0.0000000
 99.5171065 -74.6527215   0.0000000
 99.5210166 -74.4784093   0.0000000
 99.5249267 -74.4760495   0.0000000
 99.5288368 -74.4435726   0.0000000
 99.5327468 -74.4555978   0.0000000
 99.5366569 -74.3635670   0.0000000
 99.5405670 -74.2061466   0.0000000
 99.5444770 -74.3664773   0.0000000
 99.5483871 -74.3215084   0.0000000
 99.5522972 -74.1106353   0.0000000
 99.5562072 -74.1597154   0.0000000
 99.5601173 -73.9919525   0.0000000
 99.5640274 -74.0380917   0.0000000
 99.5679374 -74.0825598   0.0000000
 99.5718475 -73.8234937   0.0000000
 99.5757576 -73.8551928   0.0000000
 99.5796676 -73.8161090   0.0000000
 99.5835777 -73.8474510   0.0000000
 99.5874878 -73.7213023   0.0000000
 99.5913978 -73.7782681   0.0000000
 99.5953079 -73.6154035   0.0000000
 99.5992180 -73.6301065   0.0000000
 99.6031281 -73.5059439   0.0000000
 99.6070381 -73.5557604   0.0000000
 99.6109482 -73.5963919   0.0000000
 99.6148583 -73.4459077   0.0000000
 99.6187683 -73.2912783   0.0000000
 99.6226784 -73.1979405   0.0000000
 99.6265885 -73.1754613   0.0000000
 99.6304985 -72.9857304   0.0000000
 99.6344086 -72.9642204   0.0000000
 99.6383187 -72.8974445   0.0000000
 99.6422287 -72.9304862   0.0000000
 99.6461388 -72.8020695   0.0000000
 99.6500489 -72.7545471   0.0000000
 99.6539589 -72.5443160   0.0000000
 99.6578690 -72.6970838   0.0000000
 99.6617791 -72.5679568   0.0000000
 99.6656891 -72.3486080   0.0000000
 99.6695992 -72.3178046   0.0000000
 99.6735093 -72.3615426   0.0000000
 99.6774194 -71.9010664   0.0000000
 99.6813294 -71.8393522   0.0000000
 99.6852395 -71.9095269   0.0000000
 99.6891496 -71.9076453   0.0000000
 99.6930596 -71.7802888   0.0000000
 99.6969697 -71.6763120   0.0000000
 99.7008798 -71.5277357   0.0000000
 99.7047898 -71.4142338   0.0000000
 99.7086999 -71.4977588   0.0000000
 99.7126100 -71.1005957   0.0000000
 99.7165200 -70.9934005   0.0000000
 99.7204301 -71.1456526   0.0000000
 99.7243402 -70.6167092   0.0000000
 99.7282502 -70.4389860   0.0000000
 99.7321603 -70.2697426   0.0000000
 99.7360704 -70.0428461   0.0000000
 99.7399804 -70.0775696   0.0000000
 99.7438905 -70.0564564   0.0000000
 99.7478006 -69.7674658   0.0000000
 99.7517107 -69.6903173   0.0000000
 99.7556207 -69.4228033   0.0000000
 99.7595308 -69.3545678   0.0000000
 99.7634409 -69.3243401   0.0000000
 99.7673509 -69.3585267   0.0000000
 99.7712610 -68.9885410   0.0000000
 99.7751711 -69.0800102   0.0000000
 99.7790811 -68.8009979   0.0000000
 99.7829912 -68.4938548   0.0000000
 99.7869013 -68.6112181   0.0000000
 99.7908113 -68.3221736   0.0000000
 99.7947214 -68.1873821   0.0000000
 99.7986315 -68.1314577   0.0000000
 99.8025415 -68.1026279   0.0000000
 99.8064516 -67.7233100   0.0000000
 99.8103617 -67.5090448   0.0000000
 99.8142717 -67.7106443   0.0000000
 99.8181818 -67.5690836   0.0000000
 99.8220919 -67.4445727   0.0000000
 99.8260020 -67.3957331   0.0000000
 99.8299120 -67.1607299   0.0000000
 99.8338221 -67.1916860   0.0000000
 99.8377322 -67.0099197   0.0000000
 99.8416422 -67.0850056   0.0000000
 99.8455523 -67.2163976   0.0000000
 99.8494624 -67.0843619   0.0000000
 99.8533724 -67.0090786   0.0000000
 99.8572825 -66.9608074   0.0000000
 99.8611926 -66.8677797   0.0000000
 99.8651026 -66.7001802   0.0000000
 99.8690127 -66.6838842   0.0000000
 99.8729228 -66.7777061   0.0000000
 99.8768328 -66.9140100   0.0000000
 99.8807429 -66.5104498   0.0000000
 99.8846530 -66.4516766   0.0000000
 99.8885630 -66.6089170   0.0000000
 99.8924731 -66.4618124   0.0000000
 99.8963832 -66.1445028   0.0000000
 99.9002933 -66.0057140   0.0000000
 99.9042033 -65.9315363   0.0000000
 99.9081134 -65.8747896   0.0000000
 99.9120235 -65.6649941   0.0000000
 99.9159335 -65.4875214   0.0000000
 99.9198436 -65.3024821   0.0000000
 99.9237537 -64.8675300   0.0000000
 99.9276637 -64.7194461   0.0000000
 99.9315738 -64.3942492   0.0000000
 99.9354839 -64.3445223   0.0000000
 99.9393939 -63.8151729   0.0000000
 99.9433040 -63.3954514   0.0000000
 99.9472141 -63.1908737   0.0000000
 99.9511241 -62.8936418   0.0000000
 99.9550342 -62.4518827   0.0000000
 99.9589443 -62.1469166   0.0000000
 99.9628543 -61.6879636   0.0000000
 99.9667644 -61.6012669   0.0000000
 99.9706745 -61.2946961   0.0000000
 99.9745846 -38.4539991   0.0000000
 99.9784946 -29.6825498   0.0000000
 99.9824047 -28.5210265   0.0000000
 99.9863148 -27.2895867   0.0000000
 99.9902248 -26.0971211   0.0000000
 99.9941349 -25.1194260   0.0000000
 99.9980450 -24.6285185   0.0000000
100.0019550 -24.7746861   0.0000000
100.0058651 -25.4207644   0.0000000
100.0097752 -26.4774547   0.0000000
100.0136852 -27.6846347   0.0000000
100.0175953 -28.9039526   0.0000000
100.0215054 -30.3977969   0.0000000
100.0254154 -50.4061113   0.0000000
100.0293255 -61.0347238   0.0000000
100.0332356 -61.3668990   0.0000000
100.0371457 -61.7841313   0.0000000
100.0410557 -62.2431656   0.0000000
100.0449658 -62.6296154   0.0000000
100.0488759 -62.8823722   0.0000000
100.0527859 -63.4147825   0.0000000
100.0566960 -63.6337427   0.0000000
100.0606061 -64.0905788   0.0000000
100.0645161 -64.2500021   0.0000000
100.0684262 -64.5581529   0.0000000
100.0723363 -65.0248189   0.0000000
100.0762463 -65.1346051   0.0000000
100.0801564 -65.3025090   0.0000000
100.0840665 -65.6263711   0.0000000
100.0879765 -65.6858558   0.0000000
100.0918866 -65.9672887   0.0000000
100.0957967 -66.2708870   0.0000000
100.0997067 -66.1238905   0.0000000
100.1036168 -66.4168272   0.0000000
