! ListType=Lin
# MHZ S DB R 50
 40.0000000  -4.3140591 144.1236243 -53.2681547 -119.5918992 -3000.0000000 -90.0000000 -3000.0000000 -90.0000000
 40.0586224  -4.3139770 144.0642157 -53.2046529 -119.5812752 -3000.0000000 -90.0000000 -3000.0000000 -90.0000000
 40.1172447  -4.3139876 143.9981835 -53.2143858 -119.5737811 -3000.0000000 -90.0000000 -3000.0000000 -90.0000000
 40.1758671  -4.3154178 143.9203323 -53.1726304 -119.7142794 -3000.0000000 -90.0000000 -3000.0000000 -90.0000000
 40.2344895  -4.3151915 143.8461145 -53.1041296 -119.7065456 -3000.0000000 -90.0000000 -3000.0000000 -90.0000000
 40.2931119  -4.3148380 143.7752239 -53.0540343 -119.7964260 -3000.0000000 -90.0000000 -3000.0000000 -90.0000000
 40.3517342  -4.3148828 143.7063744 -53.0192529 -119.8224107 -3000.0000000 -90.0000000 -3000.0000000 -90.0000000
 40.4103566  -4.3149310 143.6325681 -52.9469560 -119.7627469 -3000.0000000 -90.0000000 -3000.0000000 -90.0000000
 40.4689790  -4.3148854 143.5567844 -52.9015112 -119.8393199 -3000.0000000 -90.0000000 -3000.0000000 -90.0000000
 40.5276014  -4.3160757 143.4842892 -52.8579074 -119.8688890 -3000.0000000 -90.0000000 -3000.0000000 -90.0000000
 40.5862237  -4.3160016 143.4161882 -52.7890502 -119.9981470 -3000.0000000 -90.0000000 -3000.0000000 -90.0000000
 40.6448461  -4.3160306 143.3438853 -52.7482739 -120.0035044 -3000.0000000 -90.0000000 -3000.0000000 -90.0000000
 40.7034685  -4.3164161 143.2700876 -52.6902816 -120.0708199 -3000.0000000 -90.0000000 -3000.0000000 -90.0000000
 40.7620909  -4.3161171 143.1951363 -52.6495203 -120.1640385 -3000.0000000 -90.0000000 -3000.0000000 -90.0000000
 40.8207132  -4.3168832 143.1236703 -52.5852834 -120.1530887 -3000.0000000 -90.0000000 -3000.0000000 -90.0000000
 40.8793356  -4.3178412 143.0484876 -52.5503053 -120.2010337 -3000.0000000 -90.0000000 -3000.0000000 -90.0000000
 40.9379580  -4.3170232 142.9782010 -52.4833958 -120.1961420 -3000.0000000 -90.0000000 -3000.0000000 -90.0000000
 40.9965804  -4.3172115 142.9027938 -52.4279405 -120.2526636 -3000.0000000 -90.0000000 -3000.0000000 -90.0000000
 41.0552027  -4.3181736 142.8291539 -52.3839738 -120.3096125 -3000.0000000 -90.0000000 -3000.0000000 -90.0000000
 41.1138251  -4.3183650 142.7537305 -52.3146544 -120.4637731 -3000.0000000 -90.0000000 -3000.0000000 -90.0000000
 41.1724475  -4.3180615 142.6807644 -52.2713539 -120.4361328 -3000.0000000 -90.0000000 -3000.0000000 -90.0000000
 41.2310699  -4.3178255 142.6079052 -52.2344175 -120.4363506 -3000.0000000 -90.0000000 -3000.0000000 -90.0000000
 41.2896922  -4.3184171 142.5340338 -52.1801113 -120.4722642 -3000.0000000 -90.0000000 -3000.0000000 -90.0000000
 41.3483146  -4.3188939 142.4619825 -52.1278177 -120.5147309 -3000.0000000 -90.0000000 -3000.0000000 -90.0000000
 41.4069370  -4.3188039 142.3870920 -52.0585338 -120.6228201 -3000.0000000 -90.0000000 -3000.0000000 -90.0000000
 41.4655594  -4.3186273 142.3063275 -52.0154079 -120.5733647 -3000.0000000 -90.0000000 -3000.0000000 -90.0000000
 41.5241817  -4.3188222 142.2356707 -51.9590630 -120.6431250 -3000.0000000 -90.0000000 -3000.0000000 -90.0000000
 41.5828041  -4.3197980 142.1637960 -51.9068370 -120.6741068 -3000.0000000 -90.0000000 -3000.0000000 -90.0000000
 41.6414265  -4.3198386 142.0853376 -51.8640101 -120.7885091 -3000.0000000 -90.0000000 -3000.0000000 -90.0000000
 41.7000489  -4.3204069 142.0109244 -51.8108233 -120.7832247 -3000.0000000 -90.0000000 -3000.0000000 -90.0000000
 41.7586712  -4.3201010 141.9376557 -51.7620826 -120.8847706 -3000.0000000 -90.0000000 -3000.0000000 -90.0000000
 41.8172936  -4.3200646 141.8623228 -51.7067140 -120.9448411 -3000.0000000 -90.0000000 -3000.0000000 -90.0000000
 41.8759160  -4.3209999 141.7844501 -51.6609720 -120.9126948 -3000.0000000 -90.0000000 -3000.0000000 -90.0000000
 41.9345383  -4.3204058 141.7138650 -51.6136010 -120.9503902 -3000.0000000 -90.0000000 -3000.0000000 -90.0000000
 41.9931607  -4.3208311 141.6365769 -51.5534315 -121.0536034 -3000.0000000 -90.0000000 -3000.0000000 -90.0000000
 42.0517831  -4.3206873 141.5594969 -51.5135374 -121.1116073 -3000.0000000 -90.0000000 -3000.0000000 -90.0000000
 42.1104055  -4.3215267 141.4869228 -51.4565965 -121.0992445 -3000.0000000 -90.0000000 -3000.0000000 -90.0000000
 42.1690278  -4.3220214 141.4079748 -51.4032554 -121.0932909 -3000.0000000 -90.0000000 -3000.0000000 -90.0000000
 42.2276502  -4.3219031 141.3341870 -51.3450894 -121.2633424 -3000.0000000 -90.0000000 -3000.0000000 -90.0000000
 42.2862726  -4.3222766 141.2545424 -51.2950871 -121.2391960 -3000.0000000 -90.0000000 -3000.0000000 -90.0000000
 42.3448950  -4.3225209 141.1759833 -51.2420929 -121.2693379 -3000.0000000 -90.0000000 -3000.0000000 -90.0000000
 42.4035173  -4.3221256 141.1057188 -51.1886534 -121.4488471 -3000.0000000 -90.0000000 -3000.0000000 -90.0000000
 42.4621397  -4.3226118 141.0272964 -51.1477875 -121.4085767 -3000.0000000 -90.0000000 -3000.0000000 -90.0000000
 42.5207621  -4.3232818 140.9528170 -51.0906271 -121.4647391 -3000.0000000 -90.0000000 -3000.0000000 -90.0000000
 42.5793845  -4.3230283 140.8764316 -51.0328214 -121.6115975 -3000.0000000 -90.0000000 -3000.0000000 -90.0000000
 42.6380068  -4.3233181 140.7932999 -50.9970394 -121.6102690 -3000.0000000 -90.0000000 -3000.0000000 -90.0000000
 42.6966292  -4.3234371 140.7184952 -50.9398086 -121.5758589 -3000.0000000 -90.0000000 -3000.0000000 -90.0000000
 42.7552516  -4.3236469 140.6431961 -50.8875856 -121.5651877 -3000.0000000 -90.0000000 -3000.0000000 -90.0000000
 42.8138740  -4.3239484 140.5650015 -50.8292305 -121.6396685 -3000.0000000 -90.0000000 -3000.0000000 -90.0000000
 42.8724963  -4.3244353 140.4886698 -50.7717974 -121.6496636 -3000.0000000 -90.0000000 -3000.0000000 -90.0000000
 42.9311187  -4.3246779 140.4098249 -50.7358472 -121.8027049 -3000.0000000 -90.0000000 -3000.0000000 -90.0000000
 42.9897411  -4.3242285 140.3287437 -50.6803530 -121.8186839 -3000.0000000 -90.0000000 -3000.0000000 -90.0000000
 43.0483635  -4.3243917 140.2575449 -50.6281744 -121.8595409 -3000.0000000 -90.0000000 -3000.0000000 -90.0000000
 43.1069858  -4.3250808 140.1745810 -50.5739106 -121.8945441 -3000.0000000 -90.0000000 -3000.0000000 -90.0000000
 43.1656082  -4.3254932 140.1000315 -50.5126676 -121.9635323 -3000.0000000 -90.0000000 -3000.0000000 -90.0000000
 43.2242306  -4.3258948 140.0183598 -50.4689712 -122.0436612 -3000.0000000 -90.0000000 -3000.0000000 -90.0000000
 43.2828530  -4.3261191 139.9436092 -50.4190522 -122.0576791 -3000.0000000 -90.0000000 -3000.0000000 -90.0000000
 43.3414753  -4.3266301 139.8632013 -50.3689635 -122.0555829 -3000.0000000 -90.0000000 -3000.0000000 -90.0000000
 43.4000977  -4.3267761 139.7862103 -50.3157991 -122.1545016 -3000.0000000 -90.0000000 -3000.0000000 -90.0000000
 43.4587201  -4.3268631 139.7042103 -50.2773479 -122.1717510 -3000.0000000 -90.0000000 -3000.0000000 -90.0000000
 43.5173425  -4.3272352 139.6229648 -50.2085267 -122.2417339 -3000.0000000 -90.0000000 -3000.0000000 -90.0000000
 43.5759648  -4.3270262 139.5527000 -50.1685440 -122.3251190 -3000.0000000 -90.0000000 -3000.0000000 -90.0000000
 43.6345872  -4.3273545 139.4729708 -50.1154945 -122.3287158 -3000.0000000 -90.0000000 -3000.0000000 -90.0000000
 43.6932096  -4.3275525 139.3976841 -50.0508445 -122.3624035 -3000.0000000 -90.0000000 -3000.0000000 -90.0000000
 43.7518319  -4.3281525 139.3146322 -50.0151776 -122.4201676 -3000.0000000 -90.0000000 -3000.0000000 -90.0000000
 43.8104543  -4.3284264 139.2364670 -49.9568543 -122.4422319 -3000.0000000 -90.0000000 -3000.0000000 -90.0000000
 43.8690767  -4.3282443 139.1543270 -49.9067168 -122.4646218 -3000.0000000 -90.0000000 -3000.0000000 -90.0000000
 43.9276991  -4.3282376 139.0700449 -49.8636047 -122.5914658 -3000.0000000 -90.0000000 -3000.0000000 -90.0000000
 43.9863214  -4.3291726 138.9927388 -49.8114703 -122.6025932 -3000.0000000 -90.0000000 -3000.0000000 -90.0000000
 44.0449438  -4.3294683 138.9134323 -49.7565006 -122.6119653 -3000.0000000 -90.0000000 -3000.0000000 -90.0000000
 44.1035662  -4.3295777 138.8319412 -49.7029071 -122.7055456 -3000.0000000 -90.0000000 -3000.0000000 -90.0000000
 44.1621886  -4.3298759 138.7500294 -49.6567005 -122.7746775 -3000.0000000 -90.0000000 -3000.0000000 -90.0000000
 44.2208109  -4.3301002 138.6756589 -49.6109623 -122.8040005 -3000.0000000 -90.0000000 -3000.0000000 -90.0000000
 44.2794333  -4.3305794 138.5885402 -49.5519051 -122.8041549 -3000.0000000 -90.0000000 -3000.0000000 -90.0000000
 44.3380557  -4.3303428 138.5112041 -49.5061603 -122.9413117 -3000.0000000 -90.0000000 -3000.0000000 -90.0000000
 44.3966781  -4.3306303 138.4295164 -49.4586121 -123.0149182 -3000.0000000 -90.0000000 -3000.0000000 -90.0000000
 44.4553004  -4.3305820 138.3482465 -49.3936767 -123.0898920 -3000.0000000 -90.0000000 -3000.0000000 -90.0000000
 44.5139228  -4.3305097 138.2660619 -49.3455708 -123.0582117 -3000.0000000 -90.0000000 -3000.0000000 -90.0000000
 44.5725452  -4.3308387 138.1849448 -49.2970902 -123.0988156 -3000.0000000 -90.0000000 -3000.0000000 -90.0000000
 44.6311676  -4.3318287 138.1072325 -49.2465821 -123.1323504 -3000.0000000 -90.0000000 -3000.0000000 -90.0000000
 44.6897899  -4.3319402 138.0268510 -49.1950811 -123.2153011 -3000.0000000 -90.0000000 -3000.0000000 -90.0000000
 44.7484123  -4.3320270 137.9442164 -49.1404050 -123.2765174 -3000.0000000 -90.0000000 -3000.0000000 -90.0000000
 44.8070347  -4.3322326 137.8658903 -49.0826431 -123.3298395 -3000.0000000 -90.0000000 -3000.0000000 -90.0000000
 44.8656571  -4.3325778 137.7775945 -49.0523976 -123.3894293 -3000.0000000 -90.0000000 -3000.0000000 -90.0000000
 44.9242794  -4.3326050 137.6959425 -48.9843826 -123.4521441 -3000.0000000 -90.0000000 -3000.0000000 -90.0000000
 44.9829018  -4.3331337 137.6151122 -48.9372174 -123.4323424 -3000.0000000 -90.0000000 -3000.0000000 -90.0000000
 45.0415242  -4.3339014 137.5340016 -48.8894891 -123.4263544 -3000.0000000 -90.0000000 -3000.0000000 -90.0000000
 45.1001466  -4.3340535 137.4545792 -48.8351830 -123.4431145 -3000.0000000 -90.0000000 -3000.0000000 -90.0000000
 45.1587689  -4.3345600 137.3639807 -48.7848159 -123.6780414 -3000.0000000 -90.0000000 -3000.0000000 -90.0000000
 45.2173913  -4.3347099 137.2845750 -48.7268029 -123.6860862 -3000.0000000 -90.0000000 -3000.0000000 -90.0000000
 45.2760137  -4.3358339 137.2047717 -48.6804135 -123.7174845 -3000.0000000 -90.0000000 -3000.0000000 -90.0000000
 45.3346361  -4.3370044 137.1179000 -48.6271194 -123.7001813 -3000.0000000 -90.0000000 -3000.0000000 -90.0000000
 45.3932584  -4.3383297 137.0250319 -48.5769710 -123.7891334 -3000.0000000 -90.0000000 -3000.0000000 -90.0000000
 45.4518808  -4.3387206 136.9156419 -48.5326300 -123.8588171 -3000.0000000 -90.0000000 -3000.0000000 -90.0000000
 45.5105032  -4.3383693 136.8153643 -48.4872826 -123.9327594 -3000.0000000 -90.0000000 -3000.0000000 -90.0000000
 45.5691255  -4.3357709 136.7354000 -48.4238358 -123.9303917 -3000.0000000 -90.0000000 -3000.0000000 -90.0000000
 45.6277479  -4.3346997 136.6633090 -48.3751328 -124.0328678 -3000.0000000 -90.0000000 -3000.0000000 -90.0000000
 45.6863703  -4.3352567 136.5871865 -48.3318781 -124.0213825 -3000.0000000 -90.0000000 -3000.0000000 -90.0000000
 45.7449927  -4.3348023 136.5114112 -48.2685380 -124.0898454 -3000.0000000 -90.0000000 -3000.0000000 -90.0000000
 45.8036150  -4.3351735 136.4278428 -48.2271253 -124.2439675 -3000.0000000 -90.0000000 -3000.0000000 -90.0000000
 45.8622374  -4.3361158 136.3439017 -48.1685265 -124.1865143 -3000.0000000 -90.0000000 -3000.0000000 -90.0000000
 45.9208598  -4.3352825 136.2572188 -48.1163127 -124.3109221 -3000.0000000 -90.0000000 -3000.0000000 -90.0000000
 45.9794822  -4.3355235 136.1775798 -48.0794110 -124.3520440 -3000.0000000 -90.0000000 -3000.0000000 -90.0000000
 46.0381045  -4.3359307 136.0906781 -48.0244688 -124.4319611 -3000.0000000 -90.0000000 -3000.0000000 -90.0000000
 46.0967269  -4.3356813 136.0031041 -47.9694437 -124.4276691 -3000.0000000 -90.0000000 -3000.0000000 -90.0000000
 46.1553493  -4.3366232 135.9150374 -47.9170146 -124.5006298 -3000.0000000 -90.0000000 -3000.0000000 -90.0000000
 46.2139717  -4.3358504 135.8217486 -47.8654594 -124.5250159 -3000.0000000 -90.0000000 -3000.0000000 -90.0000000
 46.2725940  -4.3363553 135.7380822 -47.8115369 -124.5368219 -3000.0000000 -90.0000000 -3000.0000000 -90.0000000
 46.3312164  -4.3366612 135.6451825 -47.7673419 -124.6092486 -3000.0000000 -90.0000000 -3000.0000000 -90.0000000
 46.3898388  -4.3369165 135.5618060 -47.7113333 -124.6690231 -3000.0000000 -90.0000000 -3000.0000000 -90.0000000
 46.4484612  -4.3367467 135.4752431 -47.6582862 -124.7188218 -3000.0000000 -90.0000000 -3000.0000000 -90.0000000
 46.5070835  -4.3379271 135.3866268 -47.6157352 -124.7499599 -3000.0000000 -90.0000000 -3000.0000000 -90.0000000
 46.5657059  -4.3385003 135.3060398 -47.5545542 -124.8325944 -3000.0000000 -90.0000000 -3000.0000000 -90.0000000
 46.6243283  -4.3387505 135.2146364 -47.5071166 -124.9014026 -3000.0000000 -90.0000000 -3000.0000000 -90.0000000
 46.6829507  -4.3382302 135.1232598 -47.4580803 -124.9717555 -3000.0000000 -90.0000000 -3000.0000000 -90.0000000
 46.7415730  -4.3389620 135.0423464 -47.4035925 -125.0303922 -3000.0000000 -90.0000000 -3000.0000000 -90.0000000
 46.8001954  -4.3390979 134.9544552 -47.3559065 -125.1068246 -3000.0000000 -90.0000000 -3000.0000000 -90.0000000
 46.8588178  -4.3401630 134.8689145 -47.3021725 -125.1338877 -3000.0000000 -90.0000000 -3000.0000000 -90.0000000
 46.9174402  -4.3402137 134.7850358 -47.2015994 -125.0174791 -3000.0000000 -90.0000000 -3000.0000000 -90.0000000
 46.9760625  -4.3405261 134.6973825 -47.1580230 -125.0877320 -3000.0000000 -90.0000000 -3000.0000000 -90.0000000
 47.0346849  -4.3410281 134.6099484 -47.1090075 -125.1410992 -3000.0000000 -90.0000000 -3000.0000000 -90.0000000
 47.0933073  -4.3376899 134.4931157 -47.0613351 -125.1946962 -3000.0000000 -90.0000000 -3000.0000000 -90.0000000
 47.1519297  -4.3395902 134.4478192 -47.0465874 -125.3951903 -3000.0000000 -90.0000000 -3000.0000000 -90.0000000
 47.2105520  -4.3401208 134.3611034 -47.0003116 -125.4550420 -3000.0000000 -90.0000000 -3000.0000000 -90.0000000
 47.2691744  -4.3407162 134.2703218 -46.9518690 -125.4795450 -3000.0000000 -90.0000000 -3000.0000000 -90.0000000
 47.3277968  -4.3409641 134.1839715 -46.8992148 -125.5787346 -3000.0000000 -90.0000000 -3000.0000000 -90.0000000
 47.3864191  -4.3413289 134.0953609 -46.8529301 -125.5716781 -3000.0000000 -90.0000000 -3000.0000000 -90.0000000
 47.4450415  -4.3418302 134.0050167 -46.7964477 -125.6719648 -3000.0000000 -90.0000000 -3000.0000000 -90.0000000
 47.5036639  -4.3419656 133.9163071 -46.7475282 -125.7566368 -3000.0000000 -90.0000000 -3000.0000000 -90.0000000
 47.5622863  -4.3420136 133.8270803 -46.6900547 -125.8486010 -3000.0000000 -90.0000000 -3000.0000000 -90.0000000
 47.6209086  -4.3424118 133.7374509 -46.6431609 -125.8112963 -3000.0000000 -90.0000000 -3000.0000000 -90.0000000
 47.6795310  -4.3422971 133.6435173 -46.5961760 -125.8841209 -3000.0000000 -90.0000000 -3000.0000000 -90.0000000
 47.7381534  -4.3427166 133.5520578 -46.5390609 -125.9617399 -3000.0000000 -90.0000000 -3000.0000000 -90.0000000
 47.7967758  -4.3432287 133.4669059 -46.4979629 -126.0641025 -3000.0000000 -90.0000000 -3000.0000000 -90.0000000
 47.8553981  -4.3437015 133.3764001 -46.4452106 -126.0372967 -3000.0000000 -90.0000000 -3000.0000000 -90.0000000
 47.9140205  -4.3433290 133.2854044 -46.3919724 -126.0933375 -3000.0000000 -90.0000000 -3000.0000000 -90.0000000
 47.9726429  -4.3443882 133.1897208 -46.3440949 -126.1465771 -3000.0000000 -90.0000000 -3000.0000000 -90.0000000
 48.0312653  -4.3438141 133.0985231 -46.2926542 -126.2401267 -3000.0000000 -90.0000000 -3000.0000000 -90.0000000
 48.0898876  -4.3443938 133.0107620 -46.2420334 -126.2779554 -3000.0000000 -90.0000000 -3000.0000000 -90.0000000
 48.1485100  -4.3450014 132.9162245 -46.1883100 -126.3170361 -3000.0000000 -90.0000000 -3000.0000000 -90.0000000
 48.2071324  -4.3453791 132.8265545 -46.1392583 -126.3876566 -3000.0000000 -90.0000000 -3000.0000000 -90.0000000
 48.2657548  -4.3460396 132.7315237 -46.0861341 -126.4624341 -3000.0000000 -90.0000000 -3000.0000000 -90.0000000
 48.3243771  -4.3454798 132.6377996 -46.0358782 -126.4631412 -3000.0000000 -90.0000000 -3000.0000000 -90.0000000
 48.3829995  -4.3465570 132.5509104 -45.9872262 -126.5448814 -3000.0000000 -90.0000000 -3000.0000000 -90.0000000
 48.4416219  -4.3463303 132.4587758 -45.9355118 -126.6138046 -3000.0000000 -90.0000000 -3000.0000000 -90.0000000
 48.5002443  -4.3465244 132.3631586 -45.8853722 -126.6463969 -3000.0000000 -90.0000000 -3000.0000000 -90.0000000
 48.5588666  -4.3469226 132.2713342 -45.8335435 -126.7359061 -3000.0000000 -90.0000000 -3000.0000000 -90.0000000
 48.6174890  -4.3468182 132.1807553 -45.7894339 -126.7961979 -3000.0000000 -90.0000000 -3000.0000000 -90.0000000
 48.6761114  -4.3472474 132.0863179 -45.7367389 -126.8919682 -3000.0000000 -90.0000000 -3000.0000000 -90.0000000
 48.7347338  -4.3483553 131.9896958 -45.6719382 -126.8898922 -3000.0000000 -90.0000000 -3000.0000000 -90.0000000
 48.7933561  -4.3481064 131.8969699 -45.6361612 -126.9497046 -3000.0000000 -90.0000000 -3000.0000000 -90.0000000
 48.8519785  -4.3483005 131.8029074 -45.5759313 -127.0006011 -3000.0000000 -90.0000000 -3000.0000000 -90.0000000
 48.9106009  -4.3489652 131.7079110 -45.5254930 -127.0943405 -3000.0000000 -90.0000000 -3000.0000000 -90.0000000
 48.9692233  -4.3492522 131.6188391 -45.4779211 -127.1286144 -3000.0000000 -90.0000000 -3000.0000000 -90.0000000
 49.0278456  -4.3494073 131.5167883 -45.4278678 -127.2225792 -3000.0000000 -90.0000000 -3000.0000000 -90.0000000
 49.0864680  -4.3497857 131.4292798 -45.3751541 -127.2812912 -3000.0000000 -90.0000000 -3000.0000000 -90.0000000
 49.1450904  -4.3497136 131.3352612 -45.3225324 -127.3067134 -3000.0000000 -90.0000000 -3000.0000000 -90.0000000
 49.2037128  -4.3508472 131.2340309 -45.2737730 -127.3479351 -3000.0000000 -90.0000000 -3000.0000000 -90.0000000
 49.2623351  -4.3499615 131.1399156 -45.2235857 -127.4279423 -3000.0000000 -90.0000000 -3000.0000000 -90.0000000
 49.3209575  -4.3507549 131.0436430 -45.1664574 -127.4670366 -3000.0000000 -90.0000000 -3000.0000000 -90.0000000
 49.3795799  -4.3510998 130.9462444 -45.1174231 -127.5324240 -3000.0000000 -90.0000000 -3000.0000000 -90.0000000
 49.4382022  -4.3524628 130.8565169 -45.0637826 -127.6258177 -3000.0000000 -90.0000000 -3000.0000000 -90.0000000
 49.4968246  -4.3520974 130.7657616 -45.0160906 -127.6706797 -3000.0000000 -90.0000000 -3000.0000000 -90.0000000
 49.5554470  -4.3524072 130.6635089 -44.9721951 -127.7354252 -3000.0000000 -90.0000000 -3000.0000000 -90.0000000
 49.6140694  -4.3521329 130.5712408 -44.9126281 -127.8082058 -3000.0000000 -90.0000000 -3000.0000000 -90.0000000
 49.6726917  -4.3529013 130.4700340 -44.8584312 -127.8356337 -3000.0000000 -90.0000000 -3000.0000000 -90.0000000
 49.7313141  -4.3531767 130.3763350 -44.8118658 -127.9062513 -3000.0000000 -90.0000000 -3000.0000000 -90.0000000
 49.7899365  -4.3541907 130.2780987 -44.7655281 -127.9620867 -3000.0000000 -90.0000000 -3000.0000000 -90.0000000
 49.8485589  -4.3539106 130.1757585 -44.7092603 -128.0279239 -3000.0000000 -90.0000000 -3000.0000000 -90.0000000
 49.9071812  -4.3541980 130.0827010 -44.6577276 -128.0936775 -3000.0000000 -90.0000000 -3000.0000000 -90.0000000
 49.9658036  -4.3542737 129.9856697 -44.6128782 -128.1276545 -3000.0000000 -90.0000000 -3000.0000000 -90.0000000
 50.0244260  -4.3548356 129.8867064 -44.5491806 -128.2280665 -3000.0000000 -90.0000000 -3000.0000000 -90.0000000
 50.0830484  -4.3554281 129.7899271 -44.5047383 -128.2798660 -3000.0000000 -90.0000000 -3000.0000000 -90.0000000
 50.1416707  -4.3553286 129.6851314 -44.4495022 -128.2920426 -3000.0000000 -90.0000000 -3000.0000000 -90.0000000
 50.2002931  -4.3558150 129.5879762 -44.4090396 -128.3630921 -3000.0000000 -90.0000000 -3000.0000000 -90.0000000
