! ListType=Lin
# MHZ S DB R 50
 40.0000000  -4.0037215 149.2217842 -39.8773759  73.6585585 -54.2917231 -127.6916704  -4.0054257 149.5531250
 40.1173021  -4.0033634 149.0932106 -39.8642692  73.6605158 -54.2196098 -127.6142981  -4.0041421 149.4130730
 40.2346041  -4.0017107 148.9698107 -39.8200446  73.5349350 -54.1113979 -127.7584947  -4.0028392 149.2912928
 40.3519062  -4.0000877 148.8484988 -39.7740391  73.3986502 -54.0161787 -127.8850647  -4.0018721 149.1646235
 40.4692082  -3.9992572 148.7207886 -39.7274313  73.2704018 -53.8869937 -127.9215686  -4.0003712 149.0449228
 40.5865103  -3.9985355 148.5899345 -39.6826893  73.1338849 -53.7824270 -127.9922218  -3.9998515 148.9082847
 40.7038123  -3.9970352 148.4622900 -39.6397291  72.9789265 -53.6782119 -128.0478302  -3.9984955 148.7799657
 40.8211144  -3.9963709 148.3337590 -39.5902057  72.8516411 -53.5767535 -128.2172330  -3.9972647 148.6571482
 40.9384164  -3.9959466 148.2084490 -39.5484412  72.7263885 -53.4670031 -128.3216858  -3.9970135 148.5325737
 41.0557185  -3.9943229 148.0796737 -39.4993836  72.5968597 -53.3483687 -128.4284411  -3.9960572 148.4007250
 41.1730205  -3.9944340 147.9468329 -39.4562483  72.4546589 -53.2472005 -128.5273785  -3.9955527 148.2702093
 41.2903226  -3.9923801 147.8210370 -39.4121535  72.3442690 -53.1413888 -128.6244289  -3.9944210 148.1484744
 41.4076246  -3.9919087 147.6923212 -39.3649649  72.1898060 -53.0274239 -128.6110158  -3.9933014 148.0166468
 41.5249267  -3.9905939 147.5615485 -39.3194175  72.0419062 -52.9278208 -128.8947048  -3.9920879 147.8872256
 41.6422287  -3.9901415 147.4318047 -39.2726228  71.9619214 -52.8092461 -128.9450938  -3.9913488 147.7587646
 41.7595308  -3.9891611 147.3029029 -39.2292151  71.7954836 -52.6993550 -129.0323489  -3.9907891 147.6234157
 41.8768328  -3.9878677 147.1684224 -39.1816875  71.6599178 -52.5941611 -129.1775695  -3.9895004 147.4931261
 41.9941349  -3.9873467 147.0374087 -39.1375971  71.5330864 -52.4735377 -129.2498962  -3.9887033 147.3633520
 42.1114370  -3.9862862 146.9015389 -39.0930473  71.3745597 -52.3679311 -129.3261265  -3.9879232 147.2315045
 42.2287390  -3.9852267 146.7676082 -39.0415685  71.2584441 -52.2565391 -129.4268476  -3.9875290 147.0967300
 42.3460411  -3.9837302 146.6383936 -39.0021251  71.1017673 -52.1655263 -129.5482370  -3.9855640 146.9682264
 42.4633431  -3.9833671 146.5032817 -38.9538251  70.9820799 -52.0331067 -129.6518309  -3.9851815 146.8307591
 42.5806452  -3.9821296 146.3662225 -38.9106619  70.8612433 -51.9353088 -129.8139475  -3.9840554 146.6987756
 42.6979472  -3.9807567 146.2295802 -38.8624443  70.6952788 -51.8237855 -129.9161402  -3.9829299 146.5626631
 42.8152493  -3.9797547 146.0990822 -38.8193695  70.5693310 -51.7162430 -130.0580265  -3.9820088 146.4276142
 42.9325513  -3.9795592 145.9603950 -38.7741462  70.4364121 -51.6070258 -130.1436460  -3.9815457 146.2957341
 43.0498534  -3.9781855 145.8219624 -38.7276473  70.2928123 -51.5078663 -130.2317951  -3.9798762 146.1555108
 43.1671554  -3.9771760 145.6935493 -38.6789109  70.1789149 -51.3986849 -130.3514782  -3.9787010 146.0242283
 43.2844575  -3.9768168 145.5524392 -38.6378742  70.0541695 -51.2771264 -130.4524032  -3.9787866 145.8853857
 43.4017595  -3.9742338 145.4138192 -38.5922488  69.8967650 -51.1838037 -130.5739608  -3.9770532 145.7445978
 43.5190616  -3.9740547 145.2756251 -38.5459541  69.7766324 -51.0723901 -130.7028334  -3.9760171 145.6111881
 43.6363636  -3.9738532 145.1353315 -38.4994224  69.6531422 -50.9488935 -130.8113468  -3.9750516 145.4697016
 43.7536657  -3.9718841 145.0043416 -38.4557305  69.4992885 -50.8619516 -130.8932458  -3.9739479 145.3395780
 43.8709677  -3.9699579 144.8547612 -38.4091402  69.3549933 -50.7591260 -130.9937530  -3.9723035 145.1933625
 43.9882698  -3.9690353 144.7229116 -38.3635016  69.2309466 -50.6382223 -131.1932692  -3.9713916 145.0605501
 44.1055718  -3.9685013 144.5814460 -38.3195871  69.0869290 -50.5363313 -131.1599469  -3.9706678 144.9186933
 44.2228739  -3.9680885 144.4389350 -38.2696044  68.9476742 -50.4118168 -131.3776993  -3.9699485 144.7765690
 44.3401760  -3.9658489 144.2995370 -38.2258867  68.8152345 -50.3185510 -131.4085972  -3.9679774 144.6342870
 44.4574780  -3.9649611 144.1590480 -38.1782649  68.6772659 -50.2101705 -131.5503096  -3.9667531 144.4970748
 44.5747801  -3.9643967 144.0139878 -38.1322688  68.5415680 -50.1082661 -131.6613358  -3.9660603 144.3591177
 44.6920821  -3.9623849 143.8726535 -38.0869761  68.3944409 -49.9964494 -131.8148162  -3.9647364 144.2141752
 44.8093842  -3.9616367 143.7314160 -38.0429416  68.2597121 -49.8897509 -131.9017252  -3.9644724 144.0712352
 44.9266862  -3.9603305 143.5892137 -37.9954682  68.1503358 -49.7887659 -132.0306958  -3.9627666 143.9263935
 45.0439883  -3.9595081 143.4363681 -37.9501370  67.9674741 -49.6710459 -132.1525998  -3.9622851 143.7815533
 45.1612903  -3.9576257 143.2934399 -37.9047915  67.8291670 -49.5640617 -132.2100046  -3.9603846 143.6403164
 45.2785924  -3.9566233 143.1484050 -37.8586233  67.7177132 -49.4585777 -132.3404338  -3.9599181 143.5017447
 45.3958944  -3.9561700 142.9974767 -37.8087658  67.5990571 -49.3637188 -132.4631428  -3.9598561 143.3492692
 45.5131965  -3.9566491 142.8465101 -37.7607818  67.4810514 -49.2516516 -132.6138081  -3.9621736 143.1763190
 45.6304985  -3.9538991 142.7053573 -37.7155001  67.3404902 -49.1367341 -132.6995765  -3.9567209 143.0355679
 45.7478006  -3.9536537 142.5629187 -37.6713705  67.1939483 -49.0302148 -132.8148682  -3.9563685 142.8934265
 45.8651026  -3.9517468 142.4104690 -37.6252623  67.0614348 -48.9293978 -132.9814575  -3.9543365 142.7445571
 45.9824047  -3.9498462 142.2594701 -37.5802640  66.9098603 -48.8132488 -133.0820572  -3.9523787 142.5984325
 46.0997067  -3.9489190 142.1063686 -37.5350358  66.7708187 -48.7166196 -133.2424603  -3.9511580 142.4482976
 46.2170088  -3.9474221 141.9513458 -37.4878853  66.6599187 -48.6105954 -133.2444968  -3.9502824 142.2973341
 46.3343109  -3.9460767 141.8025674 -37.4420806  66.5153501 -48.4947358 -133.3766487  -3.9489479 142.1478530
 46.4516129  -3.9455636 141.6526385 -37.3927736  66.3628207 -48.3830605 -133.5270929  -3.9479373 141.9988608
 46.5689150  -3.9450432 141.5011647 -37.3504616  66.2170286 -48.2971097 -133.6898239  -3.9468674 141.8432128
 46.6862170  -3.9429904 141.3528177 -37.2993141  66.0797346 -48.1806433 -133.8032705  -3.9454355 141.6940009
 46.8035191  -3.9427798 141.1947124 -37.2521829  65.9438026 -48.0746400 -133.9216727  -3.9444101 141.5378504
 46.9208211  -3.9407011 141.0433635 -37.2073325  65.8044635 -47.9645599 -133.9917636  -3.9435202 141.3852046
 47.0381232  -3.9402658 140.8907736 -37.1618937  65.6694280 -47.8544031 -134.1446611  -3.9427048 141.2353219
 47.1554252  -3.9352310 140.7438103 -37.1142768  65.5149370 -47.7544501 -134.2934993  -3.9391903 141.0874714
 47.2727273  -3.9353877 140.5914697 -37.0674569  65.3697952 -47.6409173 -134.4082680  -3.9380636 140.9322008
 47.3900293  -3.9342760 140.4361655 -37.0224521  65.2105696 -47.5363720 -134.5460633  -3.9366228 140.7755641
 47.5073314  -3.9332073 140.2816495 -36.9746719  65.0847095 -47.4329988 -134.6778593  -3.9356515 140.6221929
 47.6246334  -3.9311370 140.1193994 -36.9280227  64.9413515 -47.3238103 -134.8167857  -3.9339553 140.4620749
 47.7419355  -3.9290042 139.9635915 -36.8795514  64.8001812 -47.2215894 -134.9324564  -3.9320738 140.3052815
 47.8592375  -3.9287985 139.8052133 -36.8325219  64.6360680 -47.1198174 -135.0470191  -3.9320564 140.1496366
 47.9765396  -3.9270903 139.6445326 -36.7860783  64.5154068 -47.0052307 -135.1992013  -3.9303755 139.9884833
 48.0938416  -3.9257309 139.4858397 -36.7390979  64.3517029 -46.9062050 -135.3355298  -3.9291009 139.8282265
 48.2111437  -3.9247282 139.3274004 -36.6912131  64.2350557 -46.7995665 -135.3830543  -3.9278707 139.6721928
 48.3284457  -3.9230463 139.1660326 -36.6463255  64.0863817 -46.6861977 -135.5660192  -3.9266198 139.5073575
 48.4457478  -3.9215575 139.0053016 -36.6014075  63.9397717 -46.5838615 -135.6394137  -3.9253500 139.3475092
 48.5630499  -3.9198385 138.8442796 -36.5490073  63.8089492 -46.4788745 -135.8396902  -3.9235475 139.1858192
 48.6803519  -3.9186945 138.6801147 -36.5014593  63.6780167 -46.3652832 -135.9387723  -3.9218708 139.0204037
 48.7976540  -3.9174250 138.5213000 -36.4559973  63.5152666 -46.2639821 -136.0823684  -3.9215483 138.8613303
 48.9149560  -3.9158481 138.3532530 -36.4080751  63.3885969 -46.1612359 -136.1976936  -3.9193198 138.6954141
 49.0322581  -3.9144484 138.1886136 -36.3595517  63.2300247 -46.0499585 -136.3060153  -3.9180237 138.5308318
 49.1495601  -3.9134281 138.0183214 -36.3152717  63.0890932 -45.9485327 -136.4636465  -3.9163566 138.3690602
 49.2668622  -3.9111577 137.8563052 -36.2658110  62.9485904 -45.8393403 -136.5914668  -3.9146460 138.2039226
 49.3841642  -3.9101107 137.6879879 -36.2182396  62.8040277 -45.7303139 -136.7546877  -3.9137377 138.0328313
 49.5014663  -3.9090010 137.5222941 -36.1692761  62.6695274 -45.6274473 -136.9272025  -3.9128143 137.8672560
 49.6187683  -3.9074988 137.3536905 -36.1237997  62.5075166 -45.5282180 -137.0102790  -3.9109192 137.6989907
 49.7360704  -3.9054829 137.1858983 -36.0770674  62.3851306 -45.4170024 -137.1363912  -3.9091118 137.5311217
 49.8533724  -3.9039822 137.0181036 -36.0280843  62.2285836 -45.3089185 -137.2780365  -3.9076858 137.3588379
 49.9706745  -3.9029060 136.8462542 -35.9770184  62.0912035 -45.1923703 -137.4422532  -3.9069081 137.1915319
 50.0879765  -3.9011912 136.6718644 -35.9305760  61.9366980 -45.0911888 -137.5545339  -3.9044718 137.0143635
 50.2052786  -3.9000595 136.5056885 -35.8846059  61.7772424 -44.9821838 -137.7119059  -3.9034178 136.8445769
 50.3225806  -3.8984423 136.3305522 -35.8366082  61.6233708 -44.8775407 -137.8496703  -3.9024100 136.6727418
 50.4398827  -3.8966832 136.1546183 -35.7843025  61.4977495 -44.7690999 -137.9362983  -3.9006876 136.4960291
 50.5571848  -3.8957493 135.9811714 -35.7367082  61.3514535 -44.6608973 -138.0821780  -3.8990667 136.3239716
 50.6744868  -3.8940571 135.8035946 -35.6898102  61.1935781 -44.5554241 -138.2157262  -3.8967405 136.1472485
 50.7917889  -3.8917137 135.6267295 -35.6422604  61.0480132 -44.4475735 -138.3975247  -3.8952105 135.9724084
 50.9090909  -3.8899659 135.4595961 -35.5933275  60.9027577 -44.3446636 -138.5609242  -3.8947207 135.8005940
 51.0263930  -3.8885581 135.2737962 -35.5459926  60.7626525 -44.2431727 -138.6895721  -3.8934259 135.6157247
 51.1436950  -3.8864625 135.1071398 -35.4969238  60.6235766 -44.1324855 -138.8059365  -3.8912323 135.4455436
 51.2609971  -3.8849667 134.9199807 -35.4481248  60.4771079 -44.0266680 -138.9606462  -3.8889181 135.2668792
 51.3782991  -3.8841692 134.7453735 -35.3999003  60.3196633 -43.9150166 -139.1123818  -3.8879240 135.0819813
 51.4956012  -3.8831949 134.5652955 -35.3513764  60.1621270 -43.8117322 -139.2258952  -3.8871411 134.9043834
 51.6129032  -3.8808759 134.3787804 -35.3013745  60.0332022 -43.6974051 -139.3517256  -3.8847497 134.7192452
 51.7302053  -3.8787095 134.1988899 -35.2517939  59.8777384 -43.5926174 -139.5473118  -3.8826179 134.5395578
 51.8475073  -3.8773901 134.0182266 -35.2016058  59.7219197 -43.4929108 -139.6750551  -3.8810739 134.3574334
 51.9648094  -3.8767333 133.8351059 -35.1546471  59.5730436 -43.3828088 -139.8420207  -3.8801339 134.1765736
 52.0821114  -3.8740766 133.6497991 -35.1040824  59.4203386 -43.2728218 -139.9587242  -3.8776574 133.9846984
 52.1994135  -3.8728260 133.4649101 -35.0556824  59.2624312 -43.1599795 -140.0916798  -3.8765100 133.8008478
 52.3167155  -3.8709155 133.2755019 -35.0056023  59.1102859 -43.0572784 -140.2343211  -3.8749465 133.6140705
 52.4340176  -3.8679656 133.0895438 -34.9568924  58.9527904 -42.9471181 -140.4281114  -3.8725347 133.4305500
 52.5513196  -3.8666687 132.9059362 -34.9075012  58.7976433 -42.8372058 -140.5624745  -3.8716411 133.2338698
 52.6686217  -3.8656599 132.7155065 -34.8570417  58.6455869 -42.7318692 -140.7049111  -3.8694107 133.0436476
 52.7859238  -3.8635659 132.5273728 -34.8055506  58.5091028 -42.6243773 -140.8451453  -3.8675937 132.8591149
 52.9032258  -3.8617491 132.3320695 -34.7583810  58.3460548 -42.5198540 -141.0420451  -3.8662427 132.6646680
 53.0205279  -3.8598072 132.1465160 -34.7078816  58.1934209 -42.4112683 -141.1612203  -3.8638456 132.4765596
 53.1378299  -3.8583034 131.9477351 -34.6568379  58.0493969 -42.3052347 -141.3366416  -3.8624781 132.2817049
 53.2551320  -3.8565041 131.7555972 -34.6084025  57.8942555 -42.1920888 -141.4741382  -3.8609092 132.0872333
 53.3724340  -3.8548448 131.5688717 -34.5587527  57.7282873 -42.0863102 -141.6002661  -3.8584579 131.8980303
 53.4897361  -3.8527301 131.3679698 -34.5071036  57.5716641 -41.9825397 -141.7582292  -3.8567705 131.6980502
 53.6070381  -3.8512090 131.1764697 -34.4568552  57.4159376 -41.8710768 -141.9209710  -3.8551957 131.5077346
 53.7243402  -3.8489439 130.9774209 -34.4072165  57.2583464 -41.7603653 -142.0921220  -3.8537076 131.3086354
 53.8416422  -3.8474422 130.7813544 -34.3560138  57.1052099 -41.6504022 -142.2358039  -3.8519879 131.1073315
 53.9589443  -3.8454977 130.5825082 -34.3054818  56.9568445 -41.5451891 -142.4112778  -3.8501582 130.9113085
 54.0762463  -3.8437254 130.3848116 -34.2549242  56.7822232 -41.4328963 -142.5619163  -3.8488436 130.7136554
 54.1935484  -3.8418120 130.1849600 -34.2037514  56.6369697 -41.3261926 -142.7287670  -3.8475189 130.5121693
 54.3108504  -3.8392619 129.9770508 -34.1515368  56.4764357 -41.2166923 -142.8563532  -3.8436950 130.3046510
 54.4281525  -3.8383746 129.7742096 -34.1038279  56.3212977 -41.1084904 -143.0413381  -3.8421815 130.1002016
 54.5454545  -3.8361725 129.5698832 -34.0518147  56.1645595 -41.0004269 -143.1847585  -3.8400615 129.8950476
 54.6627566  -3.8343078 129.3671666 -34.0002758  56.0062927 -40.8879505 -143.3545867  -3.8390907 129.6913382
 54.7800587  -3.8317245 129.1641417 -33.9483828  55.8455138 -40.7783036 -143.5175863  -3.8361847 129.4847510
 54.8973607  -3.8303230 128.9563358 -33.8966397  55.6775954 -40.6713991 -143.7081915  -3.8340561 129.2793728
 55.0146628  -3.8289918 128.7469980 -33.8455828  55.5108070 -40.5584606 -143.8443572  -3.8329601 129.0716155
 55.1319648  -3.8261649 128.5426848 -33.7933722  55.3621836 -40.4489222 -144.0058016  -3.8307042 128.8632489
 55.2492669  -3.8245841 128.3320058 -33.7438696  55.1960422 -40.3376837 -144.1821672  -3.8290359 128.6504862
 55.3665689  -3.8229733 128.1178382 -33.6923592  55.0279546 -40.2306553 -144.3374350  -3.8272211 128.4385837
 55.4838710  -3.8205945 127.9052233 -33.6406454  54.8676560 -40.1164308 -144.5180543  -3.8239864 128.2274911
 55.6011730  -3.8187716 127.6922863 -33.5882464  54.6900720 -40.0102986 -144.6757424  -3.8228054 128.0131621
 55.7184751  -3.8160406 127.4840238 -33.5346116  54.5480507 -39.8978429 -144.8505609  -3.8209310 127.7949699
 55.8357771  -3.8135916 127.2684625 -33.4828626  54.3809774 -39.7934867 -145.0237567  -3.8180740 127.5805927
 55.9530792  -3.8117903 127.0547182 -33.4304462  54.2067947 -39.6797911 -145.1974547  -3.8167578 127.3622400
 56.0703812  -3.8099507 126.8374007 -33.3785734  54.0390327 -39.5667788 -145.3545264  -3.8153705 127.1469705
 56.1876833  -3.8076280 126.6137981 -33.3265023  53.8685080 -39.4613510 -145.5368507  -3.8126626 126.9294466
 56.3049853  -3.8053334 126.3973862 -33.2739589  53.7085220 -39.3481144 -145.7157376  -3.8102268 126.7110827
 56.4222874  -3.8033124 126.1772821 -33.2213968  53.5420156 -39.2339482 -145.8987309  -3.8085305 126.4850130
 56.5395894  -3.8012614 125.9581055 -33.1671704  53.3664537 -39.1246389 -146.0577925  -3.8067249 126.2619310
 56.6568915  -3.7987364 125.7307327 -33.1146069  53.1962126 -39.0137389 -146.2313976  -3.8049020 126.0384510
 56.7741935  -3.7965011 125.5101962 -33.0620695  53.0400151 -38.9006736 -146.4145296  -3.8024705 125.8125484
 56.8914956  -3.7942821 125.2874362 -33.0085227  52.8694020 -38.7943353 -146.5832099  -3.8003006 125.5798424
 57.0087977  -3.7926508 125.0628858 -32.9553086  52.6948117 -38.6779721 -146.7884181  -3.7985627 125.3538482
 57.1260997  -3.7909101 124.8425858 -32.9022424  52.5276453 -38.5641097 -146.9433386  -3.7961061 125.1264673
 57.2434018  -3.7879213 124.6109489 -32.8500805  52.3541742 -38.4573252 -147.1536848  -3.7937952 124.8970934
 57.3607038  -3.7861440 124.3773277 -32.7944896  52.1792501 -38.3441889 -147.3222427  -3.7913221 124.6636694
 57.4780059  -3.7835473 124.1469816 -32.7423029  52.0180283 -38.2311176 -147.5084411  -3.7885771 124.4330460
 57.5953079  -3.7817564 123.9146564 -32.6896226  51.8461352 -38.1173314 -147.6847561  -3.7870071 124.1977595
 57.7126100  -3.7795217 123.6783999 -32.6342127  51.6728058 -38.0068109 -147.8580980  -3.7840217 123.9672171
 57.8299120  -3.7767826 123.4442421 -32.5790497  51.4912702 -37.8932235 -148.0402842  -3.7821015 123.7273056
 57.9472141  -3.7741030 123.2125383 -32.5256270  51.3158387 -37.7784966 -148.2321847  -3.7805922 123.4894592
 58.0645161  -3.7717836 122.9782390 -32.4721912  51.1478523 -37.6649630 -148.4266879  -3.7784136 123.2493510
 58.1818182  -3.7698684 122.7356093 -32.4169448  50.9654188 -37.5536209 -148.6144859  -3.7753896 123.0069327
 58.2991202  -3.7674644 122.5009413 -32.3629142  50.7934095 -37.4412893 -148.8057433  -3.7734269 122.7700659
 58.4164223  -3.7644729 122.2540740 -32.3080718  50.6093853 -37.3282950 -148.9694460  -3.7709782 122.5162095
 58.5337243  -3.7629646 122.0119023 -32.2528256  50.4464446 -37.2121071 -149.1568833  -3.7689421 122.2746033
 58.6510264  -3.7605745 121.7714588 -32.1987711  50.2604069 -37.0985852 -149.3643747  -3.7667337 122.0328291
 58.7683284  -3.7579978 121.5260553 -32.1435622  50.0747903 -36.9847227 -149.5546296  -3.7635473 121.7887171
 58.8856305  -3.7560899 121.2802080 -32.0882426  49.8984249 -36.8706940 -149.7555468  -3.7618061 121.5356950
 59.0029326  -3.7534948 121.0300124 -32.0320536  49.7164181 -36.7577861 -149.9634662  -3.7591570 121.2827205
 59.1202346  -3.7504927 120.7844002 -31.9764532  49.5318963 -36.6410303 -150.1507529  -3.7564147 121.0271522
 59.2375367  -3.7489687 120.5294814 -31.9209313  49.3447761 -36.5252229 -150.3464269  -3.7550659 120.7776128
 59.3548387  -3.7457353 120.2774199 -31.8665986  49.1681668 -36.4140153 -150.5303826  -3.7516516 120.5223498
 59.4721408  -3.7434105 120.0209894 -31.8090793  48.9956364 -36.2978864 -150.7436273  -3.7495429 120.2684188
 59.5894428  -3.7409430 119.7669297 -31.7528474  48.8109756 -36.1832284 -150.9278783  -3.7467169 120.0040567
 59.7067449  -3.7387962 119.5155422 -31.6976537  48.6198982 -36.0658942 -151.1509829  -3.7445200 119.7451101
 59.8240469  -3.7362415 119.2599070 -31.6407923  48.4256865 -35.9515022 -151.3406829  -3.7419335 119.4831710
 59.9413490  -3.7331154 118.9985415 -31.5853452  48.2427061 -35.8356156 -151.5532697  -3.7391599 119.2195290
 60.0586510  -3.7307880 118.7387989 -31.5272934  48.0570182 -35.7189908 -151.7595120  -3.7366089 118.9576324
 60.1759531  -3.7289764 118.4747099 -31.4721672  47.8642380 -35.6016411 -151.9533476  -3.7348336 118.6839679
 60.2932551  -3.7259704 118.2142983 -31.4153700  47.6755805 -35.4871062 -152.1538502  -3.7315329 118.4248033
 60.4105572  -3.7228584 117.9520713 -31.3585342  47.4878286 -35.3722420 -152.3755199  -3.7288797 118.1576163
 60.5278592  -3.7201903 117.6744869 -31.3022679  47.2985277 -35.2544926 -152.5898597  -3.7267345 117.8798591
 60.6451613  -3.7177935 117.4120545 -31.2436831  47.1049543 -35.1345272 -152.7933924  -3.7239803 117.6131318
 60.7624633  -3.7157160 117.1394018 -31.1867880  46.9112720 -35.0166701 -153.0145221  -3.7217312 117.3350313
 60.8797654  -3.7127235 116.8681355 -31.1286592  46.7177444 -34.9017161 -153.2212629  -3.7193630 117.0599231
 60.9970674  -3.7097153 116.5968937 -31.0716333  46.5295359 -34.7828311 -153.4443450  -3.7159839 116.7879162
 61.1143695  -3.7067149 116.3233823 -31.0136896  46.3321501 -34.6653669 -153.6617408  -3.7139972 116.5063246
