! ListType=Lin
! Comment=Upconverter-125MHz-ADE Output Bandpass Filter
# MHZ S DB R 50
  0.1000000  -0.1260616   0.0000000 -78.1112994   0.0000000 -3000.0000000 -90.0000000  -0.1208139   0.0000000
  0.1749937  -0.1202865   0.0000000 -69.8771736   0.0000000 -3000.0000000 -90.0000000  -0.1140370   0.0000000
  0.2499875  -0.1194711   0.0000000 -77.3780611   0.0000000 -3000.0000000 -90.0000000  -0.1141196   0.0000000
  0.3249812  -0.1199493   0.0000000 -77.8447633   0.0000000 -3000.0000000 -90.0000000  -0.1133358   0.0000000
  0.3999750  -0.1201803   0.0000000 -78.1260026   0.0000000 -3000.0000000 -90.0000000  -0.1150959   0.0000000
  0.4749687  -0.1212057   0.0000000 -78.0968221   0.0000000 -3000.0000000 -90.0000000  -0.1145594   0.0000000
  0.5499625  -0.1232719   0.0000000 -78.3924313   0.0000000 -3000.0000000 -90.0000000  -0.1167260   0.0000000
  0.6249562  -0.1249484   0.0000000 -78.1236319   0.0000000 -3000.0000000 -90.0000000  -0.1178009   0.0000000
  0.6999500  -0.1274299   0.0000000 -78.3168396   0.0000000 -3000.0000000 -90.0000000  -0.1195894   0.0000000
  0.7749437  -0.1267795   0.0000000 -78.2521675   0.0000000 -3000.0000000 -90.0000000  -0.1192431   0.0000000
  0.8499375  -0.1268895   0.0000000 -78.9545480   0.0000000 -3000.0000000 -90.0000000  -0.1204995   0.0000000
  0.9249312  -0.1270624   0.0000000 -78.5173555   0.0000000 -3000.0000000 -90.0000000  -0.1205649   0.0000000
  0.9999250  -0.1293752   0.0000000 -78.4276305   0.0000000 -3000.0000000 -90.0000000  -0.1225819   0.0000000
  1.0749187  -0.1286887   0.0000000 -78.3394068   0.0000000 -3000.0000000 -90.0000000  -0.1245777   0.0000000
  1.1499125  -0.1293536   0.0000000 -78.0957122   0.0000000 -3000.0000000 -90.0000000  -0.1253233   0.0000000
  1.2249062  -0.1322360   0.0000000 -78.2918458   0.0000000 -3000.0000000 -90.0000000  -0.1264101   0.0000000
  1.2999000  -0.1340372   0.0000000 -78.4661845   0.0000000 -3000.0000000 -90.0000000  -0.1278963   0.0000000
  1.3748937  -0.1346955   0.0000000 -78.4831502   0.0000000 -3000.0000000 -90.0000000  -0.1295321   0.0000000
  1.4498875  -0.1357725   0.0000000 -78.1431622   0.0000000 -3000.0000000 -90.0000000  -0.1300300   0.0000000
  1.5248812  -0.1380078   0.0000000 -78.2758466   0.0000000 -3000.0000000 -90.0000000  -0.1321681   0.0000000
  1.5998750  -0.1395105   0.0000000 -77.9198908   0.0000000 -3000.0000000 -90.0000000  -0.1342028   0.0000000
  1.6748687  -0.1415590   0.0000000 -78.4057398   0.0000000 -3000.0000000 -90.0000000  -0.1336673   0.0000000
  1.7498625  -0.1422065   0.0000000 -78.3480995   0.0000000 -3000.0000000 -90.0000000  -0.1347869   0.0000000
  1.8248562  -0.1428973   0.0000000 -78.4851379   0.0000000 -3000.0000000 -90.0000000  -0.1363807   0.0000000
  1.8998500  -0.1452508   0.0000000 -77.9313328   0.0000000 -3000.0000000 -90.0000000  -0.1391540   0.0000000
  1.9748437  -0.1464519   0.0000000 -78.6319549   0.0000000 -3000.0000000 -90.0000000  -0.1394072   0.0000000
  2.0498375  -0.1467553   0.0000000 -78.3809564   0.0000000 -3000.0000000 -90.0000000  -0.1414725   0.0000000
  2.1248312  -0.1477719   0.0000000 -77.9711177   0.0000000 -3000.0000000 -90.0000000  -0.1419536   0.0000000
  2.1998250  -0.1483348   0.0000000 -78.4784150   0.0000000 -3000.0000000 -90.0000000  -0.1430736   0.0000000
  2.2748187  -0.1498373   0.0000000 -78.3863628   0.0000000 -3000.0000000 -90.0000000  -0.1437476   0.0000000
  2.3498125  -0.1515963   0.0000000 -78.5779225   0.0000000 -3000.0000000 -90.0000000  -0.1463323   0.0000000
  2.4248062  -0.1509033   0.0000000 -78.5613987   0.0000000 -3000.0000000 -90.0000000  -0.1448755   0.0000000
  2.4997999  -0.1534539   0.0000000 -78.3805602   0.0000000 -3000.0000000 -90.0000000  -0.1471145   0.0000000
  2.5747937  -0.1531734   0.0000000 -78.3688217   0.0000000 -3000.0000000 -90.0000000  -0.1471077   0.0000000
  2.6497874  -0.1526700   0.0000000 -78.1246781   0.0000000 -3000.0000000 -90.0000000  -0.1472894   0.0000000
  2.7247812  -0.1543955   0.0000000 -78.8487042   0.0000000 -3000.0000000 -90.0000000  -0.1484095   0.0000000
  2.7997749  -0.1557507   0.0000000 -78.2743048   0.0000000 -3000.0000000 -90.0000000  -0.1496343   0.0000000
  2.8747687  -0.1550946   0.0000000 -78.7914754   0.0000000 -3000.0000000 -90.0000000  -0.1497707   0.0000000
  2.9497624  -0.1566447   0.0000000 -77.9180045   0.0000000 -3000.0000000 -90.0000000  -0.1508037   0.0000000
  3.0247562  -0.1564613   0.0000000 -78.4748501   0.0000000 -3000.0000000 -90.0000000  -0.1512101   0.0000000
  3.0997499  -0.1583727   0.0000000 -78.0668874   0.0000000 -3000.0000000 -90.0000000  -0.1527105   0.0000000
  3.1747437  -0.1595691   0.0000000 -78.3085902   0.0000000 -3000.0000000 -90.0000000  -0.1538931   0.0000000
  3.2497374  -0.1596041   0.0000000 -78.1552505   0.0000000 -3000.0000000 -90.0000000  -0.1550004   0.0000000
  3.3247312  -0.1600330   0.0000000 -78.4893998   0.0000000 -3000.0000000 -90.0000000  -0.1553256   0.0000000
  3.3997249  -0.1630909   0.0000000 -78.3159053   0.0000000 -3000.0000000 -90.0000000  -0.1579079   0.0000000
  3.4747187  -0.1629922   0.0000000 -78.3672196   0.0000000 -3000.0000000 -90.0000000  -0.1576761   0.0000000
  3.5497124  -0.1640744   0.0000000 -78.1723247   0.0000000 -3000.0000000 -90.0000000  -0.1579035   0.0000000
  3.6247062  -0.1647684   0.0000000 -78.2854831   0.0000000 -3000.0000000 -90.0000000  -0.1582198   0.0000000
  3.6996999  -0.1657070   0.0000000 -78.1892355   0.0000000 -3000.0000000 -90.0000000  -0.1593318   0.0000000
  3.7746937  -0.1667884   0.0000000 -77.8977581   0.0000000 -3000.0000000 -90.0000000  -0.1595849   0.0000000
  3.8496874  -0.1668894   0.0000000 -78.3109690   0.0000000 -3000.0000000 -90.0000000  -0.1602891   0.0000000
  3.9246812  -0.1679613   0.0000000 -78.5411592   0.0000000 -3000.0000000 -90.0000000  -0.1618431   0.0000000
  3.9996749  -0.1705303   0.0000000 -78.4742654   0.0000000 -3000.0000000 -90.0000000  -0.1643184   0.0000000
  4.0746687  -0.1699949   0.0000000 -78.4828152   0.0000000 -3000.0000000 -90.0000000  -0.1644910   0.0000000
  4.1496624  -0.1710716   0.0000000 -78.6663639   0.0000000 -3000.0000000 -90.0000000  -0.1666194   0.0000000
  4.2246562  -0.1698047   0.0000000 -78.4477823   0.0000000 -3000.0000000 -90.0000000  -0.1652021   0.0000000
  4.2996499  -0.1725149   0.0000000 -78.1969923   0.0000000 -3000.0000000 -90.0000000  -0.1668851   0.0000000
  4.3746437  -0.1720387   0.0000000 -78.4687608   0.0000000 -3000.0000000 -90.0000000  -0.1667590   0.0000000
  4.4496374  -0.1742604   0.0000000 -78.7232663   0.0000000 -3000.0000000 -90.0000000  -0.1676644   0.0000000
  4.5246312  -0.1744728   0.0000000 -78.3910336   0.0000000 -3000.0000000 -90.0000000  -0.1684086   0.0000000
  4.5996249  -0.1766226   0.0000000 -78.5534979   0.0000000 -3000.0000000 -90.0000000  -0.1711434   0.0000000
  4.6746187  -0.1762713   0.0000000 -78.1607180   0.0000000 -3000.0000000 -90.0000000  -0.1707671   0.0000000
  4.7496124  -0.1760818   0.0000000 -78.2368202   0.0000000 -3000.0000000 -90.0000000  -0.1729459   0.0000000
  4.8246062  -0.1771593   0.0000000 -78.4382851   0.0000000 -3000.0000000 -90.0000000  -0.1728016   0.0000000
  4.8995999  -0.1788431   0.0000000 -78.3805556   0.0000000 -3000.0000000 -90.0000000  -0.1746224   0.0000000
  4.9745936  -0.1809823   0.0000000 -78.2704760   0.0000000 -3000.0000000 -90.0000000  -0.1753090   0.0000000
  5.0495874  -0.1807895   0.0000000 -78.3835522   0.0000000 -3000.0000000 -90.0000000  -0.1748327   0.0000000
  5.1245811  -0.1808584   0.0000000 -78.2727847   0.0000000 -3000.0000000 -90.0000000  -0.1766850   0.0000000
  5.1995749  -0.1815726   0.0000000 -78.4616914   0.0000000 -3000.0000000 -90.0000000  -0.1768026   0.0000000
  5.2745686  -0.1820731   0.0000000 -78.2262421   0.0000000 -3000.0000000 -90.0000000  -0.1780263   0.0000000
  5.3495624  -0.1843354   0.0000000 -78.5282632   0.0000000 -3000.0000000 -90.0000000  -0.1805451   0.0000000
  5.4245561  -0.1837921   0.0000000 -78.4200196   0.0000000 -3000.0000000 -90.0000000  -0.1797524   0.0000000
  5.4995499  -0.1840229   0.0000000 -78.6323418   0.0000000 -3000.0000000 -90.0000000  -0.1800986   0.0000000
  5.5745436  -0.1858159   0.0000000 -78.6355662   0.0000000 -3000.0000000 -90.0000000  -0.1810815   0.0000000
  5.6495374  -0.1864086   0.0000000 -78.2053224   0.0000000 -3000.0000000 -90.0000000  -0.1812206   0.0000000
  5.7245311  -0.1863059   0.0000000 -78.3345784   0.0000000 -3000.0000000 -90.0000000  -0.1820908   0.0000000
  5.7995249  -0.1889024   0.0000000 -78.5675766   0.0000000 -3000.0000000 -90.0000000  -0.1841268   0.0000000
  5.8745186  -0.1883405   0.0000000 -78.3420659   0.0000000 -3000.0000000 -90.0000000  -0.1827610   0.0000000
  5.9495124  -0.1901527   0.0000000 -78.0016754   0.0000000 -3000.0000000 -90.0000000  -0.1855484   0.0000000
  6.0245061  -0.1900572   0.0000000 -78.4832315   0.0000000 -3000.0000000 -90.0000000  -0.1863992   0.0000000
  6.0994999  -0.1912083   0.0000000 -78.4551000   0.0000000 -3000.0000000 -90.0000000  -0.1859278   0.0000000
  6.1744936  -0.1921076   0.0000000 -78.1758726   0.0000000 -3000.0000000 -90.0000000  -0.1875768   0.0000000
  6.2494874  -0.1935353   0.0000000 -78.0560679   0.0000000 -3000.0000000 -90.0000000  -0.1878858   0.0000000
  6.3244811  -0.1934004   0.0000000 -78.2291123   0.0000000 -3000.0000000 -90.0000000  -0.1886809   0.0000000
  6.3994749  -0.1948751   0.0000000 -77.9980523   0.0000000 -3000.0000000 -90.0000000  -0.1896622   0.0000000
  6.4744686  -0.1948994   0.0000000 -78.1175629   0.0000000 -3000.0000000 -90.0000000  -0.1896802   0.0000000
  6.5494624  -0.1962887   0.0000000 -78.6945355   0.0000000 -3000.0000000 -90.0000000  -0.1896169   0.0000000
  6.6244561  -0.1969659   0.0000000 -78.2823064   0.0000000 -3000.0000000 -90.0000000  -0.1928266   0.0000000
  6.6994499  -0.1987805   0.0000000 -78.1323949   0.0000000 -3000.0000000 -90.0000000  -0.1931669   0.0000000
  6.7744436  -0.1993910   0.0000000 -78.3521276   0.0000000 -3000.0000000 -90.0000000  -0.1935980   0.0000000
  6.8494374  -0.1997031   0.0000000 -78.4461889   0.0000000 -3000.0000000 -90.0000000  -0.1946265   0.0000000
  6.9244311  -0.2016371   0.0000000 -78.4788480   0.0000000 -3000.0000000 -90.0000000  -0.1960968   0.0000000
  6.9994249  -0.2022817   0.0000000 -78.7005846   0.0000000 -3000.0000000 -90.0000000  -0.1966482   0.0000000
  7.0744186  -0.2017407   0.0000000 -78.3799225   0.0000000 -3000.0000000 -90.0000000  -0.1947624   0.0000000
  7.1494124  -0.2036603   0.0000000 -78.2075504   0.0000000 -3000.0000000 -90.0000000  -0.1976947   0.0000000
  7.2244061  -0.2042703   0.0000000 -77.8145343   0.0000000 -3000.0000000 -90.0000000  -0.1982400   0.0000000
  7.2993998  -0.2035641   0.0000000 -78.4375567   0.0000000 -3000.0000000 -90.0000000  -0.1968810   0.0000000
  7.3743936  -0.2063480   0.0000000 -78.5954754   0.0000000 -3000.0000000 -90.0000000  -0.2002075   0.0000000
  7.4493873  -0.2057426   0.0000000 -78.2656921   0.0000000 -3000.0000000 -90.0000000  -0.2015942   0.0000000
  7.5243811  -0.2060318   0.0000000 -78.6834637   0.0000000 -3000.0000000 -90.0000000  -0.2008226   0.0000000
  7.5993748  -0.2083855   0.0000000 -78.5806064   0.0000000 -3000.0000000 -90.0000000  -0.2024345   0.0000000
  7.6743686  -0.2086667   0.0000000 -78.5173416   0.0000000 -3000.0000000 -90.0000000  -0.2029668   0.0000000
  7.7493623  -0.2094714   0.0000000 -78.7608528   0.0000000 -3000.0000000 -90.0000000  -0.2035192   0.0000000
  7.8243561  -0.2116234   0.0000000 -78.2755782   0.0000000 -3000.0000000 -90.0000000  -0.2043602   0.0000000
  7.8993498  -0.2122789   0.0000000 -78.2292593   0.0000000 -3000.0000000 -90.0000000  -0.2057378   0.0000000
  7.9743436  -0.2122094   0.0000000 -78.2267834   0.0000000 -3000.0000000 -90.0000000  -0.2063283   0.0000000
  8.0493373  -0.2112613   0.0000000 -78.6019590   0.0000000 -3000.0000000 -90.0000000  -0.2067453   0.0000000
  8.1243311  -0.2130805   0.0000000 -78.0047621   0.0000000 -3000.0000000 -90.0000000  -0.2076145   0.0000000
  8.1993248  -0.2127492   0.0000000 -78.1243152   0.0000000 -3000.0000000 -90.0000000  -0.2076410   0.0000000
  8.2743186  -0.2128475   0.0000000 -78.6754738   0.0000000 -3000.0000000 -90.0000000  -0.2078442   0.0000000
  8.3493123  -0.2135462   0.0000000 -78.2908912   0.0000000 -3000.0000000 -90.0000000  -0.2082039   0.0000000
  8.4243061  -0.2145098   0.0000000 -78.6086828   0.0000000 -3000.0000000 -90.0000000  -0.2104742   0.0000000
  8.4992998  -0.2142461   0.0000000 -78.1020624   0.0000000 -3000.0000000 -90.0000000  -0.2096965   0.0000000
  8.5742936  -0.2151954   0.0000000 -78.2988746   0.0000000 -3000.0000000 -90.0000000  -0.2110180   0.0000000
  8.6492873  -0.2160639   0.0000000 -78.4316168   0.0000000 -3000.0000000 -90.0000000  -0.2125641   0.0000000
  8.7242811  -0.2176922   0.0000000 -78.2373843   0.0000000 -3000.0000000 -90.0000000  -0.2127927   0.0000000
  8.7992748  -0.2187637   0.0000000 -78.2448467   0.0000000 -3000.0000000 -90.0000000  -0.2136849   0.0000000
  8.8742686  -0.2189037   0.0000000 -78.6198081   0.0000000 -3000.0000000 -90.0000000  -0.2151049   0.0000000
  8.9492623  -0.2212507   0.0000000 -78.4398556   0.0000000 -3000.0000000 -90.0000000  -0.2154698   0.0000000
  9.0242561  -0.2196587   0.0000000 -78.1923880   0.0000000 -3000.0000000 -90.0000000  -0.2140112   0.0000000
  9.0992498  -0.2215216   0.0000000 -78.2735091   0.0000000 -3000.0000000 -90.0000000  -0.2167909   0.0000000
  9.1742436  -0.2231387   0.0000000 -78.4607371   0.0000000 -3000.0000000 -90.0000000  -0.2178698   0.0000000
  9.2492373  -0.2235194   0.0000000 -77.9475058   0.0000000 -3000.0000000 -90.0000000  -0.2192726   0.0000000
  9.3242311  -0.2249373   0.0000000 -78.8182540   0.0000000 -3000.0000000 -90.0000000  -0.2197332   0.0000000
  9.3992248  -0.2271331   0.0000000 -78.4995076   0.0000000 -3000.0000000 -90.0000000  -0.2215636   0.0000000
  9.4742186  -0.2264235   0.0000000 -78.2250019   0.0000000 -3000.0000000 -90.0000000  -0.2212863   0.0000000
  9.5492123  -0.2282340   0.0000000 -78.5023746   0.0000000 -3000.0000000 -90.0000000  -0.2226732   0.0000000
  9.6242061  -0.2265270   0.0000000 -78.2923617   0.0000000 -3000.0000000 -90.0000000  -0.2219420   0.0000000
  9.6991998  -0.2282872   0.0000000 -78.3675178   0.0000000 -3000.0000000 -90.0000000  -0.2241952   0.0000000
  9.7741935  -0.2278433   0.0000000 -78.5029158   0.0000000 -3000.0000000 -90.0000000  -0.2226304   0.0000000
  9.8491873  -0.2280767   0.0000000 -78.3525390   0.0000000 -3000.0000000 -90.0000000  -0.2242062   0.0000000
  9.9241810  -0.2299352   0.0000000 -78.1909595   0.0000000 -3000.0000000 -90.0000000  -0.2255376   0.0000000
  9.9991748  -0.2316948   0.0000000 -78.9804729   0.0000000 -3000.0000000 -90.0000000  -0.2264482   0.0000000
 10.0741685  -0.2319322   0.0000000 -78.4734759   0.0000000 -3000.0000000 -90.0000000  -0.2272898   0.0000000
 10.1491623  -0.2332895   0.0000000 -78.7525129   0.0000000 -3000.0000000 -90.0000000  -0.2288017   0.0000000
 10.2241560  -0.2348041   0.0000000 -78.3765720   0.0000000 -3000.0000000 -90.0000000  -0.2305684   0.0000000
 10.2991498  -0.2338728   0.0000000 -78.1179361   0.0000000 -3000.0000000 -90.0000000  -0.2289137   0.0000000
 10.3741435  -0.2337091   0.0000000 -78.0098737   0.0000000 -3000.0000000 -90.0000000  -0.2298146   0.0000000
 10.4491373  -0.2353432   0.0000000 -78.4957079   0.0000000 -3000.0000000 -90.0000000  -0.2303342   0.0000000
 10.5241310  -0.2350685   0.0000000 -78.0546031   0.0000000 -3000.0000000 -90.0000000  -0.2311933   0.0000000
 10.5991248  -0.2366629   0.0000000 -78.3343343   0.0000000 -3000.0000000 -90.0000000  -0.2324242   0.0000000
 10.6741185  -0.2384995   0.0000000 -78.1996193   0.0000000 -3000.0000000 -90.0000000  -0.2329553   0.0000000
 10.7491123  -0.2381374   0.0000000 -78.8345001   0.0000000 -3000.0000000 -90.0000000  -0.2343073   0.0000000
 10.8241060  -0.2394494   0.0000000 -78.2987974   0.0000000 -3000.0000000 -90.0000000  -0.2349775   0.0000000
 10.8990998  -0.2403851   0.0000000 -78.1597400   0.0000000 -3000.0000000 -90.0000000  -0.2359203   0.0000000
 10.9740935  -0.2403109   0.0000000 -78.2357483   0.0000000 -3000.0000000 -90.0000000  -0.2356988   0.0000000
 11.0490873  -0.2400927   0.0000000 -78.3979967   0.0000000 -3000.0000000 -90.0000000  -0.2359558   0.0000000
 11.1240810  -0.2406820   0.0000000 -78.1197972   0.0000000 -3000.0000000 -90.0000000  -0.2365998   0.0000000
 11.1990748  -0.2421425   0.0000000 -78.1916069   0.0000000 -3000.0000000 -90.0000000  -0.2377439   0.0000000
 11.2740685  -0.2437667   0.0000000 -78.2768415   0.0000000 -3000.0000000 -90.0000000  -0.2397204   0.0000000
 11.3490623  -0.2438501   0.0000000 -78.4713811   0.0000000 -3000.0000000 -90.0000000  -0.2392556   0.0000000
 11.4240560  -0.2453855   0.0000000 -78.1354357   0.0000000 -3000.0000000 -90.0000000  -0.2402491   0.0000000
 11.4990498  -0.2458447   0.0000000 -78.4982483   0.0000000 -3000.0000000 -90.0000000  -0.2405922   0.0000000
 11.5740435  -0.2482830   0.0000000 -78.1029937   0.0000000 -3000.0000000 -90.0000000  -0.2424025   0.0000000
 11.6490373  -0.2487027   0.0000000 -78.2889165   0.0000000 -3000.0000000 -90.0000000  -0.2438623   0.0000000
 11.7240310  -0.2489979   0.0000000 -78.7761265   0.0000000 -3000.0000000 -90.0000000  -0.2441051   0.0000000
 11.7990248  -0.2477097   0.0000000 -78.5105679   0.0000000 -3000.0000000 -90.0000000  -0.2440870   0.0000000
 11.8740185  -0.2506243   0.0000000 -78.9578379   0.0000000 -3000.0000000 -90.0000000  -0.2454898   0.0000000
 11.9490123  -0.2510120   0.0000000 -78.7693240   0.0000000 -3000.0000000 -90.0000000  -0.2451963   0.0000000
 12.0240060  -0.2516429   0.0000000 -78.4026916   0.0000000 -3000.0000000 -90.0000000  -0.2470698   0.0000000
 12.0989997  -0.2513857   0.0000000 -78.1545297   0.0000000 -3000.0000000 -90.0000000  -0.2473428   0.0000000
 12.1739935  -0.2527583   0.0000000 -78.3905537   0.0000000 -3000.0000000 -90.0000000  -0.2484372   0.0000000
 12.2489872  -0.2538772   0.0000000 -78.1858561   0.0000000 -3000.0000000 -90.0000000  -0.2491257   0.0000000
 12.3239810  -0.2551635   0.0000000 -78.7875063   0.0000000 -3000.0000000 -90.0000000  -0.2498209   0.0000000
 12.3989747  -0.2550247   0.0000000 -78.2290611   0.0000000 -3000.0000000 -90.0000000  -0.2502189   0.0000000
 12.4739685  -0.2567761   0.0000000 -78.6942733   0.0000000 -3000.0000000 -90.0000000  -0.2515517   0.0000000
 12.5489622  -0.2553015   0.0000000 -78.3584159   0.0000000 -3000.0000000 -90.0000000  -0.2513393   0.0000000
 12.6239560  -0.2580561   0.0000000 -78.7456284   0.0000000 -3000.0000000 -90.0000000  -0.2531339   0.0000000
 12.6989497  -0.2580285   0.0000000 -78.4946519   0.0000000 -3000.0000000 -90.0000000  -0.2536802   0.0000000
 12.7739435  -0.2576152   0.0000000 -78.3534013   0.0000000 -3000.0000000 -90.0000000  -0.2544194   0.0000000
 12.8489372  -0.2588776   0.0000000 -78.0248023   0.0000000 -3000.0000000 -90.0000000  -0.2539410   0.0000000
 12.9239310  -0.2600185   0.0000000 -78.3038084   0.0000000 -3000.0000000 -90.0000000  -0.2561134   0.0000000
 12.9989247  -0.2612459   0.0000000 -78.2796504   0.0000000 -3000.0000000 -90.0000000  -0.2559815   0.0000000
 13.0739185  -0.2635860   0.0000000 -78.3092610   0.0000000 -3000.0000000 -90.0000000  -0.2574918   0.0000000
 13.1489122  -0.2629549   0.0000000 -78.4102198   0.0000000 -3000.0000000 -90.0000000  -0.2592386   0.0000000
 13.2239060  -0.2643181   0.0000000 -78.2335022   0.0000000 -3000.0000000 -90.0000000  -0.2586825   0.0000000
 13.2988997  -0.2656655   0.0000000 -78.3098020   0.0000000 -3000.0000000 -90.0000000  -0.2596489   0.0000000
 13.3738935  -0.2656587   0.0000000 -78.2969704   0.0000000 -3000.0000000 -90.0000000  -0.2616511   0.0000000
 13.4488872  -0.2659229   0.0000000 -78.2859496   0.0000000 -3000.0000000 -90.0000000  -0.2613605   0.0000000
