! ListType=Lin
# MHZ S DB R 50
  0.1000000 -48.8371855 -23.9016140  -0.0610676  -0.2562103 -3000.0000000 -90.0000000 -3000.0000000 -90.0000000
  0.1585735 -47.9578005 -34.6283855  -0.0638857  -0.4326330 -3000.0000000 -90.0000000 -3000.0000000 -90.0000000
  0.2171470 -46.9133114 -41.9124863  -0.0629244  -0.5648570 -3000.0000000 -90.0000000 -3000.0000000 -90.0000000
  0.2757206 -45.9544661 -49.4536810  -0.0631596  -0.7034968 -3000.0000000 -90.0000000 -3000.0000000 -90.0000000
  0.3342941 -44.9796000 -53.3667591  -0.0633274  -0.8402870 -3000.0000000 -90.0000000 -3000.0000000 -90.0000000
  0.3928676 -44.0785487 -57.9478163  -0.0634456  -0.9769725 -3000.0000000 -90.0000000 -3000.0000000 -90.0000000
  0.4514411 -43.1708053 -61.4599736  -0.0634522  -1.1150082 -3000.0000000 -90.0000000 -3000.0000000 -90.0000000
  0.5100147 -42.4151313 -64.5751918  -0.0640523  -1.2516937 -3000.0000000 -90.0000000 -3000.0000000 -90.0000000
  0.5685882 -41.6051605 -66.7982453  -0.0640832  -1.3896470 -3000.0000000 -90.0000000 -3000.0000000 -90.0000000
  0.6271617 -40.9029056 -68.7065267  -0.0642824  -1.5251220 -3000.0000000 -90.0000000 -3000.0000000 -90.0000000
  0.6857352 -40.2295909 -70.4386120  -0.0642174  -1.6644344 -3000.0000000 -90.0000000 -3000.0000000 -90.0000000
  0.7443087 -39.6606830 -72.2960513  -0.0646677  -1.8017413 -3000.0000000 -90.0000000 -3000.0000000 -90.0000000
  0.8028823 -39.0159443 -73.2954624  -0.0647176  -1.9407305 -3000.0000000 -90.0000000 -3000.0000000 -90.0000000
  0.8614558 -38.5114837 -74.9301053  -0.0646436  -2.0768702 -3000.0000000 -90.0000000 -3000.0000000 -90.0000000
  0.9200293 -37.9498444 -75.8100519  -0.0645104  -2.2133483 -3000.0000000 -90.0000000 -3000.0000000 -90.0000000
  0.9786028 -37.4824297 -76.9115777  -0.0648317  -2.3513801 -3000.0000000 -90.0000000 -3000.0000000 -90.0000000
  1.0371764 -36.9684358 -77.8432257  -0.0651016  -2.4891124 -3000.0000000 -90.0000000 -3000.0000000 -90.0000000
  1.0957499 -36.5319916 -78.7502863  -0.0651821  -2.6291301 -3000.0000000 -90.0000000 -3000.0000000 -90.0000000
  1.1543234 -36.1327983 -79.4442679  -0.0653085  -2.7659334 -3000.0000000 -90.0000000 -3000.0000000 -90.0000000
  1.2128969 -35.6981390 -80.0556273  -0.0654536  -2.9011041 -3000.0000000 -90.0000000 -3000.0000000 -90.0000000
  1.2714704 -35.3115812 -80.9641803  -0.0658292  -3.0394938 -3000.0000000 -90.0000000 -3000.0000000 -90.0000000
  1.3300440 -34.9517904 -81.2341517  -0.0658234  -3.1773066 -3000.0000000 -90.0000000 -3000.0000000 -90.0000000
  1.3886175 -34.5806558 -81.8888657  -0.0657548  -3.3154684 -3000.0000000 -90.0000000 -3000.0000000 -90.0000000
  1.4471910 -34.2346087 -82.5333567  -0.0660902  -3.4525236 -3000.0000000 -90.0000000 -3000.0000000 -90.0000000
  1.5057645 -33.8874157 -83.0322469  -0.0658368  -3.5916278 -3000.0000000 -90.0000000 -3000.0000000 -90.0000000
  1.5643381 -33.5932757 -83.4407798  -0.0664076  -3.7260517 -3000.0000000 -90.0000000 -3000.0000000 -90.0000000
  1.6229116 -33.2761896 -83.9694293  -0.0668906  -3.8644387 -3000.0000000 -90.0000000 -3000.0000000 -90.0000000
  1.6814851 -32.9923277 -84.3657958  -0.0669878  -4.0036700 -3000.0000000 -90.0000000 -3000.0000000 -90.0000000
  1.7400586 -32.6904139 -84.8182051  -0.0672374  -4.1411006 -3000.0000000 -90.0000000 -3000.0000000 -90.0000000
  1.7986321 -32.4012368 -85.1603225  -0.0671004  -4.2798443 -3000.0000000 -90.0000000 -3000.0000000 -90.0000000
  1.8572057 -32.1135339 -85.6138731  -0.0672432  -4.4161305 -3000.0000000 -90.0000000 -3000.0000000 -90.0000000
  1.9157792 -31.8673160 -85.9386477  -0.0672521  -4.5511723 -3000.0000000 -90.0000000 -3000.0000000 -90.0000000
  1.9743527 -31.6232604 -86.4023905  -0.0679481  -4.6898103 -3000.0000000 -90.0000000 -3000.0000000 -90.0000000
  2.0329262 -31.3481228 -86.6873995  -0.0679554  -4.8291157 -3000.0000000 -90.0000000 -3000.0000000 -90.0000000
  2.0914998 -31.1293730 -86.9658216  -0.0680328  -4.9660689 -3000.0000000 -90.0000000 -3000.0000000 -90.0000000
  2.1500733 -30.8970013 -87.3844674  -0.0689977  -5.1024958 -3000.0000000 -90.0000000 -3000.0000000 -90.0000000
  2.2086468 -30.6523873 -87.6126028  -0.0692633  -5.2423735 -3000.0000000 -90.0000000 -3000.0000000 -90.0000000
  2.2672203 -30.4329958 -87.9490063  -0.0688738  -5.3783049 -3000.0000000 -90.0000000 -3000.0000000 -90.0000000
  2.3257938 -30.2130367 -88.2729655  -0.0696794  -5.5146902 -3000.0000000 -90.0000000 -3000.0000000 -90.0000000
  2.3843674 -29.9873765 -88.5861140  -0.0696408  -5.6527362 -3000.0000000 -90.0000000 -3000.0000000 -90.0000000
  2.4429409 -29.7946232 -88.8092803  -0.0700670  -5.7920807 -3000.0000000 -90.0000000 -3000.0000000 -90.0000000
  2.5015144 -29.6059100 -89.1775030  -0.0703913  -5.9292624 -3000.0000000 -90.0000000 -3000.0000000 -90.0000000
  2.5600879 -29.3871992 -89.3748346  -0.0706493  -6.0642730 -3000.0000000 -90.0000000 -3000.0000000 -90.0000000
  2.6186615 -29.2007318 -89.6850703  -0.0708644  -6.2031279 -3000.0000000 -90.0000000 -3000.0000000 -90.0000000
  2.6772350 -29.0145971 -89.8920767  -0.0715578  -6.3378800 -3000.0000000 -90.0000000 -3000.0000000 -90.0000000
  2.7358085 -28.8302371 -90.1173092  -0.0718954  -6.4757518 -3000.0000000 -90.0000000 -3000.0000000 -90.0000000
  2.7943820 -28.6429889 -90.4203444  -0.0720563  -6.6142691 -3000.0000000 -90.0000000 -3000.0000000 -90.0000000
  2.8529555 -28.4755767 -90.6735571  -0.0724914  -6.7517110 -3000.0000000 -90.0000000 -3000.0000000 -90.0000000
  2.9115291 -28.2918065 -90.8587942  -0.0728592  -6.8913288 -3000.0000000 -90.0000000 -3000.0000000 -90.0000000
  2.9701026 -28.1209119 -91.1100851  -0.0730069  -7.0299906 -3000.0000000 -90.0000000 -3000.0000000 -90.0000000
  3.0286761 -27.9533722 -91.3821380  -0.0734698  -7.1679775 -3000.0000000 -90.0000000 -3000.0000000 -90.0000000
  3.0872496 -27.7878402 -91.5498423  -0.0738029  -7.3053447 -3000.0000000 -90.0000000 -3000.0000000 -90.0000000
  3.1458232 -27.6309576 -91.8511424  -0.0736909  -7.4393044 -3000.0000000 -90.0000000 -3000.0000000 -90.0000000
  3.2043967 -27.4738778 -92.0925861  -0.0742642  -7.5749361 -3000.0000000 -90.0000000 -3000.0000000 -90.0000000
  3.2629702 -27.3111969 -92.2598941  -0.0748638  -7.7123419 -3000.0000000 -90.0000000 -3000.0000000 -90.0000000
  3.3215437 -27.1639991 -92.4766006  -0.0747934  -7.8486592 -3000.0000000 -90.0000000 -3000.0000000 -90.0000000
  3.3801172 -27.0103849 -92.7202708  -0.0754344  -7.9876857 -3000.0000000 -90.0000000 -3000.0000000 -90.0000000
  3.4386908 -26.8636944 -92.9539044  -0.0755298  -8.1247456 -3000.0000000 -90.0000000 -3000.0000000 -90.0000000
  3.4972643 -26.7341099 -93.1461617  -0.0764031  -8.2614215 -3000.0000000 -90.0000000 -3000.0000000 -90.0000000
  3.5558378 -26.5827011 -93.4108721  -0.0770870  -8.3971994 -3000.0000000 -90.0000000 -3000.0000000 -90.0000000
  3.6144113 -26.4421377 -93.5488515  -0.0775756  -8.5354806 -3000.0000000 -90.0000000 -3000.0000000 -90.0000000
  3.6729849 -26.3030720 -93.7646073  -0.0776605  -8.6722605 -3000.0000000 -90.0000000 -3000.0000000 -90.0000000
  3.7315584 -26.1646217 -93.9860790  -0.0783076  -8.8070266 -3000.0000000 -90.0000000 -3000.0000000 -90.0000000
  3.7901319 -26.0307925 -94.1231350  -0.0786681  -8.9467208 -3000.0000000 -90.0000000 -3000.0000000 -90.0000000
  3.8487054 -25.8960730 -94.3509910  -0.0791254  -9.0827226 -3000.0000000 -90.0000000 -3000.0000000 -90.0000000
  3.9072789 -25.7748643 -94.5693347  -0.0796177  -9.2206673 -3000.0000000 -90.0000000 -3000.0000000 -90.0000000
  3.9658525 -25.6455317 -94.7755229  -0.0802194  -9.3584424 -3000.0000000 -90.0000000 -3000.0000000 -90.0000000
  4.0244260 -25.5260073 -94.9380117  -0.0804257  -9.4931557 -3000.0000000 -90.0000000 -3000.0000000 -90.0000000
  4.0829995 -25.3934294 -95.1007636  -0.0809127  -9.6309365 -3000.0000000 -90.0000000 -3000.0000000 -90.0000000
  4.1415730 -25.2811055 -95.2960095  -0.0815656  -9.7684408 -3000.0000000 -90.0000000 -3000.0000000 -90.0000000
  4.2001466 -25.1599543 -95.5293752  -0.0821794  -9.9072316 -3000.0000000 -90.0000000 -3000.0000000 -90.0000000
  4.2587201 -25.0396548 -95.7380685  -0.0825667 -10.0427800 -3000.0000000 -90.0000000 -3000.0000000 -90.0000000
  4.3172936 -24.9288163 -95.9000033  -0.0829199 -10.1811389 -3000.0000000 -90.0000000 -3000.0000000 -90.0000000
  4.3758671 -24.8044080 -96.1024555  -0.0832977 -10.3174880 -3000.0000000 -90.0000000 -3000.0000000 -90.0000000
  4.4344406 -24.6951071 -96.2875206  -0.0838445 -10.4536266 -3000.0000000 -90.0000000 -3000.0000000 -90.0000000
  4.4930142 -24.5805230 -96.4647809  -0.0845560 -10.5915727 -3000.0000000 -90.0000000 -3000.0000000 -90.0000000
  4.5515877 -24.4712947 -96.6171443  -0.0849883 -10.7281397 -3000.0000000 -90.0000000 -3000.0000000 -90.0000000
  4.6101612 -24.3668007 -96.7582677  -0.0855462 -10.8671393 -3000.0000000 -90.0000000 -3000.0000000 -90.0000000
  4.6687347 -24.2569406 -96.9841438  -0.0861034 -11.0004676 -3000.0000000 -90.0000000 -3000.0000000 -90.0000000
  4.7273083 -24.1520760 -97.1699251  -0.0867488 -11.1387541 -3000.0000000 -90.0000000 -3000.0000000 -90.0000000
  4.7858818 -24.0478682 -97.2898002  -0.0868867 -11.2767389 -3000.0000000 -90.0000000 -3000.0000000 -90.0000000
  4.8444553 -23.9534441 -97.4967117  -0.0881428 -11.4121363 -3000.0000000 -90.0000000 -3000.0000000 -90.0000000
  4.9030288 -23.8411243 -97.6568842  -0.0881845 -11.5502422 -3000.0000000 -90.0000000 -3000.0000000 -90.0000000
  4.9616023 -23.7391425 -97.8922364  -0.0888857 -11.6876613 -3000.0000000 -90.0000000 -3000.0000000 -90.0000000
  5.0201759 -23.6411623 -98.0258699  -0.0894673 -11.8237655 -3000.0000000 -90.0000000 -3000.0000000 -90.0000000
  5.0787494 -23.5451911 -98.2201644  -0.0900364 -11.9611342 -3000.0000000 -90.0000000 -3000.0000000 -90.0000000
  5.1373229 -23.4467717 -98.4053763  -0.0905718 -12.0983030 -3000.0000000 -90.0000000 -3000.0000000 -90.0000000
  5.1958964 -23.3492393 -98.5433713  -0.0912446 -12.2331455 -3000.0000000 -90.0000000 -3000.0000000 -90.0000000
  5.2544700 -23.2590659 -98.6983025  -0.0917796 -12.3717495 -3000.0000000 -90.0000000 -3000.0000000 -90.0000000
  5.3130435 -23.1676072 -98.8764129  -0.0922681 -12.5068752 -3000.0000000 -90.0000000 -3000.0000000 -90.0000000
  5.3716170 -23.0728340 -99.0054212  -0.0927243 -12.6435631 -3000.0000000 -90.0000000 -3000.0000000 -90.0000000
  5.4301905 -22.9834582 -99.2320065  -0.0934398 -12.7820068 -3000.0000000 -90.0000000 -3000.0000000 -90.0000000
  5.4887640 -22.8877437 -99.3919180  -0.0938494 -12.9190587 -3000.0000000 -90.0000000 -3000.0000000 -90.0000000
  5.5473376 -22.8034505 -99.5467330  -0.0948207 -13.0545805 -3000.0000000 -90.0000000 -3000.0000000 -90.0000000
  5.6059111 -22.7134082 -99.7575964  -0.0949786 -13.1928515 -3000.0000000 -90.0000000 -3000.0000000 -90.0000000
  5.6644846 -22.6276317 -99.9351794  -0.0956483 -13.3302101 -3000.0000000 -90.0000000 -3000.0000000 -90.0000000
  5.7230581 -22.5361566 -100.0773225  -0.0964635 -13.4661967 -3000.0000000 -90.0000000 -3000.0000000 -90.0000000
  5.7816317 -22.4559684 -100.1990795  -0.0968616 -13.6027831 -3000.0000000 -90.0000000 -3000.0000000 -90.0000000
  5.8402052 -22.3708969 -100.4027610  -0.0975417 -13.7382316 -3000.0000000 -90.0000000 -3000.0000000 -90.0000000
  5.8987787 -22.2852542 -100.5436658  -0.0982314 -13.8757251 -3000.0000000 -90.0000000 -3000.0000000 -90.0000000
  5.9573522 -22.2015340 -100.7412727  -0.0986666 -14.0116678 -3000.0000000 -90.0000000 -3000.0000000 -90.0000000
  6.0159257 -22.1237706 -100.8655090  -0.0993262 -14.1493652 -3000.0000000 -90.0000000 -3000.0000000 -90.0000000
  6.0744993 -22.0398975 -101.0506434  -0.1002803 -14.2863236 -3000.0000000 -90.0000000 -3000.0000000 -90.0000000
  6.1330728 -21.9594073 -101.2078625  -0.1006892 -14.4220608 -3000.0000000 -90.0000000 -3000.0000000 -90.0000000
  6.1916463 -21.8829848 -101.3441346  -0.1015001 -14.5589686 -3000.0000000 -90.0000000 -3000.0000000 -90.0000000
  6.2502198 -21.8015755 -101.5296296  -0.1021572 -14.6965193 -3000.0000000 -90.0000000 -3000.0000000 -90.0000000
  6.3087934 -21.7257071 -101.6557701  -0.1026988 -14.8329898 -3000.0000000 -90.0000000 -3000.0000000 -90.0000000
  6.3673669 -21.6476660 -101.8760065  -0.1035131 -14.9688041 -3000.0000000 -90.0000000 -3000.0000000 -90.0000000
  6.4259404 -21.5688520 -102.0123882  -0.1041738 -15.1060100 -3000.0000000 -90.0000000 -3000.0000000 -90.0000000
  6.4845139 -21.4946766 -102.1873164  -0.1050304 -15.2417591 -3000.0000000 -90.0000000 -3000.0000000 -90.0000000
  6.5430874 -21.4236063 -102.3274932  -0.1055226 -15.3759023 -3000.0000000 -90.0000000 -3000.0000000 -90.0000000
  6.6016610 -21.3490866 -102.5000016  -0.1062301 -15.5148615 -3000.0000000 -90.0000000 -3000.0000000 -90.0000000
  6.6602345 -21.2786966 -102.6015965  -0.1068764 -15.6507023 -3000.0000000 -90.0000000 -3000.0000000 -90.0000000
  6.7188080 -21.2019740 -102.7935212  -0.1073259 -15.7880309 -3000.0000000 -90.0000000 -3000.0000000 -90.0000000
  6.7773815 -21.1316103 -102.9611669  -0.1082295 -15.9246180 -3000.0000000 -90.0000000 -3000.0000000 -90.0000000
  6.8359551 -21.0573923 -103.1289740  -0.1089518 -16.0633497 -3000.0000000 -90.0000000 -3000.0000000 -90.0000000
  6.8945286 -20.9895684 -103.2551498  -0.1099185 -16.1955280 -3000.0000000 -90.0000000 -3000.0000000 -90.0000000
  6.9531021 -20.9179970 -103.4215981  -0.1103063 -16.3346694 -3000.0000000 -90.0000000 -3000.0000000 -90.0000000
  7.0116756 -20.8503490 -103.5742899  -0.1110966 -16.4693434 -3000.0000000 -90.0000000 -3000.0000000 -90.0000000
  7.0702491 -20.7828441 -103.7410230  -0.1117228 -16.6060052 -3000.0000000 -90.0000000 -3000.0000000 -90.0000000
  7.1288227 -20.7132360 -103.8929544  -0.1129699 -16.7433919 -3000.0000000 -90.0000000 -3000.0000000 -90.0000000
  7.1873962 -20.6484686 -104.0562964  -0.1135497 -16.8789995 -3000.0000000 -90.0000000 -3000.0000000 -90.0000000
  7.2459697 -20.5807904 -104.1779879  -0.1143120 -17.0136067 -3000.0000000 -90.0000000 -3000.0000000 -90.0000000
  7.3045432 -20.5183409 -104.3727967  -0.1155684 -17.1519074 -3000.0000000 -90.0000000 -3000.0000000 -90.0000000
  7.3631168 -20.4481307 -104.5057107  -0.1163860 -17.2863717 -3000.0000000 -90.0000000 -3000.0000000 -90.0000000
  7.4216903 -20.3827488 -104.6684977  -0.1171011 -17.4254220 -3000.0000000 -90.0000000 -3000.0000000 -90.0000000
  7.4802638 -20.3194911 -104.8156000  -0.1176554 -17.5596058 -3000.0000000 -90.0000000 -3000.0000000 -90.0000000
  7.5388373 -20.2578427 -104.9731450  -0.1184350 -17.6965745 -3000.0000000 -90.0000000 -3000.0000000 -90.0000000
  7.5974108 -20.1947491 -105.1354356  -0.1192670 -17.8316709 -3000.0000000 -90.0000000 -3000.0000000 -90.0000000
  7.6559844 -20.1320792 -105.2564245  -0.1200813 -17.9689431 -3000.0000000 -90.0000000 -3000.0000000 -90.0000000
  7.7145579 -20.0703381 -105.4366570  -0.1208470 -18.1059859 -3000.0000000 -90.0000000 -3000.0000000 -90.0000000
  7.7731314 -20.0053614 -105.6050210  -0.1218695 -18.2415025 -3000.0000000 -90.0000000 -3000.0000000 -90.0000000
  7.8317049 -19.9476343 -105.7683027  -0.1226135 -18.3789105 -3000.0000000 -90.0000000 -3000.0000000 -90.0000000
  7.8902785 -19.8882356 -105.9141276  -0.1232521 -18.5118710 -3000.0000000 -90.0000000 -3000.0000000 -90.0000000
  7.9488520 -19.8229684 -106.0533106  -0.1238581 -18.6485465 -3000.0000000 -90.0000000 -3000.0000000 -90.0000000
  8.0074255 -19.7682821 -106.2125358  -0.1248567 -18.7876816 -3000.0000000 -90.0000000 -3000.0000000 -90.0000000
  8.0659990 -19.7099532 -106.3638264  -0.1258057 -18.9217187 -3000.0000000 -90.0000000 -3000.0000000 -90.0000000
  8.1245725 -19.6545784 -106.5147734  -0.1269077 -19.0594130 -3000.0000000 -90.0000000 -3000.0000000 -90.0000000
  8.1831461 -19.5908315 -106.6772949  -0.1275447 -19.1950136 -3000.0000000 -90.0000000 -3000.0000000 -90.0000000
  8.2417196 -19.5403598 -106.8013849  -0.1283301 -19.3310740 -3000.0000000 -90.0000000 -3000.0000000 -90.0000000
  8.3002931 -19.4751484 -106.9576871  -0.1288797 -19.4646541 -3000.0000000 -90.0000000 -3000.0000000 -90.0000000
  8.3588666 -19.4214350 -107.1065327  -0.1300151 -19.6009930 -3000.0000000 -90.0000000 -3000.0000000 -90.0000000
  8.4174402 -19.3695576 -107.2160535  -0.1305863 -19.7392695 -3000.0000000 -90.0000000 -3000.0000000 -90.0000000
  8.4760137 -19.3099718 -107.4074937  -0.1315850 -19.8739565 -3000.0000000 -90.0000000 -3000.0000000 -90.0000000
  8.5345872 -19.2537272 -107.5654044  -0.1321703 -20.0113846 -3000.0000000 -90.0000000 -3000.0000000 -90.0000000
  8.5931607 -19.2029436 -107.6974932  -0.1331688 -20.1472713 -3000.0000000 -90.0000000 -3000.0000000 -90.0000000
  8.6517342 -19.1504832 -107.8385592  -0.1343754 -20.2806064 -3000.0000000 -90.0000000 -3000.0000000 -90.0000000
  8.7103078 -19.0933080 -108.0421980  -0.1350206 -20.4179676 -3000.0000000 -90.0000000 -3000.0000000 -90.0000000
  8.7688813 -19.0412391 -108.1452131  -0.1356931 -20.5538109 -3000.0000000 -90.0000000 -3000.0000000 -90.0000000
  8.8274548 -18.9901684 -108.3161607  -0.1365519 -20.6904518 -3000.0000000 -90.0000000 -3000.0000000 -90.0000000
  8.8860283 -18.9378764 -108.4691985  -0.1374016 -20.8257596 -3000.0000000 -90.0000000 -3000.0000000 -90.0000000
  8.9446019 -18.8827287 -108.6183040  -0.1384580 -20.9629600 -3000.0000000 -90.0000000 -3000.0000000 -90.0000000
  9.0031754 -18.8325232 -108.7482490  -0.1395843 -21.0964621 -3000.0000000 -90.0000000 -3000.0000000 -90.0000000
  9.0617489 -18.7805076 -108.9234159  -0.1405185 -21.2325450 -3000.0000000 -90.0000000 -3000.0000000 -90.0000000
  9.1203224 -18.7296694 -109.0659539  -0.1412944 -21.3709955 -3000.0000000 -90.0000000 -3000.0000000 -90.0000000
  9.1788959 -18.6795585 -109.2215356  -0.1421061 -21.5034939 -3000.0000000 -90.0000000 -3000.0000000 -90.0000000
  9.2374695 -18.6269815 -109.3541409  -0.1426704 -21.6425823 -3000.0000000 -90.0000000 -3000.0000000 -90.0000000
  9.2960430 -18.5829612 -109.5080519  -0.1437354 -21.7774801 -3000.0000000 -90.0000000 -3000.0000000 -90.0000000
  9.3546165 -18.5294357 -109.6612282  -0.1449115 -21.9121073 -3000.0000000 -90.0000000 -3000.0000000 -90.0000000
  9.4131900 -18.4815651 -109.7936058  -0.1457142 -22.0493605 -3000.0000000 -90.0000000 -3000.0000000 -90.0000000
  9.4717636 -18.4324585 -109.9243172  -0.1468464 -22.1841568 -3000.0000000 -90.0000000 -3000.0000000 -90.0000000
  9.5303371 -18.3861035 -110.0761202  -0.1476797 -22.3214325 -3000.0000000 -90.0000000 -3000.0000000 -90.0000000
  9.5889106 -18.3394353 -110.2226619  -0.1486501 -22.4560506 -3000.0000000 -90.0000000 -3000.0000000 -90.0000000
  9.6474841 -18.2883405 -110.3915781  -0.1496559 -22.5921022 -3000.0000000 -90.0000000 -3000.0000000 -90.0000000
  9.7060576 -18.2401539 -110.5313411  -0.1507635 -22.7264220 -3000.0000000 -90.0000000 -3000.0000000 -90.0000000
  9.7646312 -18.1960429 -110.6823387  -0.1514788 -22.8632042 -3000.0000000 -90.0000000 -3000.0000000 -90.0000000
  9.8232047 -18.1528761 -110.8418173  -0.1523559 -22.9981789 -3000.0000000 -90.0000000 -3000.0000000 -90.0000000
  9.8817782 -18.1072064 -110.9790580  -0.1531800 -23.1330282 -3000.0000000 -90.0000000 -3000.0000000 -90.0000000
  9.9403517 -18.0595110 -111.1091737  -0.1542605 -23.2688643 -3000.0000000 -90.0000000 -3000.0000000 -90.0000000
  9.9989253 -18.0116188 -111.2632302  -0.1554436 -23.4032103 -3000.0000000 -90.0000000 -3000.0000000 -90.0000000
 10.0574988 -17.9685275 -111.4042128  -0.1566996 -23.5395005 -3000.0000000 -90.0000000 -3000.0000000 -90.0000000
 10.1160723 -17.9250816 -111.5725666  -0.1572213 -23.6757781 -3000.0000000 -90.0000000 -3000.0000000 -90.0000000
 10.1746458 -17.8803926 -111.7086589  -0.1585138 -23.8105770 -3000.0000000 -90.0000000 -3000.0000000 -90.0000000
 10.2332193 -17.8341646 -111.8434855  -0.1591028 -23.9465752 -3000.0000000 -90.0000000 -3000.0000000 -90.0000000
 10.2917929 -17.7949984 -112.0121246  -0.1599959 -24.0821479 -3000.0000000 -90.0000000 -3000.0000000 -90.0000000
