! ListType=Lin
# MHz S DB R 50
 19.0000000 -76.1206621   0.0000000
 19.0068426 -76.1120143   0.0000000
 19.0136852 -76.0591245   0.0000000
 19.0205279 -76.0671741   0.0000000
 19.0273705 -76.0611387   0.0000000
 19.0342131 -76.2631474   0.0000000
 19.0410557 -76.1354155   0.0000000
 19.0478983 -76.1794326   0.0000000
 19.0547410 -76.0926255   0.0000000
 19.0615836 -76.1665229   0.0000000
 19.0684262 -76.0433210   0.0000000
 19.0752688 -76.2107786   0.0000000
 19.0821114 -76.1445628   0.0000000
 19.0889541 -76.1030687   0.0000000
 19.0957967 -76.0492998   0.0000000
 19.1026393 -76.2164596   0.0000000
 19.1094819 -76.3523829   0.0000000
 19.1163245 -76.1258215   0.0000000
 19.1231672 -76.0744947   0.0000000
 19.1300098 -76.0323917   0.0000000
 19.1368524 -76.1832341   0.0000000
 19.1436950 -76.2047273   0.0000000
 19.1505376 -76.2898979   0.0000000
 19.1573803 -76.1709100   0.0000000
 19.1642229 -76.2634275   0.0000000
 19.1710655 -76.1062512   0.0000000
 19.1779081 -76.2530791   0.0000000
 19.1847507 -76.1381729   0.0000000
 19.1915934 -76.0815138   0.0000000
 19.1984360 -76.0693692   0.0000000
 19.2052786 -76.0952221   0.0000000
 19.2121212 -76.1072226   0.0000000
 19.2189638 -75.9811365   0.0000000
 19.2258065 -76.1178559   0.0000000
 19.2326491 -76.1145730   0.0000000
 19.2394917 -76.1740731   0.0000000
 19.2463343 -76.2242962   0.0000000
 19.2531769 -76.1687500   0.0000000
 19.2600196 -75.9961785   0.0000000
 19.2668622 -76.1253074   0.0000000
 19.2737048 -75.9953816   0.0000000
 19.2805474 -76.2738334   0.0000000
 19.2873900 -76.1848962   0.0000000
 19.2942326 -76.3541742   0.0000000
 19.3010753 -76.0130557   0.0000000
 19.3079179 -76.2132809   0.0000000
 19.3147605 -76.1424780   0.0000000
 19.3216031 -76.1689239   0.0000000
 19.3284457 -76.0916035   0.0000000
 19.3352884 -76.2159391   0.0000000
 19.3421310 -76.2093092   0.0000000
 19.3489736 -76.2329959   0.0000000
 19.3558162 -76.2536542   0.0000000
 19.3626588 -76.2341960   0.0000000
 19.3695015 -75.9650491   0.0000000
 19.3763441 -76.1628895   0.0000000
 19.3831867 -76.1119819   0.0000000
 19.3900293 -76.2405182   0.0000000
 19.3968719 -76.1618006   0.0000000
 19.4037146 -76.2085847   0.0000000
 19.4105572 -76.0713154   0.0000000
 19.4173998 -76.1821051   0.0000000
 19.4242424 -76.1222327   0.0000000
 19.4310850 -76.2622233   0.0000000
 19.4379277 -76.1373926   0.0000000
 19.4447703 -76.1515056   0.0000000
 19.4516129 -76.2943933   0.0000000
 19.4584555 -76.2321594   0.0000000
 19.4652981 -76.1165167   0.0000000
 19.4721408 -76.2133262   0.0000000
 19.4789834 -76.2110799   0.0000000
 19.4858260 -76.1141765   0.0000000
 19.4926686 -76.2766059   0.0000000
 19.4995112 -76.1297713   0.0000000
 19.5063539 -76.0725355   0.0000000
 19.5131965 -76.1232384   0.0000000
 19.5200391 -76.1885918   0.0000000
 19.5268817 -76.1448289   0.0000000
 19.5337243 -76.2088134   0.0000000
 19.5405670 -76.1854799   0.0000000
 19.5474096 -76.1669618   0.0000000
 19.5542522 -76.1848983   0.0000000
 19.5610948 -76.0577041   0.0000000
 19.5679374 -76.0401381   0.0000000
 19.5747801 -76.0892802   0.0000000
 19.5816227 -76.0819444   0.0000000
 19.5884653 -76.0072108   0.0000000
 19.5953079 -76.1379031   0.0000000
 19.6021505 -76.1651432   0.0000000
 19.6089932 -76.1075650   0.0000000
 19.6158358 -76.1368549   0.0000000
 19.6226784 -76.0376755   0.0000000
 19.6295210 -76.1256025   0.0000000
 19.6363636 -76.1026634   0.0000000
 19.6432063 -76.1463960   0.0000000
 19.6500489 -76.1265796   0.0000000
 19.6568915 -76.0702242   0.0000000
 19.6637341 -76.0744752   0.0000000
 19.6705767 -76.2175179   0.0000000
 19.6774194 -76.1920316   0.0000000
 19.6842620 -76.2161555   0.0000000
 19.6911046 -76.2186359   0.0000000
 19.6979472 -76.0962015   0.0000000
 19.7047898 -76.3151470   0.0000000
 19.7116325 -76.2861929   0.0000000
 19.7184751 -76.1238618   0.0000000
 19.7253177 -76.1930171   0.0000000
 19.7321603 -76.3082107   0.0000000
 19.7390029 -76.1963239   0.0000000
 19.7458456 -75.9813098   0.0000000
 19.7526882 -76.1271066   0.0000000
 19.7595308 -76.1010600   0.0000000
 19.7663734 -76.0483598   0.0000000
 19.7732160 -76.2105241   0.0000000
 19.7800587 -76.1830117   0.0000000
 19.7869013 -76.1504658   0.0000000
 19.7937439 -76.1652789   0.0000000
 19.8005865 -76.0923836   0.0000000
 19.8074291 -76.2302238   0.0000000
 19.8142717 -76.2323193   0.0000000
 19.8211144 -76.1244893   0.0000000
 19.8279570 -76.2125459   0.0000000
 19.8347996 -76.1977173   0.0000000
 19.8416422 -76.1476109   0.0000000
 19.8484848 -76.1346384   0.0000000
 19.8553275 -76.3829393   0.0000000
 19.8621701 -76.1105039   0.0000000
 19.8690127 -76.0873212   0.0000000
 19.8758553 -76.1315733   0.0000000
 19.8826979 -76.2671197   0.0000000
 19.8895406 -76.1131956   0.0000000
 19.8963832 -76.0748144   0.0000000
 19.9032258 -76.1113959   0.0000000
 19.9100684 -76.2912625   0.0000000
 19.9169110 -76.0908845   0.0000000
 19.9237537 -76.1473429   0.0000000
 19.9305963 -76.1958583   0.0000000
 19.9374389 -76.2300289   0.0000000
 19.9442815 -76.1189354   0.0000000
 19.9511241 -76.1474481   0.0000000
 19.9579668 -76.1981592   0.0000000
 19.9648094 -76.3194361   0.0000000
 19.9716520 -76.2145257   0.0000000
 19.9784946 -76.2130578   0.0000000
 19.9853372 -76.1730228   0.0000000
 19.9921799 -76.1766801   0.0000000
 19.9990225 -64.3599762   0.0000000
 20.0058651 -76.2050917   0.0000000
 20.0127077 -76.2459060   0.0000000
 20.0195503 -76.0792572   0.0000000
 20.0263930 -76.0608766   0.0000000
 20.0332356 -76.1031191   0.0000000
 20.0400782 -76.3081310   0.0000000
 20.0469208 -76.1348111   0.0000000
 20.0537634 -76.0036040   0.0000000
 20.0606061 -76.0926069   0.0000000
 20.0674487 -76.0936252   0.0000000
 20.0742913 -76.1424347   0.0000000
 20.0811339 -76.1512150   0.0000000
 20.0879765 -76.1341320   0.0000000
 20.0948192 -76.1864381   0.0000000
 20.1016618 -76.2092809   0.0000000
 20.1085044 -76.2293814   0.0000000
 20.1153470 -76.2437172   0.0000000
 20.1221896 -76.1560827   0.0000000
 20.1290323 -75.9721429   0.0000000
 20.1358749 -76.1805075   0.0000000
 20.1427175 -76.0443858   0.0000000
 20.1495601 -76.1481789   0.0000000
 20.1564027 -76.2807413   0.0000000
 20.1632454 -76.0210927   0.0000000
 20.1700880 -76.2637930   0.0000000
 20.1769306 -76.1631602   0.0000000
 20.1837732 -76.2356641   0.0000000
 20.1906158 -76.0241182   0.0000000
 20.1974585 -76.0930981   0.0000000
 20.2043011 -76.2192423   0.0000000
 20.2111437 -75.9265170   0.0000000
 20.2179863 -76.2377158   0.0000000
 20.2248289 -76.2977893   0.0000000
 20.2316716 -76.2188941   0.0000000
 20.2385142 -76.2086497   0.0000000
 20.2453568 -76.1454032   0.0000000
 20.2521994 -76.0386725   0.0000000
 20.2590420 -76.0954686   0.0000000
 20.2658847 -76.2259100   0.0000000
 20.2727273 -76.1903670   0.0000000
 20.2795699 -76.1874250   0.0000000
 20.2864125 -76.0954517   0.0000000
 20.2932551 -76.3448217   0.0000000
 20.3000978 -76.1741165   0.0000000
 20.3069404 -76.0724809   0.0000000
 20.3137830 -76.1362314   0.0000000
 20.3206256 -76.1467094   0.0000000
 20.3274682 -76.2139942   0.0000000
 20.3343109 -76.2311726   0.0000000
 20.3411535 -75.9807486   0.0000000
 20.3479961 -75.9428799   0.0000000
 20.3548387 -76.3398804   0.0000000
 20.3616813 -76.0943194   0.0000000
 20.3685239 -76.0730970   0.0000000
 20.3753666 -76.1940266   0.0000000
 20.3822092 -76.1037304   0.0000000
 20.3890518 -76.1648591   0.0000000
 20.3958944 -76.1101187   0.0000000
 20.4027370 -76.1873096   0.0000000
 20.4095797 -76.2083540   0.0000000
 20.4164223 -76.1321905   0.0000000
 20.4232649 -76.1769950   0.0000000
 20.4301075 -76.2472857   0.0000000
 20.4369501 -76.1435315   0.0000000
 20.4437928 -76.2944480   0.0000000
 20.4506354 -76.1848102   0.0000000
 20.4574780 -76.1541314   0.0000000
 20.4643206 -76.2091787   0.0000000
 20.4711632 -76.2532516   0.0000000
 20.4780059 -76.1783348   0.0000000
 20.4848485 -76.2543238   0.0000000
 20.4916911 -76.1012380   0.0000000
 20.4985337 -75.9352243   0.0000000
 20.5053763 -76.1285445   0.0000000
 20.5122190 -76.1676170   0.0000000
 20.5190616 -76.1987620   0.0000000
 20.5259042 -76.2039650   0.0000000
 20.5327468 -76.2288935   0.0000000
 20.5395894 -76.2805635   0.0000000
 20.5464321 -76.2785941   0.0000000
 20.5532747 -76.2539066   0.0000000
 20.5601173 -76.1790070   0.0000000
 20.5669599 -76.3105905   0.0000000
 20.5738025 -76.1727918   0.0000000
 20.5806452 -75.9566784   0.0000000
 20.5874878 -76.1513428   0.0000000
 20.5943304 -76.3156819   0.0000000
 20.6011730 -76.2409833   0.0000000
 20.6080156 -76.1738563   0.0000000
 20.6148583 -76.2023610   0.0000000
 20.6217009 -76.1685782   0.0000000
 20.6285435 -76.1434229   0.0000000
 20.6353861 -76.1297363   0.0000000
 20.6422287 -76.2241553   0.0000000
 20.6490714 -76.1862263   0.0000000
 20.6559140 -76.1825777   0.0000000
 20.6627566 -76.2006360   0.0000000
 20.6695992 -76.1361474   0.0000000
 20.6764418 -76.2654094   0.0000000
 20.6832845 -76.0826604   0.0000000
 20.6901271 -76.2440449   0.0000000
 20.6969697 -76.1609598   0.0000000
 20.7038123 -76.1430730   0.0000000
 20.7106549 -76.3427374   0.0000000
 20.7174976 -76.1852500   0.0000000
 20.7243402 -76.1774972   0.0000000
 20.7311828 -76.1223356   0.0000000
 20.7380254 -76.1632842   0.0000000
 20.7448680 -76.1087152   0.0000000
 20.7517107 -76.2168618   0.0000000
 20.7585533 -76.2247004   0.0000000
 20.7653959 -76.1501697   0.0000000
 20.7722385 -76.1844355   0.0000000
 20.7790811 -76.2692275   0.0000000
 20.7859238 -76.2536190   0.0000000
 20.7927664 -76.1490784   0.0000000
 20.7996090 -76.0776385   0.0000000
 20.8064516 -76.3502550   0.0000000
 20.8132942 -76.2199236   0.0000000
 20.8201369 -76.3113591   0.0000000
 20.8269795 -76.2964215   0.0000000
 20.8338221 -76.0091490   0.0000000
 20.8406647 -76.2755184   0.0000000
 20.8475073 -76.1653418   0.0000000
 20.8543500 -76.3272966   0.0000000
 20.8611926 -76.2280599   0.0000000
 20.8680352 -76.0092150   0.0000000
 20.8748778 -76.0478569   0.0000000
 20.8817204 -76.2979355   0.0000000
 20.8885630 -76.0450497   0.0000000
 20.8954057 -76.2191586   0.0000000
 20.9022483 -76.2711242   0.0000000
 20.9090909 -76.0339250   0.0000000
 20.9159335 -76.1425207   0.0000000
 20.9227761 -76.2645642   0.0000000
 20.9296188 -76.0493852   0.0000000
 20.9364614 -76.1238085   0.0000000
 20.9433040 -76.2029559   0.0000000
 20.9501466 -76.2459469   0.0000000
 20.9569892 -76.1581271   0.0000000
 20.9638319 -76.2696377   0.0000000
 20.9706745 -76.1487320   0.0000000
 20.9775171 -75.9552698   0.0000000
 20.9843597 -76.2259377   0.0000000
 20.9912023 -76.3858519   0.0000000
 20.9980450 -76.0283162   0.0000000
 21.0048876 -76.3198735   0.0000000
 21.0117302 -76.1781721   0.0000000
 21.0185728 -76.0978010   0.0000000
 21.0254154 -76.0541903   0.0000000
 21.0322581 -76.3012075   0.0000000
 21.0391007 -76.2033316   0.0000000
 21.0459433 -76.3560406   0.0000000
 21.0527859 -76.2580278   0.0000000
 21.0596285 -76.1584873   0.0000000
 21.0664712 -76.2103509   0.0000000
 21.0733138 -76.1913787   0.0000000
 21.0801564 -76.1863880   0.0000000
 21.0869990 -76.2178925   0.0000000
 21.0938416 -76.0918534   0.0000000
 21.1006843 -76.1704489   0.0000000
 21.1075269 -76.3115798   0.0000000
 21.1143695 -76.1085327   0.0000000
 21.1212121 -76.0454851   0.0000000
 21.1280547 -76.1472164   0.0000000
 21.1348974 -76.2951964   0.0000000
 21.1417400 -76.1920329   0.0000000
 21.1485826 -76.2889485   0.0000000
 21.1554252 -76.1208696   0.0000000
 21.1622678 -76.1990088   0.0000000
 21.1691105 -76.1313458   0.0000000
 21.1759531 -76.1785409   0.0000000
 21.1827957 -76.2226308   0.0000000
 21.1896383 -76.0710051   0.0000000
 21.1964809 -76.0281230   0.0000000
 21.2033236 -76.1324396   0.0000000
 21.2101662 -76.2654146   0.0000000
 21.2170088 -76.1733478   0.0000000
 21.2238514 -76.1145721   0.0000000
 21.2306940 -76.2879103   0.0000000
 21.2375367 -76.1323481   0.0000000
 21.2443793 -76.1281940   0.0000000
 21.2512219 -75.9063784   0.0000000
 21.2580645 -76.3263482   0.0000000
 21.2649071 -76.0822647   0.0000000
 21.2717498 -76.1410888   0.0000000
 21.2785924 -76.3101064   0.0000000
 21.2854350 -76.1255843   0.0000000
 21.2922776 -76.0013824   0.0000000
 21.2991202 -76.1887994   0.0000000
 21.3059629 -76.1430982   0.0000000
 21.3128055 -76.3495718   0.0000000
 21.3196481 -76.1975869   0.0000000
 21.3264907 -76.2283354   0.0000000
 21.3333333 -76.1508500   0.0000000
 21.3401760 -76.1856936   0.0000000
 21.3470186 -76.1506142   0.0000000
 21.3538612 -76.0884635   0.0000000
 21.3607038 -76.2833367   0.0000000
 21.3675464 -76.2026111   0.0000000
 21.3743891 -76.0953353   0.0000000
 21.3812317 -76.0935023   0.0000000
 21.3880743 -76.2592420   0.0000000
 21.3949169 -76.0287326   0.0000000
 21.4017595 -76.3460697   0.0000000
 21.4086022 -76.2890488   0.0000000
 21.4154448 -76.2015524   0.0000000
 21.4222874 -76.2424446   0.0000000
 21.4291300 -76.2169709   0.0000000
 21.4359726 -76.2680714   0.0000000
 21.4428152 -76.1548525   0.0000000
 21.4496579 -76.1182005   0.0000000
 21.4565005 -76.2455609   0.0000000
 21.4633431 -76.3004867   0.0000000
 21.4701857 -76.2620854   0.0000000
 21.4770283 -76.3924570   0.0000000
 21.4838710 -76.1880438   0.0000000
 21.4907136 -76.1158228   0.0000000
 21.4975562 -76.2691071   0.0000000
 21.5043988 -76.1080982   0.0000000
 21.5112414 -76.3005679   0.0000000
 21.5180841 -76.4031499   0.0000000
 21.5249267 -76.3884835   0.0000000
 21.5317693 -76.1507610   0.0000000
 21.5386119 -76.2089680   0.0000000
 21.5454545 -76.3300216   0.0000000
 21.5522972 -75.9754859   0.0000000
 21.5591398 -76.2540127   0.0000000
 21.5659824 -76.2074339   0.0000000
 21.5728250 -76.1332175   0.0000000
 21.5796676 -76.1517690   0.0000000
 21.5865103 -76.3861871   0.0000000
 21.5933529 -76.2890460   0.0000000
 21.6001955 -76.1666689   0.0000000
 21.6070381 -76.1674509   0.0000000
 21.6138807 -76.2934756   0.0000000
 21.6207234 -76.1309701   0.0000000
 21.6275660 -76.2293167   0.0000000
 21.6344086 -76.1244521   0.0000000
 21.6412512 -76.1973390   0.0000000
 21.6480938 -76.3837720   0.0000000
 21.6549365 -76.2342128   0.0000000
 21.6617791 -76.1972670   0.0000000
 21.6686217 -76.2416686   0.0000000
 21.6754643 -76.2437074   0.0000000
 21.6823069 -76.1915504   0.0000000
 21.6891496 -76.3083036   0.0000000
 21.6959922 -76.3022533   0.0000000
 21.7028348 -76.1373605   0.0000000
 21.7096774 -76.2472692   0.0000000
 21.7165200 -76.1933532   0.0000000
 21.7233627 -76.0940483   0.0000000
 21.7302053 -76.1696162   0.0000000
 21.7370479 -76.1275746   0.0000000
 21.7438905 -76.1816865   0.0000000
 21.7507331 -76.1527368   0.0000000
 21.7575758 -76.1591803   0.0000000
 21.7644184 -76.3630221   0.0000000
 21.7712610 -76.0793303   0.0000000
 21.7781036 -76.1780385   0.0000000
 21.7849462 -76.1727534   0.0000000
 21.7917889 -76.3201487   0.0000000
 21.7986315 -76.2657290   0.0000000
 21.8054741 -76.4142666   0.0000000
 21.8123167 -76.0193899   0.0000000
 21.8191593 -76.2784844   0.0000000
 21.8260020 -76.2558731   0.0000000
 21.8328446 -76.4163156   0.0000000
 21.8396872 -76.3205798   0.0000000
 21.8465298 -76.3318560   0.0000000
 21.8533724 -76.1943246   0.0000000
 21.8602151 -76.4014693   0.0000000
 21.8670577 -76.0283370   0.0000000
 21.8739003 -76.1265103   0.0000000
 21.8807429 -76.1592036   0.0000000
 21.8875855 -76.2228256   0.0000000
 21.8944282 -76.2595824   0.0000000
 21.9012708 -76.2509257   0.0000000
 21.9081134 -76.2414170   0.0000000
 21.9149560 -76.1064605   0.0000000
 21.9217986 -76.1380671   0.0000000
 21.9286413 -76.1810043   0.0000000
 21.9354839 -76.0791335   0.0000000
 21.9423265 -76.3862619   0.0000000
 21.9491691 -76.3485944   0.0000000
 21.9560117 -76.1791153   0.0000000
 21.9628543 -76.3712998   0.0000000
 21.9696970 -76.2189221   0.0000000
 21.9765396 -76.2005085   0.0000000
 21.9833822 -76.1968538   0.0000000
 21.9902248 -76.2416061   0.0000000
 21.9970674 -76.0583809   0.0000000
 22.0039101 -76.2591001   0.0000000
 22.0107527 -76.3454988   0.0000000
 22.0175953 -76.1981158   0.0000000
 22.0244379 -76.3359568   0.0000000
 22.0312805 -76.2813362   0.0000000
 22.0381232 -76.2824600   0.0000000
 22.0449658 -76.0977258   0.0000000
 22.0518084 -76.3089222   0.0000000
 22.0586510 -76.2562185   0.0000000
 22.0654936 -76.3600445   0.0000000
 22.0723363 -76.3846422   0.0000000
 22.0791789 -76.2480174   0.0000000
 22.0860215 -76.1746224   0.0000000
 22.0928641 -76.3211442   0.0000000
 22.0997067 -76.3262004   0.0000000
 22.1065494 -76.1126745   0.0000000
 22.1133920 -76.3505771   0.0000000
 22.1202346 -76.3728047   0.0000000
 22.1270772 -76.1051878   0.0000000
 22.1339198 -76.3101135   0.0000000
 22.1407625 -76.2215339   0.0000000
 22.1476051 -76.2715794   0.0000000
 22.1544477 -76.0479821   0.0000000
 22.1612903 -76.1796170   0.0000000
 22.1681329 -76.2254995   0.0000000
 22.1749756 -76.2350066   0.0000000
 22.1818182 -76.1932178   0.0000000
 22.1886608 -76.2610254   0.0000000
 22.1955034 -76.2758133   0.0000000
 22.2023460 -76.1466924   0.0000000
 22.2091887 -76.1750986   0.0000000
 22.2160313 -76.2466540   0.0000000
 22.2228739 -76.1166753   0.0000000
 22.2297165 -76.2642050   0.0000000
 22.2365591 -76.1952842   0.0000000
 22.2434018 -76.2979674   0.0000000
 22.2502444 -76.3661142   0.0000000
 22.2570870 -76.3085167   0.0000000
 22.2639296 -76.1551779   0.0000000
 22.2707722 -76.1535798   0.0000000
 22.2776149 -76.2148695   0.0000000
 22.2844575 -76.0943630   0.0000000
 22.2913001 -76.2545726   0.0000000
 22.2981427 -76.1501059   0.0000000
 22.3049853 -76.3301857   0.0000000
 22.3118280 -76.2117330   0.0000000
 22.3186706 -76.2041107   0.0000000
 22.3255132 -76.1834500   0.0000000
 22.3323558 -76.2894076   0.0000000
 22.3391984 -76.2096264   0.0000000
 22.3460411 -76.3850871   0.0000000
 22.3528837 -76.2780844   0.0000000
 22.3597263 -76.1776669   0.0000000
 22.3665689 -76.2050685   0.0000000
 22.3734115 -76.1644004   0.0000000
 22.3802542 -76.3231970   0.0000000
 22.3870968 -76.2372727   0.0000000
 22.3939394 -76.2489348   0.0000000
 22.4007820 -76.2316871   0.0000000
 22.4076246 -76.1735987   0.0000000
 22.4144673 -76.1359050   0.0000000
 22.4213099 -76.1713706   0.0000000
 22.4281525 -76.2443076   0.0000000
 22.4349951 -76.3437651   0.0000000
 22.4418377 -76.0807629   0.0000000
 22.4486804 -76.1596815   0.0000000
 22.4555230 -76.2801654   0.0000000
 22.4623656 -76.1530960   0.0000000
 22.4692082 -76.1847927   0.0000000
 22.4760508 -76.1672425   0.0000000
 22.4828935 -76.3414344   0.0000000
 22.4897361 -76.2497568   0.0000000
 22.4965787 -76.1468980   0.0000000
 22.5034213 -76.1411556   0.0000000
 22.5102639 -76.2645181   0.0000000
 22.5171065 -76.2387702   0.0000000
 22.5239492 -76.2034827   0.0000000
 22.5307918 -76.1810661   0.0000000
 22.5376344 -76.1007035   0.0000000
 22.5444770 -76.2667789   0.0000000
 22.5513196 -76.2404708   0.0000000
 22.5581623 -76.1342452   0.0000000
 22.5650049 -76.2043439   0.0000000
 22.5718475 -76.0753196   0.0000000
 22.5786901 -76.0791301   0.0000000
 22.5855327 -76.3152442   0.0000000
 22.5923754 -76.1990361   0.0000000
 22.5992180 -76.2755674   0.0000000
 22.6060606 -76.2103653   0.0000000
 22.6129032 -76.2992507   0.0000000
 22.6197458 -76.2324245   0.0000000
 22.6265885 -76.1035146   0.0000000
 22.6334311 -76.2607785   0.0000000
 22.6402737 -76.2701777   0.0000000
 22.6471163 -76.3227566   0.0000000
 22.6539589 -76.1656853   0.0000000
 22.6608016 -76.3317398   0.0000000
 22.6676442 -75.9007713   0.0000000
 22.6744868 -75.9275634   0.0000000
 22.6813294 -76.1275909   0.0000000
