! ListType=Lin
# MHz S DB R 50
 19.0000000 -74.7501495   0.0000000
 19.0068426 -74.8579864   0.0000000
 19.0136852 -74.8994335   0.0000000
 19.0205279 -74.8693073   0.0000000
 19.0273705 -74.9336968   0.0000000
 19.0342131 -74.8111455   0.0000000
 19.0410557 -74.8366132   0.0000000
 19.0478983 -74.8469262   0.0000000
 19.0547410 -75.0052609   0.0000000
 19.0615836 -74.8761553   0.0000000
 19.0684262 -74.9810219   0.0000000
 19.0752688 -74.7454055   0.0000000
 19.0821114 -74.9159907   0.0000000
 19.0889541 -74.8070209   0.0000000
 19.0957967 -75.0362209   0.0000000
 19.1026393 -74.7365951   0.0000000
 19.1094819 -75.0000839   0.0000000
 19.1163245 -74.9141911   0.0000000
 19.1231672 -74.8731688   0.0000000
 19.1300098 -74.8534431   0.0000000
 19.1368524 -74.9408790   0.0000000
 19.1436950 -74.7096979   0.0000000
 19.1505376 -74.9396264   0.0000000
 19.1573803 -74.7991010   0.0000000
 19.1642229 -74.7837946   0.0000000
 19.1710655 -74.8022289   0.0000000
 19.1779081 -74.8702881   0.0000000
 19.1847507 -74.8946062   0.0000000
 19.1915934 -74.9067639   0.0000000
 19.1984360 -74.7815612   0.0000000
 19.2052786 -74.8981308   0.0000000
 19.2121212 -74.8754796   0.0000000
 19.2189638 -74.8460507   0.0000000
 19.2258065 -74.9690448   0.0000000
 19.2326491 -74.9838544   0.0000000
 19.2394917 -74.9347217   0.0000000
 19.2463343 -74.9515864   0.0000000
 19.2531769 -74.9928412   0.0000000
 19.2600196 -74.7731493   0.0000000
 19.2668622 -74.9379156   0.0000000
 19.2737048 -74.9615388   0.0000000
 19.2805474 -74.8577196   0.0000000
 19.2873900 -75.0000669   0.0000000
 19.2942326 -74.9477623   0.0000000
 19.3010753 -74.9653489   0.0000000
 19.3079179 -75.0617930   0.0000000
 19.3147605 -74.9411740   0.0000000
 19.3216031 -74.4016141   0.0000000
 19.3284457 -72.0890548   0.0000000
 19.3352884 -71.3817481   0.0000000
 19.3421310 -74.4617171   0.0000000
 19.3489736 -74.9572077   0.0000000
 19.3558162 -74.9024499   0.0000000
 19.3626588 -75.1740438   0.0000000
 19.3695015 -74.8008356   0.0000000
 19.3763441 -74.8982571   0.0000000
 19.3831867 -74.9505459   0.0000000
 19.3900293 -74.9824659   0.0000000
 19.3968719 -74.6822521   0.0000000
 19.4037146 -74.8011856   0.0000000
 19.4105572 -74.9340275   0.0000000
 19.4173998 -75.0784024   0.0000000
 19.4242424 -74.8895793   0.0000000
 19.4310850 -75.0093095   0.0000000
 19.4379277 -74.9908262   0.0000000
 19.4447703 -74.8430547   0.0000000
 19.4516129 -75.0239339   0.0000000
 19.4584555 -75.1309093   0.0000000
 19.4652981 -74.9705715   0.0000000
 19.4721408 -74.9655097   0.0000000
 19.4789834 -74.7998904   0.0000000
 19.4858260 -74.8894196   0.0000000
 19.4926686 -75.0818212   0.0000000
 19.4995112 -75.1397312   0.0000000
 19.5063539 -74.7762337   0.0000000
 19.5131965 -74.8814910   0.0000000
 19.5200391 -74.9226563   0.0000000
 19.5268817 -75.0968038   0.0000000
 19.5337243 -74.9389953   0.0000000
 19.5405670 -74.9748259   0.0000000
 19.5474096 -74.9975359   0.0000000
 19.5542522 -75.0446587   0.0000000
 19.5610948 -75.1861138   0.0000000
 19.5679374 -74.8234336   0.0000000
 19.5747801 -74.9066728   0.0000000
 19.5816227 -74.9811495   0.0000000
 19.5884653 -75.0938082   0.0000000
 19.5953079 -75.0672050   0.0000000
 19.6021505 -75.1456286   0.0000000
 19.6089932 -74.9489677   0.0000000
 19.6158358 -75.0385864   0.0000000
 19.6226784 -75.0222356   0.0000000
 19.6295210 -74.9524932   0.0000000
 19.6363636 -74.9206898   0.0000000
 19.6432063 -75.0952632   0.0000000
 19.6500489 -75.0415153   0.0000000
 19.6568915 -75.0471304   0.0000000
 19.6637341 -74.9085101   0.0000000
 19.6705767 -75.0650348   0.0000000
 19.6774194 -74.9198251   0.0000000
 19.6842620 -74.8751663   0.0000000
 19.6911046 -75.0185812   0.0000000
 19.6979472 -74.7710564   0.0000000
 19.7047898 -75.0049410   0.0000000
 19.7116325 -74.9444618   0.0000000
 19.7184751 -75.0485440   0.0000000
 19.7253177 -75.1008459   0.0000000
 19.7321603 -75.1629298   0.0000000
 19.7390029 -74.9898121   0.0000000
 19.7458456 -74.9504014   0.0000000
 19.7526882 -74.9014946   0.0000000
 19.7595308 -75.1564043   0.0000000
 19.7663734 -75.0809923   0.0000000
 19.7732160 -75.2007536   0.0000000
 19.7800587 -75.0568479   0.0000000
 19.7869013 -75.1431185   0.0000000
 19.7937439 -75.0728435   0.0000000
 19.8005865 -75.0500711   0.0000000
 19.8074291 -74.9466749   0.0000000
 19.8142717 -75.1271584   0.0000000
 19.8211144 -74.8949953   0.0000000
 19.8279570 -75.1150532   0.0000000
 19.8347996 -74.8966225   0.0000000
 19.8416422 -75.0242446   0.0000000
 19.8484848 -75.1388140   0.0000000
 19.8553275 -75.0161992   0.0000000
 19.8621701 -75.1055455   0.0000000
 19.8690127 -75.0413530   0.0000000
 19.8758553 -75.0062935   0.0000000
 19.8826979 -75.1826342   0.0000000
 19.8895406 -75.0149380   0.0000000
 19.8963832 -75.0451006   0.0000000
 19.9032258 -75.1921318   0.0000000
 19.9100684 -74.9974125   0.0000000
 19.9169110 -74.9839315   0.0000000
 19.9237537 -75.0426957   0.0000000
 19.9305963 -74.9460353   0.0000000
 19.9374389 -74.7923172   0.0000000
 19.9442815 -75.0503292   0.0000000
 19.9511241 -74.8164292   0.0000000
 19.9579668 -74.7679182   0.0000000
 19.9648094 -74.6770221   0.0000000
 19.9716520 -74.5827493   0.0000000
 19.9784946 -74.2663558   0.0000000
 19.9853372 -73.4381035   0.0000000
 19.9921799 -68.5359402   0.0000000
 19.9990225 -42.9173993   0.0000000
 20.0058651 -63.9964421   0.0000000
 20.0127077 -73.0146966   0.0000000
 20.0195503 -74.0805480   0.0000000
 20.0263930 -74.5645702   0.0000000
 20.0332356 -74.6985491   0.0000000
 20.0400782 -74.7772429   0.0000000
 20.0469208 -74.9600898   0.0000000
 20.0537634 -74.7964723   0.0000000
 20.0606061 -74.9553736   0.0000000
 20.0674487 -75.0170952   0.0000000
 20.0742913 -75.0024469   0.0000000
 20.0811339 -75.0771718   0.0000000
 20.0879765 -75.1395027   0.0000000
 20.0948192 -74.9592478   0.0000000
 20.1016618 -75.0238460   0.0000000
 20.1085044 -75.3144435   0.0000000
 20.1153470 -75.0618491   0.0000000
 20.1221896 -74.9387748   0.0000000
 20.1290323 -75.0146494   0.0000000
 20.1358749 -75.1038589   0.0000000
 20.1427175 -75.0341298   0.0000000
 20.1495601 -75.0416636   0.0000000
 20.1564027 -75.0814289   0.0000000
 20.1632454 -75.0936043   0.0000000
 20.1700880 -74.9911355   0.0000000
 20.1769306 -75.1597665   0.0000000
 20.1837732 -75.0456999   0.0000000
 20.1906158 -75.0345227   0.0000000
 20.1974585 -74.8389965   0.0000000
 20.2043011 -75.0479051   0.0000000
 20.2111437 -75.0977819   0.0000000
 20.2179863 -75.0716006   0.0000000
 20.2248289 -75.1007330   0.0000000
 20.2316716 -75.0641997   0.0000000
 20.2385142 -75.0936785   0.0000000
 20.2453568 -74.9602669   0.0000000
 20.2521994 -75.0068502   0.0000000
 20.2590420 -74.7829643   0.0000000
 20.2658847 -74.9086064   0.0000000
 20.2727273 -75.0016615   0.0000000
 20.2795699 -75.1305965   0.0000000
 20.2864125 -74.7628492   0.0000000
 20.2932551 -75.0422545   0.0000000
 20.3000978 -74.9186235   0.0000000
 20.3069404 -75.0951592   0.0000000
 20.3137830 -75.0223175   0.0000000
 20.3206256 -75.1072249   0.0000000
 20.3274682 -74.9957912   0.0000000
 20.3343109 -75.1641958   0.0000000
 20.3411535 -75.1697338   0.0000000
 20.3479961 -75.0705873   0.0000000
 20.3548387 -75.0923545   0.0000000
 20.3616813 -75.1771800   0.0000000
 20.3685239 -75.1797813   0.0000000
 20.3753666 -75.1000593   0.0000000
 20.3822092 -75.0686011   0.0000000
 20.3890518 -75.1009772   0.0000000
 20.3958944 -75.0106062   0.0000000
 20.4027370 -74.9210203   0.0000000
 20.4095797 -75.0824046   0.0000000
 20.4164223 -75.0837507   0.0000000
 20.4232649 -75.0688135   0.0000000
 20.4301075 -75.1428064   0.0000000
 20.4369501 -75.1027502   0.0000000
 20.4437928 -75.0323640   0.0000000
 20.4506354 -75.0462745   0.0000000
 20.4574780 -75.1373300   0.0000000
 20.4643206 -75.0753279   0.0000000
 20.4711632 -75.1098212   0.0000000
 20.4780059 -75.0560295   0.0000000
 20.4848485 -74.9347396   0.0000000
 20.4916911 -74.9796325   0.0000000
 20.4985337 -74.9373422   0.0000000
 20.5053763 -75.0307313   0.0000000
 20.5122190 -75.2058431   0.0000000
 20.5190616 -75.1003714   0.0000000
 20.5259042 -75.0586794   0.0000000
 20.5327468 -75.2035614   0.0000000
 20.5395894 -75.0760920   0.0000000
 20.5464321 -75.0901523   0.0000000
 20.5532747 -75.1632416   0.0000000
 20.5601173 -75.0708576   0.0000000
 20.5669599 -75.0811770   0.0000000
 20.5738025 -75.1256439   0.0000000
 20.5806452 -75.0822959   0.0000000
 20.5874878 -75.1551570   0.0000000
 20.5943304 -75.1415580   0.0000000
 20.6011730 -75.0001617   0.0000000
 20.6080156 -75.0981117   0.0000000
 20.6148583 -75.0416066   0.0000000
 20.6217009 -75.0543084   0.0000000
 20.6285435 -75.2434947   0.0000000
 20.6353861 -75.0722092   0.0000000
 20.6422287 -75.0808835   0.0000000
 20.6490714 -74.9542795   0.0000000
 20.6559140 -75.0665898   0.0000000
 20.6627566 -74.9550386   0.0000000
 20.6695992 -74.9739253   0.0000000
 20.6764418 -75.1268773   0.0000000
 20.6832845 -74.9692963   0.0000000
 20.6901271 -75.0164534   0.0000000
 20.6969697 -75.0940510   0.0000000
 20.7038123 -75.1497863   0.0000000
 20.7106549 -75.0335679   0.0000000
 20.7174976 -75.0321804   0.0000000
 20.7243402 -75.0832522   0.0000000
 20.7311828 -75.1432518   0.0000000
 20.7380254 -75.0647852   0.0000000
 20.7448680 -75.0795026   0.0000000
 20.7517107 -75.1367804   0.0000000
 20.7585533 -75.1243785   0.0000000
 20.7653959 -74.9509948   0.0000000
 20.7722385 -75.1540793   0.0000000
 20.7790811 -75.1410080   0.0000000
 20.7859238 -74.9260030   0.0000000
 20.7927664 -75.0647316   0.0000000
 20.7996090 -74.9427728   0.0000000
 20.8064516 -75.0929460   0.0000000
 20.8132942 -74.9849527   0.0000000
 20.8201369 -75.1785245   0.0000000
 20.8269795 -74.5215830   0.0000000
 20.8338221 -73.5141258   0.0000000
 20.8406647 -74.8394080   0.0000000
 20.8475073 -74.9603803   0.0000000
 20.8543500 -75.0626674   0.0000000
 20.8611926 -75.1264055   0.0000000
 20.8680352 -75.0265740   0.0000000
 20.8748778 -75.1478673   0.0000000
 20.8817204 -75.1443181   0.0000000
 20.8885630 -75.0479556   0.0000000
 20.8954057 -74.9652184   0.0000000
 20.9022483 -75.1887900   0.0000000
 20.9090909 -75.0495651   0.0000000
 20.9159335 -75.1284727   0.0000000
 20.9227761 -75.0223209   0.0000000
 20.9296188 -74.9557326   0.0000000
 20.9364614 -74.9576177   0.0000000
 20.9433040 -75.0219708   0.0000000
 20.9501466 -74.8659264   0.0000000
 20.9569892 -75.0528069   0.0000000
 20.9638319 -74.9705238   0.0000000
 20.9706745 -74.8793226   0.0000000
 20.9775171 -74.6980816   0.0000000
 20.9843597 -74.0912578   0.0000000
 20.9912023 -69.9862059   0.0000000
 20.9980450 -66.3290540   0.0000000
 21.0048876 -67.0214951   0.0000000
 21.0117302 -70.3480435   0.0000000
 21.0185728 -74.0214590   0.0000000
 21.0254154 -74.7106041   0.0000000
 21.0322581 -74.9940014   0.0000000
 21.0391007 -74.9285389   0.0000000
 21.0459433 -74.8742984   0.0000000
 21.0527859 -75.0008117   0.0000000
 21.0596285 -75.1689023   0.0000000
 21.0664712 -75.0050932   0.0000000
 21.0733138 -75.0655554   0.0000000
 21.0801564 -75.0701522   0.0000000
 21.0869990 -74.8264428   0.0000000
 21.0938416 -75.0690431   0.0000000
 21.1006843 -74.9512477   0.0000000
 21.1075269 -75.0349796   0.0000000
 21.1143695 -75.1338039   0.0000000
 21.1212121 -75.0382645   0.0000000
 21.1280547 -75.0233205   0.0000000
 21.1348974 -74.9884421   0.0000000
 21.1417400 -75.1206504   0.0000000
 21.1485826 -74.9566166   0.0000000
 21.1554252 -74.9773037   0.0000000
 21.1622678 -75.0210967   0.0000000
 21.1691105 -74.7085515   0.0000000
 21.1759531 -75.1087123   0.0000000
 21.1827957 -75.1492532   0.0000000
 21.1896383 -74.8988850   0.0000000
 21.1964809 -74.8814209   0.0000000
 21.2033236 -75.0174550   0.0000000
 21.2101662 -75.2053738   0.0000000
 21.2170088 -74.9695531   0.0000000
 21.2238514 -74.9309633   0.0000000
 21.2306940 -75.1146790   0.0000000
 21.2375367 -74.9865813   0.0000000
 21.2443793 -75.0194702   0.0000000
 21.2512219 -74.8786324   0.0000000
 21.2580645 -75.1243423   0.0000000
 21.2649071 -74.9829462   0.0000000
 21.2717498 -75.0553303   0.0000000
 21.2785924 -75.1202867   0.0000000
 21.2854350 -74.9682394   0.0000000
 21.2922776 -74.9568265   0.0000000
 21.2991202 -74.9806665   0.0000000
 21.3059629 -75.1219768   0.0000000
 21.3128055 -74.8040997   0.0000000
 21.3196481 -75.0969617   0.0000000
 21.3264907 -74.9946356   0.0000000
 21.3333333 -73.2637243   0.0000000
 21.3401760 -75.0627353   0.0000000
 21.3470186 -74.9550946   0.0000000
 21.3538612 -75.2215219   0.0000000
 21.3607038 -74.9811442   0.0000000
 21.3675464 -75.0099087   0.0000000
 21.3743891 -75.0163682   0.0000000
 21.3812317 -74.9919489   0.0000000
 21.3880743 -74.9499445   0.0000000
 21.3949169 -75.0375338   0.0000000
 21.4017595 -74.8850277   0.0000000
 21.4086022 -75.0443806   0.0000000
 21.4154448 -75.0052033   0.0000000
 21.4222874 -75.1141851   0.0000000
 21.4291300 -74.6697918   0.0000000
 21.4359726 -75.0794243   0.0000000
 21.4428152 -75.0698606   0.0000000
 21.4496579 -75.0020459   0.0000000
 21.4565005 -75.0602950   0.0000000
 21.4633431 -74.7640462   0.0000000
 21.4701857 -74.8981478   0.0000000
 21.4770283 -74.9446070   0.0000000
 21.4838710 -74.9784693   0.0000000
 21.4907136 -74.8647206   0.0000000
 21.4975562 -74.8494900   0.0000000
 21.5043988 -74.7718691   0.0000000
 21.5112414 -74.7981188   0.0000000
 21.5180841 -74.8867448   0.0000000
 21.5249267 -74.8643349   0.0000000
 21.5317693 -74.9058495   0.0000000
 21.5386119 -74.8678249   0.0000000
 21.5454545 -75.0073680   0.0000000
 21.5522972 -74.9568917   0.0000000
 21.5591398 -75.0098042   0.0000000
 21.5659824 -75.1203589   0.0000000
 21.5728250 -75.0460670   0.0000000
 21.5796676 -74.6965025   0.0000000
 21.5865103 -74.9239671   0.0000000
 21.5933529 -74.9784622   0.0000000
 21.6001955 -74.8491265   0.0000000
 21.6070381 -75.2782562   0.0000000
 21.6138807 -75.1270956   0.0000000
 21.6207234 -75.0162313   0.0000000
 21.6275660 -74.8226539   0.0000000
 21.6344086 -74.9964688   0.0000000
 21.6412512 -75.0327297   0.0000000
 21.6480938 -74.9926669   0.0000000
 21.6549365 -75.1797413   0.0000000
 21.6617791 -74.9555973   0.0000000
 21.6686217 -74.9617893   0.0000000
 21.6754643 -75.0661743   0.0000000
 21.6823069 -75.1356226   0.0000000
 21.6891496 -75.0838420   0.0000000
 21.6959922 -75.0159209   0.0000000
 21.7028348 -75.0440327   0.0000000
 21.7096774 -75.2395392   0.0000000
 21.7165200 -74.9946732   0.0000000
 21.7233627 -75.0447955   0.0000000
 21.7302053 -75.2430096   0.0000000
 21.7370479 -75.0117566   0.0000000
 21.7438905 -74.9830976   0.0000000
 21.7507331 -75.1081978   0.0000000
 21.7575758 -75.1838978   0.0000000
 21.7644184 -75.1350454   0.0000000
 21.7712610 -74.9149501   0.0000000
 21.7781036 -74.7683542   0.0000000
 21.7849462 -74.9411130   0.0000000
 21.7917889 -75.0034455   0.0000000
 21.7986315 -75.1419494   0.0000000
 21.8054741 -75.1346374   0.0000000
 21.8123167 -75.1528608   0.0000000
 21.8191593 -74.9774831   0.0000000
 21.8260020 -75.0338026   0.0000000
 21.8328446 -74.9772861   0.0000000
 21.8396872 -74.9565845   0.0000000
 21.8465298 -75.0528922   0.0000000
 21.8533724 -74.0556299   0.0000000
 21.8602151 -73.4787012   0.0000000
 21.8670577 -72.9149304   0.0000000
 21.8739003 -72.2213516   0.0000000
 21.8807429 -72.6405229   0.0000000
 21.8875855 -73.3769264   0.0000000
 21.8944282 -73.9381646   0.0000000
 21.9012708 -75.1360968   0.0000000
 21.9081134 -75.0240692   0.0000000
 21.9149560 -75.1386618   0.0000000
 21.9217986 -74.9242742   0.0000000
 21.9286413 -74.9415858   0.0000000
 21.9354839 -75.0087618   0.0000000
 21.9423265 -75.1141433   0.0000000
 21.9491691 -75.0214415   0.0000000
 21.9560117 -75.0932045   0.0000000
 21.9628543 -75.0916773   0.0000000
 21.9696970 -75.0885447   0.0000000
 21.9765396 -75.1197340   0.0000000
 21.9833822 -75.0193562   0.0000000
 21.9902248 -74.8980904   0.0000000
 21.9970674 -75.1452627   0.0000000
 22.0039101 -74.9969083   0.0000000
 22.0107527 -75.1013951   0.0000000
 22.0175953 -75.0458638   0.0000000
 22.0244379 -74.9535048   0.0000000
 22.0312805 -75.0614382   0.0000000
 22.0381232 -75.0793273   0.0000000
 22.0449658 -75.1438276   0.0000000
 22.0518084 -75.0940673   0.0000000
 22.0586510 -75.1715031   0.0000000
 22.0654936 -74.9955597   0.0000000
 22.0723363 -75.0460735   0.0000000
 22.0791789 -75.0027885   0.0000000
 22.0860215 -75.1271723   0.0000000
 22.0928641 -75.1259430   0.0000000
 22.0997067 -74.7470810   0.0000000
 22.1065494 -75.0508897   0.0000000
 22.1133920 -75.0608039   0.0000000
 22.1202346 -75.1493292   0.0000000
 22.1270772 -75.0883836   0.0000000
 22.1339198 -75.2895913   0.0000000
 22.1407625 -75.1060946   0.0000000
 22.1476051 -75.1526471   0.0000000
 22.1544477 -74.9617615   0.0000000
 22.1612903 -75.0418948   0.0000000
 22.1681329 -74.9209063   0.0000000
 22.1749756 -75.2201450   0.0000000
 22.1818182 -74.7021337   0.0000000
 22.1886608 -75.1312268   0.0000000
 22.1955034 -75.2671833   0.0000000
 22.2023460 -74.8251922   0.0000000
 22.2091887 -75.0807836   0.0000000
 22.2160313 -75.0909733   0.0000000
 22.2228739 -74.5083475   0.0000000
 22.2297165 -74.8228248   0.0000000
 22.2365591 -75.1546584   0.0000000
 22.2434018 -74.8423832   0.0000000
 22.2502444 -75.1046267   0.0000000
 22.2570870 -75.0784223   0.0000000
 22.2639296 -74.9851466   0.0000000
 22.2707722 -75.1412368   0.0000000
 22.2776149 -75.1075883   0.0000000
 22.2844575 -75.1846177   0.0000000
 22.2913001 -75.0334051   0.0000000
 22.2981427 -75.0081480   0.0000000
 22.3049853 -74.9679863   0.0000000
 22.3118280 -75.0837848   0.0000000
 22.3186706 -75.2191743   0.0000000
 22.3255132 -75.2779143   0.0000000
 22.3323558 -74.9922741   0.0000000
 22.3391984 -75.1012046   0.0000000
 22.3460411 -74.9694540   0.0000000
 22.3528837 -75.1961385   0.0000000
 22.3597263 -75.1368270   0.0000000
 22.3665689 -75.0705080   0.0000000
 22.3734115 -75.0041444   0.0000000
 22.3802542 -74.9200931   0.0000000
 22.3870968 -75.0975486   0.0000000
 22.3939394 -75.0200075   0.0000000
 22.4007820 -74.9765621   0.0000000
 22.4076246 -75.0067462   0.0000000
 22.4144673 -75.0679350   0.0000000
 22.4213099 -75.0046949   0.0000000
 22.4281525 -75.0776186   0.0000000
 22.4349951 -74.8801729   0.0000000
 22.4418377 -74.9735287   0.0000000
 22.4486804 -74.7339720   0.0000000
 22.4555230 -74.8758308   0.0000000
 22.4623656 -74.3906590   0.0000000
 22.4692082 -75.0174652   0.0000000
 22.4760508 -74.9895877   0.0000000
 22.4828935 -74.7212048   0.0000000
 22.4897361 -74.9998291   0.0000000
 22.4965787 -74.6217884   0.0000000
 22.5034213 -74.8629781   0.0000000
 22.5102639 -74.6069753   0.0000000
 22.5171065 -74.7013255   0.0000000
 22.5239492 -74.6463763   0.0000000
 22.5307918 -74.7214540   0.0000000
 22.5376344 -74.8068122   0.0000000
 22.5444770 -74.7741434   0.0000000
 22.5513196 -74.6831689   0.0000000
 22.5581623 -74.6614201   0.0000000
 22.5650049 -74.7290363   0.0000000
 22.5718475 -74.4740690   0.0000000
 22.5786901 -74.5335722   0.0000000
 22.5855327 -74.5390065   0.0000000
 22.5923754 -74.4824188   0.0000000
 22.5992180 -74.4372549   0.0000000
 22.6060606 -74.2045683   0.0000000
 22.6129032 -74.1552257   0.0000000
 22.6197458 -73.9585996   0.0000000
 22.6265885 -73.6567532   0.0000000
 22.6334311 -73.3546073   0.0000000
 22.6402737 -72.5190558   0.0000000
 22.6471163 -71.7397152   0.0000000
 22.6539589 -70.5804887   0.0000000
 22.6608016 -68.7931901   0.0000000
 22.6676442 -65.5743680   0.0000000
 22.6744868 -67.3574042   0.0000000
 22.6813294 -69.9412774   0.0000000
