! ListType=Lin
# MHZ S DB R 50
  0.0100000  -0.1240281  -9.1496223 -16.0018716  80.5030412 -3000.0000000 -90.0000000 -3000.0000000 -90.0000000
  0.6450708 -19.7765888 -59.7750076  -0.4704117   4.9585242 -3000.0000000 -90.0000000 -3000.0000000 -90.0000000
  1.2801417 -23.7538893 -46.1283072  -0.4510518   2.1057908 -3000.0000000 -90.0000000 -3000.0000000 -90.0000000
  1.9152125 -25.3423618 -37.3981675  -0.4563085   1.0133068 -3000.0000000 -90.0000000 -3000.0000000 -90.0000000
  2.5502833 -26.1768852 -31.7431817  -0.4635650   0.3845816 -3000.0000000 -90.0000000 -3000.0000000 -90.0000000
  3.1853542 -26.6813879 -27.7588055  -0.4695884  -0.0625037 -3000.0000000 -90.0000000 -3000.0000000 -90.0000000
  3.8204250 -27.0290580 -24.7910701  -0.4745270  -0.4132236 -3000.0000000 -90.0000000 -3000.0000000 -90.0000000
  4.4554958 -27.2630561 -22.5526109  -0.4786287  -0.7113573 -3000.0000000 -90.0000000 -3000.0000000 -90.0000000
  5.0905667 -27.4174788 -20.8340807  -0.4820306  -0.9802897 -3000.0000000 -90.0000000 -3000.0000000 -90.0000000
  5.7256375 -27.5374476 -19.4640415  -0.4846145  -1.2265980 -3000.0000000 -90.0000000 -3000.0000000 -90.0000000
  6.3607084 -27.6274654 -18.4098185  -0.4870732  -1.4591288 -3000.0000000 -90.0000000 -3000.0000000 -90.0000000
  6.9957792 -27.6889724 -17.5960296  -0.4894293  -1.6788497 -3000.0000000 -90.0000000 -3000.0000000 -90.0000000
  7.6308500 -27.7441416 -16.8760944  -0.4911980  -1.8924806 -3000.0000000 -90.0000000 -3000.0000000 -90.0000000
  8.2659209 -27.7826017 -16.3103551  -0.4931820  -2.1024611 -3000.0000000 -90.0000000 -3000.0000000 -90.0000000
  8.9009917 -27.8195732 -15.9506913  -0.4947690  -2.3037721 -3000.0000000 -90.0000000 -3000.0000000 -90.0000000
  9.5360625 -27.8355405 -15.6015013  -0.4963584  -2.5028726 -3000.0000000 -90.0000000 -3000.0000000 -90.0000000
 10.1711334 -27.8472822 -15.4111020  -0.4978282  -2.7003257 -3000.0000000 -90.0000000 -3000.0000000 -90.0000000
 10.8062042 -27.8671572 -15.1963466  -0.4991302  -2.8937156 -3000.0000000 -90.0000000 -3000.0000000 -90.0000000
 11.4412750 -27.8775989 -15.0714008  -0.5006244  -3.0854791 -3000.0000000 -90.0000000 -3000.0000000 -90.0000000
 12.0763459 -27.8808457 -15.0247553  -0.5023247  -3.2769479 -3000.0000000 -90.0000000 -3000.0000000 -90.0000000
 12.7114167 -27.8943438 -15.0222745  -0.5034354  -3.4645974 -3000.0000000 -90.0000000 -3000.0000000 -90.0000000
 13.3464875 -27.8914754 -14.9801913  -0.5049966  -3.6530101 -3000.0000000 -90.0000000 -3000.0000000 -90.0000000
 13.9815584 -27.8862509 -15.0602860  -0.5063434  -3.8394119 -3000.0000000 -90.0000000 -3000.0000000 -90.0000000
 14.6166292 -27.8942070 -15.1173258  -0.5076491  -4.0242267 -3000.0000000 -90.0000000 -3000.0000000 -90.0000000
 15.2517000 -27.8964303 -15.2009864  -0.5089039  -4.2087470 -3000.0000000 -90.0000000 -3000.0000000 -90.0000000
 15.8867709 -27.8933913 -15.2641139  -0.5098094  -4.3911604 -3000.0000000 -90.0000000 -3000.0000000 -90.0000000
 16.5218417 -27.8973389 -15.4360477  -0.5113124  -4.5732267 -3000.0000000 -90.0000000 -3000.0000000 -90.0000000
 17.1569126 -27.8887385 -15.6507862  -0.5123841  -4.7568430 -3000.0000000 -90.0000000 -3000.0000000 -90.0000000
 17.7919834 -27.8847102 -15.6578478  -0.5134723  -4.9373476 -3000.0000000 -90.0000000 -3000.0000000 -90.0000000
 18.4270542 -27.8846980 -15.9455507  -0.5149451  -5.1183286 -3000.0000000 -90.0000000 -3000.0000000 -90.0000000
 19.0621251 -27.8806789 -16.0527900  -0.5160780  -5.2983276 -3000.0000000 -90.0000000 -3000.0000000 -90.0000000
 19.6971959 -27.8633468 -16.3074431  -0.5169932  -5.4789284 -3000.0000000 -90.0000000 -3000.0000000 -90.0000000
 20.3322667 -27.8624142 -16.5086910  -0.5185116  -5.6562022 -3000.0000000 -90.0000000 -3000.0000000 -90.0000000
 20.9673376 -27.8594142 -16.6104748  -0.5195548  -5.8368259 -3000.0000000 -90.0000000 -3000.0000000 -90.0000000
 21.6024084 -27.8437328 -16.9139861  -0.5199895  -6.0166469 -3000.0000000 -90.0000000 -3000.0000000 -90.0000000
 22.2374792 -27.8417569 -17.1221541  -0.5213363  -6.1909144 -3000.0000000 -90.0000000 -3000.0000000 -90.0000000
 22.8725501 -27.8332667 -17.3409558  -0.5225559  -6.3704673 -3000.0000000 -90.0000000 -3000.0000000 -90.0000000
 23.5076209 -27.8144705 -17.5390248  -0.5238112  -6.5479184 -3000.0000000 -90.0000000 -3000.0000000 -90.0000000
 24.1426917 -27.8012146 -17.7821374  -0.5249533  -6.7271209 -3000.0000000 -90.0000000 -3000.0000000 -90.0000000
 24.7777626 -27.7986143 -18.0346636  -0.5257735  -6.9025976 -3000.0000000 -90.0000000 -3000.0000000 -90.0000000
 25.4128334 -27.7782102 -18.2167848  -0.5267642  -7.0817718 -3000.0000000 -90.0000000 -3000.0000000 -90.0000000
 26.0479043 -27.7742096 -18.5156261  -0.5275487  -7.2560820 -3000.0000000 -90.0000000 -3000.0000000 -90.0000000
 26.6829751 -27.7503063 -18.7893404  -0.5293582  -7.4320190 -3000.0000000 -90.0000000 -3000.0000000 -90.0000000
 27.3180459 -27.7566486 -19.0384296  -0.5294539  -7.6099099 -3000.0000000 -90.0000000 -3000.0000000 -90.0000000
 27.9531168 -27.7425520 -19.2606078  -0.5308028  -7.7830651 -3000.0000000 -90.0000000 -3000.0000000 -90.0000000
 28.5881876 -27.7341196 -19.4980291  -0.5316515  -7.9602460 -3000.0000000 -90.0000000 -3000.0000000 -90.0000000
 29.2232584 -27.7193025 -19.8228979  -0.5325487  -8.1360665 -3000.0000000 -90.0000000 -3000.0000000 -90.0000000
 29.8583293 -27.7014774 -20.0586173  -0.5335280  -8.3126253 -3000.0000000 -90.0000000 -3000.0000000 -90.0000000
 30.4934001 -27.6748805 -20.4193165  -0.5344919  -8.4867354 -3000.0000000 -90.0000000 -3000.0000000 -90.0000000
 31.1284709 -27.6620945 -20.5379910  -0.5356395  -8.6625387 -3000.0000000 -90.0000000 -3000.0000000 -90.0000000
 31.7635418 -27.6597483 -20.8390638  -0.5366270  -8.8378043 -3000.0000000 -90.0000000 -3000.0000000 -90.0000000
 32.3986126 -27.6505196 -21.0924791  -0.5374313  -9.0126201 -3000.0000000 -90.0000000 -3000.0000000 -90.0000000
 33.0336834 -27.6208385 -21.4102295  -0.5384033  -9.1892481 -3000.0000000 -90.0000000 -3000.0000000 -90.0000000
 33.6687543 -27.6053625 -21.6567718  -0.5389088  -9.3633549 -3000.0000000 -90.0000000 -3000.0000000 -90.0000000
 34.3038251 -27.5887771 -21.8466429  -0.5401444  -9.5379864 -3000.0000000 -90.0000000 -3000.0000000 -90.0000000
 34.9388959 -27.5622816 -22.0897796  -0.5413006  -9.7136170 -3000.0000000 -90.0000000 -3000.0000000 -90.0000000
 35.5739668 -27.5561163 -22.4510355  -0.5423425  -9.8899248 -3000.0000000 -90.0000000 -3000.0000000 -90.0000000
 36.2090376 -27.5433774 -22.6898221  -0.5426235 -10.0622034 -3000.0000000 -90.0000000 -3000.0000000 -90.0000000
 36.8441085 -27.5192373 -22.9734957  -0.5443555 -10.2369646 -3000.0000000 -90.0000000 -3000.0000000 -90.0000000
 37.4791793 -27.5031684 -23.1758657  -0.5450833 -10.4113466 -3000.0000000 -90.0000000 -3000.0000000 -90.0000000
 38.1142501 -27.4725357 -23.4424118  -0.5459072 -10.5854862 -3000.0000000 -90.0000000 -3000.0000000 -90.0000000
 38.7493210 -27.4526999 -23.7185621  -0.5471566 -10.7608940 -3000.0000000 -90.0000000 -3000.0000000 -90.0000000
 39.3843918 -27.4341288 -23.9165186  -0.5480762 -10.9352441 -3000.0000000 -90.0000000 -3000.0000000 -90.0000000
 40.0194626 -27.4221747 -24.1916001  -0.5487373 -11.1083917 -3000.0000000 -90.0000000 -3000.0000000 -90.0000000
 40.6545335 -27.3798154 -24.4473464  -0.5501691 -11.2842985 -3000.0000000 -90.0000000 -3000.0000000 -90.0000000
 41.2896043 -27.3616512 -24.6816592  -0.5513618 -11.4582403 -3000.0000000 -90.0000000 -3000.0000000 -90.0000000
 41.9246751 -27.3415649 -24.9631321  -0.5527618 -11.6344146 -3000.0000000 -90.0000000 -3000.0000000 -90.0000000
 42.5597460 -27.3135751 -25.1180047  -0.5538529 -11.8089030 -3000.0000000 -90.0000000 -3000.0000000 -90.0000000
 43.1948168 -27.2943344 -25.4342480  -0.5547561 -11.9850756 -3000.0000000 -90.0000000 -3000.0000000 -90.0000000
 43.8298876 -27.2634458 -25.6398596  -0.5559924 -12.1581173 -3000.0000000 -90.0000000 -3000.0000000 -90.0000000
 44.4649585 -27.2327389 -25.8615043  -0.5569680 -12.3340437 -3000.0000000 -90.0000000 -3000.0000000 -90.0000000
 45.1000293 -27.2016080 -26.1199750  -0.5584746 -12.5089562 -3000.0000000 -90.0000000 -3000.0000000 -90.0000000
 45.7351001 -27.1742169 -26.2917153  -0.5606708 -12.6853994 -3000.0000000 -90.0000000 -3000.0000000 -90.0000000
 46.3701710 -27.1332318 -26.5266212  -0.5620817 -12.8443704 -3000.0000000 -90.0000000 -3000.0000000 -90.0000000
 47.0052418 -27.0949319 -26.7836778  -0.5630652 -13.0222788 -3000.0000000 -90.0000000 -3000.0000000 -90.0000000
 47.6403127 -27.0602590 -27.0161871  -0.5636979 -13.2068110 -3000.0000000 -90.0000000 -3000.0000000 -90.0000000
 48.2753835 -27.0114566 -27.2340137  -0.5659374 -13.3800748 -3000.0000000 -90.0000000 -3000.0000000 -90.0000000
 48.9104543 -26.9590457 -27.4644043  -0.5680427 -13.5548786 -3000.0000000 -90.0000000 -3000.0000000 -90.0000000
 49.5455252 -26.9120922 -27.6932028  -0.5699133 -13.7255007 -3000.0000000 -90.0000000 -3000.0000000 -90.0000000
 50.1805960 -26.8563868 -27.9752009  -0.5722554 -13.8962143 -3000.0000000 -90.0000000 -3000.0000000 -90.0000000
 50.8156668 -26.7932230 -28.3211348  -0.5750194 -14.0629011 -3000.0000000 -90.0000000 -3000.0000000 -90.0000000
 51.4507377 -26.7300526 -28.6625415  -0.5773658 -14.2318936 -3000.0000000 -90.0000000 -3000.0000000 -90.0000000
 52.0858085 -26.6679286 -29.0459031  -0.5796571 -14.3937098 -3000.0000000 -90.0000000 -3000.0000000 -90.0000000
 52.7208793 -26.6019070 -29.5131548  -0.5819408 -14.5538214 -3000.0000000 -90.0000000 -3000.0000000 -90.0000000
 53.3559502 -26.5408657 -30.0724604  -0.5841346 -14.7129807 -3000.0000000 -90.0000000 -3000.0000000 -90.0000000
 53.9910210 -26.5005445 -30.7023880  -0.5856275 -14.8702354 -3000.0000000 -90.0000000 -3000.0000000 -90.0000000
 54.6260918 -26.4546804 -31.2667711  -0.5864766 -15.0214292 -3000.0000000 -90.0000000 -3000.0000000 -90.0000000
 55.2611627 -26.4217443 -31.9298173  -0.5870409 -15.1759016 -3000.0000000 -90.0000000 -3000.0000000 -90.0000000
 55.8962335 -26.3943981 -32.5424068  -0.5875273 -15.3326839 -3000.0000000 -90.0000000 -3000.0000000 -90.0000000
 56.5313043 -26.3895299 -33.1342122  -0.5868987 -15.4897394 -3000.0000000 -90.0000000 -3000.0000000 -90.0000000
 57.1663752 -26.3825041 -33.6661368  -0.5861219 -15.6531656 -3000.0000000 -90.0000000 -3000.0000000 -90.0000000
 57.8014460 -26.3861926 -34.2344995  -0.5853005 -15.8126957 -3000.0000000 -90.0000000 -3000.0000000 -90.0000000
 58.4365169 -26.3860599 -34.6204541  -0.5845592 -15.9784394 -3000.0000000 -90.0000000 -3000.0000000 -90.0000000
 59.0715877 -26.3863833 -35.0745520  -0.5835864 -16.1444495 -3000.0000000 -90.0000000 -3000.0000000 -90.0000000
 59.7066585 -26.3894221 -35.4208266  -0.5823958 -16.3138711 -3000.0000000 -90.0000000 -3000.0000000 -90.0000000
 60.3417294 -26.3893845 -35.7457153  -0.5817003 -16.4834575 -3000.0000000 -90.0000000 -3000.0000000 -90.0000000
 60.9768002 -26.3815954 -36.0813622  -0.5812748 -16.6552328 -3000.0000000 -90.0000000 -3000.0000000 -90.0000000
 61.6118710 -26.3804754 -36.3588011  -0.5810619 -16.8286256 -3000.0000000 -90.0000000 -3000.0000000 -90.0000000
 62.2469419 -26.3619908 -36.6544554  -0.5802514 -16.9990411 -3000.0000000 -90.0000000 -3000.0000000 -90.0000000
 62.8820127 -26.3565053 -36.9664086  -0.5801703 -17.1733981 -3000.0000000 -90.0000000 -3000.0000000 -90.0000000
 63.5170835 -26.3420360 -37.2395373  -0.5799009 -17.3452755 -3000.0000000 -90.0000000 -3000.0000000 -90.0000000
 64.1521544 -26.3297866 -37.4503326  -0.5798934 -17.5200309 -3000.0000000 -90.0000000 -3000.0000000 -90.0000000
 64.7872252 -26.3117561 -37.7726579  -0.5795287 -17.6940546 -3000.0000000 -90.0000000 -3000.0000000 -90.0000000
 65.4222960 -26.2985286 -38.0071824  -0.5795464 -17.8666222 -3000.0000000 -90.0000000 -3000.0000000 -90.0000000
 66.0573669 -26.2899802 -38.2673643  -0.5800475 -18.0422977 -3000.0000000 -90.0000000 -3000.0000000 -90.0000000
 66.6924377 -26.2666373 -38.4864108  -0.5806027 -18.2152186 -3000.0000000 -90.0000000 -3000.0000000 -90.0000000
 67.3275085 -26.2513316 -38.7411786  -0.5800090 -18.3866056 -3000.0000000 -90.0000000 -3000.0000000 -90.0000000
 67.9625794 -26.2219772 -39.0201290  -0.5805925 -18.5602682 -3000.0000000 -90.0000000 -3000.0000000 -90.0000000
 68.5976502 -26.1995835 -39.3118630  -0.5808426 -18.7348069 -3000.0000000 -90.0000000 -3000.0000000 -90.0000000
 69.2327211 -26.1766704 -39.5294202  -0.5808984 -18.9092250 -3000.0000000 -90.0000000 -3000.0000000 -90.0000000
 69.8677919 -26.1558105 -39.7212440  -0.5815793 -19.0814036 -3000.0000000 -90.0000000 -3000.0000000 -90.0000000
 70.5028627 -26.1305711 -39.9771010  -0.5819540 -19.2548285 -3000.0000000 -90.0000000 -3000.0000000 -90.0000000
 71.1379336 -26.0993350 -40.2702912  -0.5826722 -19.4297758 -3000.0000000 -90.0000000 -3000.0000000 -90.0000000
 71.7730044 -26.0782383 -40.4757426  -0.5836394 -19.6003944 -3000.0000000 -90.0000000 -3000.0000000 -90.0000000
 72.4080752 -26.0508446 -40.8360210  -0.5850216 -19.7657887 -3000.0000000 -90.0000000 -3000.0000000 -90.0000000
 73.0431461 -26.0253535 -41.0429329  -0.5848212 -19.9444690 -3000.0000000 -90.0000000 -3000.0000000 -90.0000000
 73.6782169 -25.9920102 -41.2872870  -0.5856731 -20.1159759 -3000.0000000 -90.0000000 -3000.0000000 -90.0000000
 74.3132877 -25.9678786 -41.5125238  -0.5866037 -20.2878637 -3000.0000000 -90.0000000 -3000.0000000 -90.0000000
 74.9483586 -25.9400242 -41.7947140  -0.5867194 -20.4627931 -3000.0000000 -90.0000000 -3000.0000000 -90.0000000
 75.5834294 -25.8991787 -42.0450785  -0.5872209 -20.6342777 -3000.0000000 -90.0000000 -3000.0000000 -90.0000000
 76.2185002 -25.8777097 -42.2902613  -0.5877595 -20.8110224 -3000.0000000 -90.0000000 -3000.0000000 -90.0000000
 76.8535711 -25.8511310 -42.5539081  -0.5892229 -20.9849720 -3000.0000000 -90.0000000 -3000.0000000 -90.0000000
 77.4886419 -25.8255332 -42.8622943  -0.5896385 -21.1588439 -3000.0000000 -90.0000000 -3000.0000000 -90.0000000
 78.1237128 -25.7928811 -43.0945054  -0.5898913 -21.3350117 -3000.0000000 -90.0000000 -3000.0000000 -90.0000000
 78.7587836 -25.7657798 -43.4336728  -0.5909716 -21.5077730 -3000.0000000 -90.0000000 -3000.0000000 -90.0000000
 79.3938544 -25.7470481 -43.7213061  -0.5935414 -21.6868829 -3000.0000000 -90.0000000 -3000.0000000 -90.0000000
 80.0289253 -25.7347069 -43.9771786  -0.5942451 -21.8544090 -3000.0000000 -90.0000000 -3000.0000000 -90.0000000
 80.6639961 -25.7324803 -44.1177646  -0.5969671 -22.0255644 -3000.0000000 -90.0000000 -3000.0000000 -90.0000000
 81.2990669 -25.7034330 -44.1900894  -0.5977699 -22.1804742 -3000.0000000 -90.0000000 -3000.0000000 -90.0000000
 81.9341378 -25.6578631 -44.2459992  -0.5977480 -22.3510980 -3000.0000000 -90.0000000 -3000.0000000 -90.0000000
 82.5692086 -25.6038063 -44.4267313  -0.5976852 -22.5172872 -3000.0000000 -90.0000000 -3000.0000000 -90.0000000
 83.2042794 -25.5622409 -44.6879564  -0.5974630 -22.6905808 -3000.0000000 -90.0000000 -3000.0000000 -90.0000000
 83.8393503 -25.5271132 -44.8811234  -0.5988570 -22.8661659 -3000.0000000 -90.0000000 -3000.0000000 -90.0000000
 84.4744211 -25.4844212 -45.1570520  -0.5993668 -23.0411163 -3000.0000000 -90.0000000 -3000.0000000 -90.0000000
 85.1094919 -25.4440233 -45.3381927  -0.6004393 -23.2125459 -3000.0000000 -90.0000000 -3000.0000000 -90.0000000
 85.7445628 -25.3997723 -45.6236651  -0.6015782 -23.3839727 -3000.0000000 -90.0000000 -3000.0000000 -90.0000000
 86.3796336 -25.3678498 -45.8183719  -0.6028283 -23.5619531 -3000.0000000 -90.0000000 -3000.0000000 -90.0000000
 87.0147044 -25.3270337 -46.0876349  -0.6037513 -23.7334071 -3000.0000000 -90.0000000 -3000.0000000 -90.0000000
 87.6497753 -25.2821308 -46.3158873  -0.6048957 -23.9046980 -3000.0000000 -90.0000000 -3000.0000000 -90.0000000
 88.2848461 -25.2429174 -46.5199728  -0.6051641 -24.0730269 -3000.0000000 -90.0000000 -3000.0000000 -90.0000000
 88.9199170 -25.2079906 -46.7798531  -0.6066733 -24.2527407 -3000.0000000 -90.0000000 -3000.0000000 -90.0000000
 89.5549878 -25.1608647 -47.0010632  -0.6073856 -24.4223062 -3000.0000000 -90.0000000 -3000.0000000 -90.0000000
 90.1900586 -25.1206839 -47.2411169  -0.6097126 -24.5910798 -3000.0000000 -90.0000000 -3000.0000000 -90.0000000
 90.8251295 -25.0784518 -47.4468731  -0.6104761 -24.7631013 -3000.0000000 -90.0000000 -3000.0000000 -90.0000000
 91.4602003 -25.0288599 -47.6811789  -0.6120335 -24.9374420 -3000.0000000 -90.0000000 -3000.0000000 -90.0000000
 92.0952711 -24.9768818 -47.9020223  -0.6137089 -25.1105118 -3000.0000000 -90.0000000 -3000.0000000 -90.0000000
 92.7303420 -24.9290716 -48.1828915  -0.6157062 -25.2756637 -3000.0000000 -90.0000000 -3000.0000000 -90.0000000
 93.3654128 -24.8728713 -48.4525485  -0.6174310 -25.4461615 -3000.0000000 -90.0000000 -3000.0000000 -90.0000000
 94.0004836 -24.8159748 -48.7144250  -0.6190460 -25.6162982 -3000.0000000 -90.0000000 -3000.0000000 -90.0000000
 94.6355545 -24.7499077 -48.9751480  -0.6214367 -25.7852382 -3000.0000000 -90.0000000 -3000.0000000 -90.0000000
 95.2706253 -24.6819393 -49.3562223  -0.6245780 -25.9447922 -3000.0000000 -90.0000000 -3000.0000000 -90.0000000
 95.9056961 -24.6199809 -49.7045702  -0.6267261 -26.1075774 -3000.0000000 -90.0000000 -3000.0000000 -90.0000000
 96.5407670 -24.5650761 -50.0975604  -0.6294198 -26.2648107 -3000.0000000 -90.0000000 -3000.0000000 -90.0000000
 97.1758378 -24.5023906 -50.6206279  -0.6314508 -26.4133492 -3000.0000000 -90.0000000 -3000.0000000 -90.0000000
 97.8109086 -24.4538162 -51.0878628  -0.6321858 -26.5680287 -3000.0000000 -90.0000000 -3000.0000000 -90.0000000
 98.4459795 -24.4160248 -51.6295933  -0.6319372 -26.7136634 -3000.0000000 -90.0000000 -3000.0000000 -90.0000000
 99.0810503 -24.3962337 -52.1251236  -0.6321107 -26.8639993 -3000.0000000 -90.0000000 -3000.0000000 -90.0000000
 99.7161212 -24.3735124 -52.6697213  -0.6310524 -27.0265069 -3000.0000000 -90.0000000 -3000.0000000 -90.0000000
100.3511920 -24.3540574 -53.1111397  -0.6299803 -27.1852127 -3000.0000000 -90.0000000 -3000.0000000 -90.0000000
100.9862628 -24.3440218 -53.4786298  -0.6282636 -27.3461188 -3000.0000000 -90.0000000 -3000.0000000 -90.0000000
101.6213337 -24.3272996 -53.8283161  -0.6276706 -27.5130953 -3000.0000000 -90.0000000 -3000.0000000 -90.0000000
102.2564045 -24.3132781 -54.1889822  -0.6261547 -27.6874799 -3000.0000000 -90.0000000 -3000.0000000 -90.0000000
102.8914753 -24.3014152 -54.5379602  -0.6261001 -27.8537138 -3000.0000000 -90.0000000 -3000.0000000 -90.0000000
103.5265462 -24.2803817 -54.7880652  -0.6256718 -28.0253895 -3000.0000000 -90.0000000 -3000.0000000 -90.0000000
104.1616170 -24.2677279 -55.0873336  -0.6246374 -28.1964400 -3000.0000000 -90.0000000 -3000.0000000 -90.0000000
104.7966878 -24.2470002 -55.3738699  -0.6241694 -28.3665093 -3000.0000000 -90.0000000 -3000.0000000 -90.0000000
105.4317587 -24.2298090 -55.6045019  -0.6239409 -28.5356444 -3000.0000000 -90.0000000 -3000.0000000 -90.0000000
106.0668295 -24.2047914 -55.8517424  -0.6232238 -28.7098579 -3000.0000000 -90.0000000 -3000.0000000 -90.0000000
106.7019003 -24.1773074 -56.1237207  -0.6233033 -28.8828667 -3000.0000000 -90.0000000 -3000.0000000 -90.0000000
107.3369712 -24.1598801 -56.3581095  -0.6234655 -29.0527139 -3000.0000000 -90.0000000 -3000.0000000 -90.0000000
107.9720420 -24.1261068 -56.6280836  -0.6239456 -29.2265184 -3000.0000000 -90.0000000 -3000.0000000 -90.0000000
108.6071128 -24.1021658 -56.8476449  -0.6236385 -29.3988320 -3000.0000000 -90.0000000 -3000.0000000 -90.0000000
109.2421837 -24.0825779 -57.0993277  -0.6235603 -29.5664549 -3000.0000000 -90.0000000 -3000.0000000 -90.0000000
109.8772545 -24.0578720 -57.3713196  -0.6239646 -29.7427493 -3000.0000000 -90.0000000 -3000.0000000 -90.0000000
110.5123254 -24.0211985 -57.5606993  -0.6255766 -29.9175279 -3000.0000000 -90.0000000 -3000.0000000 -90.0000000
111.1473962 -24.0004000 -57.8309436  -0.6245547 -30.0875155 -3000.0000000 -90.0000000 -3000.0000000 -90.0000000
