! ListType=Lin
# MHZ S DB R 50
  0.1000000  -5.3197973 -150.4207490 -62.8524153  64.7439474 -3000.0000000 -90.0000000 -3000.0000000 -90.0000000
  0.4174359 -16.7047137 143.6482898 -60.9376795   9.1436230 -3000.0000000 -90.0000000 -3000.0000000 -90.0000000
  0.7348718 -19.8036433 134.9685486 -60.7071997  -2.9824569 -3000.0000000 -90.0000000 -3000.0000000 -90.0000000
  1.0523077 -21.6769488 128.8839753 -60.6047807 -11.7251110 -3000.0000000 -90.0000000 -3000.0000000 -90.0000000
  1.3697436 -23.2653094 123.2250950 -60.5179659 -19.1122405 -3000.0000000 -90.0000000 -3000.0000000 -90.0000000
  1.6871795 -24.8138247 117.8570161 -60.4419426 -25.8066648 -3000.0000000 -90.0000000 -3000.0000000 -90.0000000
  2.0046154 -26.3629167 112.7703905 -60.3760307 -32.9389165 -3000.0000000 -90.0000000 -3000.0000000 -90.0000000
  2.3220513 -27.9892359 107.7915528 -60.3246853 -39.2766194 -3000.0000000 -90.0000000 -3000.0000000 -90.0000000
  2.6394872 -29.6569608 102.6462082 -60.3042760 -45.4042494 -3000.0000000 -90.0000000 -3000.0000000 -90.0000000
  2.9569231 -31.4200670  97.2502307 -60.2344707 -51.9592517 -3000.0000000 -90.0000000 -3000.0000000 -90.0000000
  3.2743590 -33.2471922  90.7711161 -60.1737150 -58.2105133 -3000.0000000 -90.0000000 -3000.0000000 -90.0000000
  3.5917949 -35.0555659  82.7688361 -60.1234579 -64.3698139 -3000.0000000 -90.0000000 -3000.0000000 -90.0000000
  3.9092308 -36.6442666  72.2476679 -60.0898304 -70.4268099 -3000.0000000 -90.0000000 -3000.0000000 -90.0000000
  4.2266667 -37.7642953  59.0515039 -59.9738404 -76.9402239 -3000.0000000 -90.0000000 -3000.0000000 -90.0000000
  4.5441026 -37.9484620  45.2328779 -59.8980954 -82.9235198 -3000.0000000 -90.0000000 -3000.0000000 -90.0000000
  4.8615385 -37.1136477  33.4061942 -59.8759273 -88.9971307 -3000.0000000 -90.0000000 -3000.0000000 -90.0000000
  5.1789744 -35.5511960  25.2352755 -59.7950220 -95.0615051 -3000.0000000 -90.0000000 -3000.0000000 -90.0000000
  5.4964103 -33.5809260  20.0167068 -59.6754078 -101.1732438 -3000.0000000 -90.0000000 -3000.0000000 -90.0000000
  5.8138462 -31.4115553  16.5457378 -59.6379558 -107.5662408 -3000.0000000 -90.0000000 -3000.0000000 -90.0000000
  6.1312821 -29.1423441  13.6400867 -59.5551214 -113.8568091 -3000.0000000 -90.0000000 -3000.0000000 -90.0000000
  6.4487179 -26.9158136  10.5481911 -59.4737831 -120.2158111 -3000.0000000 -90.0000000 -3000.0000000 -90.0000000
  6.7661538 -24.7472444   6.8808496 -59.3560065 -126.8585731 -3000.0000000 -90.0000000 -3000.0000000 -90.0000000
  7.0835897 -22.7030761   2.5990339 -59.2693240 -133.3512945 -3000.0000000 -90.0000000 -3000.0000000 -90.0000000
  7.4010256 -20.7971428  -2.3469068 -59.1914928 -140.0594099 -3000.0000000 -90.0000000 -3000.0000000 -90.0000000
  7.7184615 -19.0424913  -7.8655867 -59.2011524 -147.2246688 -3000.0000000 -90.0000000 -3000.0000000 -90.0000000
  8.0358974 -17.4468158 -13.8776338 -59.1318236 -154.0818012 -3000.0000000 -90.0000000 -3000.0000000 -90.0000000
  8.3533333 -16.0200914 -20.2328647 -59.1887802 -161.1208732 -3000.0000000 -90.0000000 -3000.0000000 -90.0000000
  8.6707692 -14.7520894 -26.8196449 -59.2374010 -167.9144747 -3000.0000000 -90.0000000 -3000.0000000 -90.0000000
  8.9882051 -13.6334003 -33.5000568 -59.3445808 -175.1300003 -3000.0000000 -90.0000000 -3000.0000000 -90.0000000
  9.3056410 -12.6565380 -40.1836736 -59.4633726 178.5402079 -3000.0000000 -90.0000000 -3000.0000000 -90.0000000
  9.6230769 -11.8055992 -46.7813841 -59.6612220 171.6093486 -3000.0000000 -90.0000000 -3000.0000000 -90.0000000
  9.9405128 -11.0687902 -53.2317389 -59.8641209 165.4686860 -3000.0000000 -90.0000000 -3000.0000000 -90.0000000
 10.2579487 -10.4321412 -59.4613388 -60.0777969 159.1659597 -3000.0000000 -90.0000000 -3000.0000000 -90.0000000
 10.5753846  -9.8817757 -65.4765968 -60.2578331 153.3178977 -3000.0000000 -90.0000000 -3000.0000000 -90.0000000
 10.8928205  -9.4029449 -71.2367232 -60.5242185 147.6948714 -3000.0000000 -90.0000000 -3000.0000000 -90.0000000
 11.2102564  -8.9852907 -76.7458485 -60.7359803 142.6009462 -3000.0000000 -90.0000000 -3000.0000000 -90.0000000
 11.5276923  -8.6216672 -82.0244865 -60.9725703 136.9995110 -3000.0000000 -90.0000000 -3000.0000000 -90.0000000
 11.8451282  -8.3030961 -87.0736444 -61.1710413 132.0586256 -3000.0000000 -90.0000000 -3000.0000000 -90.0000000
 12.1625641  -8.0233596 -91.9039079 -61.4205131 127.1672276 -3000.0000000 -90.0000000 -3000.0000000 -90.0000000
 12.4800000  -7.7764481 -96.5511731 -61.6201418 122.2554378 -3000.0000000 -90.0000000 -3000.0000000 -90.0000000
 12.7974359  -7.5590945 -101.0103047 -61.8367095 117.6961118 -3000.0000000 -90.0000000 -3000.0000000 -90.0000000
 13.1148718  -7.3650538 -105.3071480 -61.9840072 113.3631032 -3000.0000000 -90.0000000 -3000.0000000 -90.0000000
 13.4323077  -7.1945724 -109.4512523 -62.1912559 108.8271962 -3000.0000000 -90.0000000 -3000.0000000 -90.0000000
 13.7497436  -7.0402846 -113.4610307 -62.3482496 104.7797101 -3000.0000000 -90.0000000 -3000.0000000 -90.0000000
 14.0671795  -6.9056114 -117.3556996 -62.5756853 100.3364024 -3000.0000000 -90.0000000 -3000.0000000 -90.0000000
 14.3846154  -6.7873714 -121.1359318 -62.6370452  96.2005216 -3000.0000000 -90.0000000 -3000.0000000 -90.0000000
 14.7020513  -6.6824361 -124.8109090 -62.8035009  92.1386581 -3000.0000000 -90.0000000 -3000.0000000 -90.0000000
 15.0194872  -6.5897338 -128.4130307 -62.8724335  88.0777087 -3000.0000000 -90.0000000 -3000.0000000 -90.0000000
 15.3369231  -6.5083699 -131.9245336 -63.0243362  84.2314122 -3000.0000000 -90.0000000 -3000.0000000 -90.0000000
 15.6543590  -6.4377814 -135.3702456 -63.1690295  79.7986656 -3000.0000000 -90.0000000 -3000.0000000 -90.0000000
 15.9717949  -6.3782961 -138.7553471 -63.1520916  76.0047293 -3000.0000000 -90.0000000 -3000.0000000 -90.0000000
 16.2892308  -6.3281265 -142.0864930 -63.2577402  71.8931315 -3000.0000000 -90.0000000 -3000.0000000 -90.0000000
 16.6066667  -6.2869801 -145.3679154 -63.3623972  68.1493529 -3000.0000000 -90.0000000 -3000.0000000 -90.0000000
 16.9241026  -6.2542926 -148.6140342 -63.4559204  64.0974356 -3000.0000000 -90.0000000 -3000.0000000 -90.0000000
 17.2415385  -6.2292265 -151.8199313 -63.4785266  60.5579324 -3000.0000000 -90.0000000 -3000.0000000 -90.0000000
 17.5589744  -6.2124351 -155.0027987 -63.5405078  56.7982016 -3000.0000000 -90.0000000 -3000.0000000 -90.0000000
 17.8764103  -6.2039162 -158.1698088 -63.5387823  52.8242981 -3000.0000000 -90.0000000 -3000.0000000 -90.0000000
 18.1938462  -6.2016356 -161.3163872 -63.6092291  49.5673272 -3000.0000000 -90.0000000 -3000.0000000 -90.0000000
 18.5112821  -6.2066809 -164.4466252 -63.6463242  45.4628706 -3000.0000000 -90.0000000 -3000.0000000 -90.0000000
 18.8287179  -6.2190784 -167.5723929 -63.7042806  41.4406137 -3000.0000000 -90.0000000 -3000.0000000 -90.0000000
 19.1461538  -6.2382703 -170.7011235 -63.7189591  37.4626523 -3000.0000000 -90.0000000 -3000.0000000 -90.0000000
 19.4635897  -6.2650983 -173.8347977 -63.7277417  33.9348891 -3000.0000000 -90.0000000 -3000.0000000 -90.0000000
 19.7810256  -6.2971230 -176.9746653 -63.7279600  30.0990231 -3000.0000000 -90.0000000 -3000.0000000 -90.0000000
 20.0984615  -6.3373953 179.8698519 -63.7262422  26.6296908 -3000.0000000 -90.0000000 -3000.0000000 -90.0000000
 20.4158974  -6.3834493 176.7017736 -63.7336905  22.4030279 -3000.0000000 -90.0000000 -3000.0000000 -90.0000000
 20.7333333  -6.4361940 173.4969160 -63.7161704  19.1417271 -3000.0000000 -90.0000000 -3000.0000000 -90.0000000
 21.0507692  -6.4960517 170.2687364 -63.6982870  15.0043825 -3000.0000000 -90.0000000 -3000.0000000 -90.0000000
 21.3682051  -6.5631802 167.0142340 -63.6360638  11.0716309 -3000.0000000 -90.0000000 -3000.0000000 -90.0000000
 21.6856410  -6.6357804 163.7097715 -63.6927320   7.1188840 -3000.0000000 -90.0000000 -3000.0000000 -90.0000000
 22.0030769  -6.7176003 160.3585087 -63.6042741   3.0277357 -3000.0000000 -90.0000000 -3000.0000000 -90.0000000
 22.3205128  -6.8046790 156.9662423 -63.5938130  -0.4722447 -3000.0000000 -90.0000000 -3000.0000000 -90.0000000
 22.6379487  -6.8991219 153.5165102 -63.5697834  -4.7778232 -3000.0000000 -90.0000000 -3000.0000000 -90.0000000
 22.9553846  -7.0002257 149.9993713 -63.5034670  -8.5250659 -3000.0000000 -90.0000000 -3000.0000000 -90.0000000
 23.2728205  -7.1081301 146.4215745 -63.5013078 -12.2547305 -3000.0000000 -90.0000000 -3000.0000000 -90.0000000
 23.5902564  -7.2240672 142.7712909 -63.4598448 -16.6977149 -3000.0000000 -90.0000000 -3000.0000000 -90.0000000
 23.9076923  -7.3462874 139.0391385 -63.4231891 -20.5523270 -3000.0000000 -90.0000000 -3000.0000000 -90.0000000
 24.2251282  -7.4742807 135.2138921 -63.3447879 -24.7430336 -3000.0000000 -90.0000000 -3000.0000000 -90.0000000
 24.5425641  -7.6098447 131.3130194 -63.2641058 -28.6213945 -3000.0000000 -90.0000000 -3000.0000000 -90.0000000
 24.8600000  -7.7528416 127.2973765 -63.2444539 -32.8276300 -3000.0000000 -90.0000000 -3000.0000000 -90.0000000
 25.1774359  -7.8996646 123.1887145 -63.1593398 -37.1215726 -3000.0000000 -90.0000000 -3000.0000000 -90.0000000
 25.4948718  -8.0529960 118.9634148 -63.1649807 -41.5797647 -3000.0000000 -90.0000000 -3000.0000000 -90.0000000
 25.8123077  -8.2113321 114.6218851 -63.1308048 -45.6260115 -3000.0000000 -90.0000000 -3000.0000000 -90.0000000
 26.1297436  -8.3731308 110.1498510 -63.0522254 -49.9658331 -3000.0000000 -90.0000000 -3000.0000000 -90.0000000
 26.4471795  -8.5380671 105.5577563 -62.9872132 -54.5511649 -3000.0000000 -90.0000000 -3000.0000000 -90.0000000
 26.7646154  -8.7051881 100.8161532 -62.8910583 -58.5774456 -3000.0000000 -90.0000000 -3000.0000000 -90.0000000
 27.0820513  -8.8722537  95.9547627 -62.8260622 -62.9039654 -3000.0000000 -90.0000000 -3000.0000000 -90.0000000
 27.3994872  -9.0399189  90.9462763 -62.7849481 -67.7311595 -3000.0000000 -90.0000000 -3000.0000000 -90.0000000
 27.7169231  -9.2033121  85.7829262 -62.7261931 -72.2332627 -3000.0000000 -90.0000000 -3000.0000000 -90.0000000
 28.0343590  -9.3610430  80.4822767 -62.6413232 -76.5601410 -3000.0000000 -90.0000000 -3000.0000000 -90.0000000
 28.3517949  -9.5136606  75.0442312 -62.6375993 -81.1925781 -3000.0000000 -90.0000000 -3000.0000000 -90.0000000
 28.6692308  -9.6550945  69.4626923 -62.5714310 -86.0015706 -3000.0000000 -90.0000000 -3000.0000000 -90.0000000
 28.9866667  -9.7854340  63.7604896 -62.5074824 -90.4721351 -3000.0000000 -90.0000000 -3000.0000000 -90.0000000
 29.3041026  -9.9008995  57.9378121 -62.4610986 -95.3477653 -3000.0000000 -90.0000000 -3000.0000000 -90.0000000
 29.6215385 -10.0009928  52.0184579 -62.4020628 -100.0393456 -3000.0000000 -90.0000000 -3000.0000000 -90.0000000
 29.9389744 -10.0808038  46.0094704 -62.3789808 -104.7065087 -3000.0000000 -90.0000000 -3000.0000000 -90.0000000
 30.2564103 -10.1417298  39.9487488 -62.3718793 -109.5512784 -3000.0000000 -90.0000000 -3000.0000000 -90.0000000
 30.5738462 -10.1796376  33.8630682 -62.3745189 -114.2374287 -3000.0000000 -90.0000000 -3000.0000000 -90.0000000
 30.8912821 -10.1984445  27.7478801 -62.2784486 -119.0746503 -3000.0000000 -90.0000000 -3000.0000000 -90.0000000
 31.2087179 -10.1938770  21.6486276 -62.2691069 -123.8027818 -3000.0000000 -90.0000000 -3000.0000000 -90.0000000
 31.5261538 -10.1686426  15.5881873 -62.2456697 -128.7498240 -3000.0000000 -90.0000000 -3000.0000000 -90.0000000
 31.8435897 -10.1223226   9.5863763 -62.3008354 -133.6782282 -3000.0000000 -90.0000000 -3000.0000000 -90.0000000
 32.1610256 -10.0589172   3.6752575 -62.2131904 -138.5043102 -3000.0000000 -90.0000000 -3000.0000000 -90.0000000
 32.4784615  -9.9766424  -2.1436312 -62.1973614 -143.2375956 -3000.0000000 -90.0000000 -3000.0000000 -90.0000000
 32.7958974  -9.8816146  -7.8337105 -62.2039267 -148.0713444 -3000.0000000 -90.0000000 -3000.0000000 -90.0000000
 33.1133333  -9.7763727 -13.4084639 -62.2248715 -153.1565795 -3000.0000000 -90.0000000 -3000.0000000 -90.0000000
 33.4307692  -9.6596810 -18.8439576 -62.2003849 -157.8981548 -3000.0000000 -90.0000000 -3000.0000000 -90.0000000
 33.7482051  -9.5386194 -24.1420550 -62.2003943 -162.7913607 -3000.0000000 -90.0000000 -3000.0000000 -90.0000000
 34.0656410  -9.4110885 -29.2896086 -62.2358665 -167.5111645 -3000.0000000 -90.0000000 -3000.0000000 -90.0000000
 34.3830769  -9.2827381 -34.2999709 -62.2665966 -172.4902012 -3000.0000000 -90.0000000 -3000.0000000 -90.0000000
 34.7005128  -9.1542966 -39.1666353 -62.3090086 -177.0936975 -3000.0000000 -90.0000000 -3000.0000000 -90.0000000
 35.0179487  -9.0268862 -43.9002517 -62.2689816 177.7098417 -3000.0000000 -90.0000000 -3000.0000000 -90.0000000
 35.3353846  -8.9034075 -48.5001613 -62.3407667 172.7570509 -3000.0000000 -90.0000000 -3000.0000000 -90.0000000
 35.6528205  -8.7828968 -52.9705204 -62.3645068 168.0568324 -3000.0000000 -90.0000000 -3000.0000000 -90.0000000
 35.9702564  -8.6685416 -57.3115820 -62.3852605 163.4460650 -3000.0000000 -90.0000000 -3000.0000000 -90.0000000
 36.2876923  -8.5608505 -61.5500363 -62.4208945 158.2337512 -3000.0000000 -90.0000000 -3000.0000000 -90.0000000
 36.6051282  -8.4613429 -65.6686470 -62.4838922 153.5261459 -3000.0000000 -90.0000000 -3000.0000000 -90.0000000
 36.9225641  -8.3715059 -69.6903114 -62.5442423 148.8030020 -3000.0000000 -90.0000000 -3000.0000000 -90.0000000
 37.2400000  -8.2878872 -73.6106472 -62.5657800 143.7477984 -3000.0000000 -90.0000000 -3000.0000000 -90.0000000
 37.5574359  -8.2156584 -77.4540077 -62.6310228 139.4129140 -3000.0000000 -90.0000000 -3000.0000000 -90.0000000
 37.8748718  -8.1529169 -81.1992536 -62.6765599 134.4324890 -3000.0000000 -90.0000000 -3000.0000000 -90.0000000
 38.1923077  -8.1013191 -84.8708996 -62.7680562 129.8444974 -3000.0000000 -90.0000000 -3000.0000000 -90.0000000
 38.5097436  -8.0584377 -88.4625957 -62.9010696 124.8726948 -3000.0000000 -90.0000000 -3000.0000000 -90.0000000
 38.8271795  -8.0283951 -91.9923745 -62.9240976 119.9389838 -3000.0000000 -90.0000000 -3000.0000000 -90.0000000
 39.1446154  -8.0095434 -95.4524996 -62.9919095 114.9957072 -3000.0000000 -90.0000000 -3000.0000000 -90.0000000
 39.4620513  -8.0029825 -98.8527020 -63.0712159 110.3545347 -3000.0000000 -90.0000000 -3000.0000000 -90.0000000
 39.7794872  -8.0082650 -102.2031937 -63.1041002 105.5457402 -3000.0000000 -90.0000000 -3000.0000000 -90.0000000
 40.0969231  -8.0236836 -105.5019751 -63.2092215 100.5269896 -3000.0000000 -90.0000000 -3000.0000000 -90.0000000
 40.4143590  -8.0535626 -108.7373461 -63.3203167  95.8241017 -3000.0000000 -90.0000000 -3000.0000000 -90.0000000
 40.7317949  -8.0965234 -111.9468655 -63.4254860  90.8933506 -3000.0000000 -90.0000000 -3000.0000000 -90.0000000
 41.0492308  -8.1526448 -115.1051200 -63.5449661  86.2565835 -3000.0000000 -90.0000000 -3000.0000000 -90.0000000
 41.3666667  -8.2218693 -118.2198291 -63.6557404  80.8285441 -3000.0000000 -90.0000000 -3000.0000000 -90.0000000
 41.6841026  -8.3052251 -121.3018847 -63.7390051  75.9019690 -3000.0000000 -90.0000000 -3000.0000000 -90.0000000
 42.0015385  -8.4014497 -124.3514541 -63.9069728  70.9830099 -3000.0000000 -90.0000000 -3000.0000000 -90.0000000
 42.3189744  -8.5124047 -127.3535941 -64.0285683  66.0783593 -3000.0000000 -90.0000000 -3000.0000000 -90.0000000
 42.6364103  -8.6374246 -130.3363102 -64.1846501  60.9224709 -3000.0000000 -90.0000000 -3000.0000000 -90.0000000
 42.9538462  -8.7768525 -133.2849123 -64.3516537  55.7001636 -3000.0000000 -90.0000000 -3000.0000000 -90.0000000
 43.2712821  -8.9306308 -136.1947967 -64.4568007  50.6633606 -3000.0000000 -90.0000000 -3000.0000000 -90.0000000
 43.5887179  -9.1000601 -139.0915018 -64.5621522  45.4105243 -3000.0000000 -90.0000000 -3000.0000000 -90.0000000
 43.9061538  -9.2827788 -141.9594050 -64.8095924  40.3469374 -3000.0000000 -90.0000000 -3000.0000000 -90.0000000
 44.2235897  -9.4820338 -144.7968711 -65.0020692  35.1768062 -3000.0000000 -90.0000000 -3000.0000000 -90.0000000
 44.5410256  -9.6939376 -147.6318925 -65.1852069  29.4627841 -3000.0000000 -90.0000000 -3000.0000000 -90.0000000
 44.8584615  -9.9214393 -150.4517505 -65.3846216  24.1892311 -3000.0000000 -90.0000000 -3000.0000000 -90.0000000
 45.1758974 -10.1633077 -153.2622652 -65.6190596  18.7693882 -3000.0000000 -90.0000000 -3000.0000000 -90.0000000
 45.4933333 -10.4186775 -156.0907582 -65.7774196  13.5331703 -3000.0000000 -90.0000000 -3000.0000000 -90.0000000
 45.8107692 -10.6859944 -158.9280702 -66.0756107   7.4210807 -3000.0000000 -90.0000000 -3000.0000000 -90.0000000
 46.1282051 -10.9694272 -161.7942253 -66.2283115   2.3017076 -3000.0000000 -90.0000000 -3000.0000000 -90.0000000
 46.4456410 -11.2653339 -164.7142136 -66.4572140  -3.4174503 -3000.0000000 -90.0000000 -3000.0000000 -90.0000000
 46.7630769 -11.5737189 -167.6929931 -66.7949535  -9.0607022 -3000.0000000 -90.0000000 -3000.0000000 -90.0000000
 47.0805128 -11.9012161 -170.7697599 -67.0123627 -14.6970015 -3000.0000000 -90.0000000 -3000.0000000 -90.0000000
 47.3979487 -12.2368431 -173.9683786 -67.1703205 -20.7233244 -3000.0000000 -90.0000000 -3000.0000000 -90.0000000
 47.7153846 -12.5899384 -177.3398739 -67.4160525 -26.6887397 -3000.0000000 -90.0000000 -3000.0000000 -90.0000000
 48.0328205 -12.9612896 179.0953627 -67.7364688 -32.1607891 -3000.0000000 -90.0000000 -3000.0000000 -90.0000000
 48.3502564 -13.3480138 175.2630631 -68.0224333 -38.5869634 -3000.0000000 -90.0000000 -3000.0000000 -90.0000000
 48.6676923 -13.7510725 171.1186725 -68.2943263 -44.4367626 -3000.0000000 -90.0000000 -3000.0000000 -90.0000000
 48.9851282 -14.1718028 166.6119084 -68.5476489 -51.1411603 -3000.0000000 -90.0000000 -3000.0000000 -90.0000000
 49.3025641 -14.6096551 161.6249035 -68.8384477 -57.1097790 -3000.0000000 -90.0000000 -3000.0000000 -90.0000000
 49.6200000 -15.0560513 156.0961807 -69.1276019 -63.8802021 -3000.0000000 -90.0000000 -3000.0000000 -90.0000000
 49.9374359 -15.5102215 149.8973832 -69.3576390 -70.3871122 -3000.0000000 -90.0000000 -3000.0000000 -90.0000000
 50.2548718 -15.9550740 142.9552657 -69.6159173 -75.4588530 -3000.0000000 -90.0000000 -3000.0000000 -90.0000000
 50.5723077 -16.3707739 135.1410627 -69.8371544 -82.1149497 -3000.0000000 -90.0000000 -3000.0000000 -90.0000000
 50.8897436 -16.7347931 126.3523565 -70.0582854 -88.5645568 -3000.0000000 -90.0000000 -3000.0000000 -90.0000000
 51.2071795 -17.0027646 116.6519502 -70.2330095 -94.8121682 -3000.0000000 -90.0000000 -3000.0000000 -90.0000000
 51.5246154 -17.1388695 106.1299299 -70.5713937 -102.1454944 -3000.0000000 -90.0000000 -3000.0000000 -90.0000000
 51.8420513 -17.1015335  94.9781405 -70.8446277 -107.7109140 -3000.0000000 -90.0000000 -3000.0000000 -90.0000000
 52.1594872 -16.8771701  83.5939724 -70.9838046 -114.4729111 -3000.0000000 -90.0000000 -3000.0000000 -90.0000000
 52.4769231 -16.4660385  72.3454784 -71.0737220 -120.7261120 -3000.0000000 -90.0000000 -3000.0000000 -90.0000000
 52.7943590 -15.9000505  61.5960519 -71.2898195 -128.2693771 -3000.0000000 -90.0000000 -3000.0000000 -90.0000000
 53.1117949 -15.2191015  51.5271771 -71.4507543 -133.9331713 -3000.0000000 -90.0000000 -3000.0000000 -90.0000000
 53.4292308 -14.4689569  42.2229102 -71.6229613 -140.5914505 -3000.0000000 -90.0000000 -3000.0000000 -90.0000000
 53.7466667 -13.6922440  33.6556447 -71.6550658 -146.7117430 -3000.0000000 -90.0000000 -3000.0000000 -90.0000000
 54.0641026 -12.9132063  25.7829590 -71.9010304 -151.7789475 -3000.0000000 -90.0000000 -3000.0000000 -90.0000000
 54.3815385 -12.1538479  18.4789660 -71.9723409 -159.1612651 -3000.0000000 -90.0000000 -3000.0000000 -90.0000000
 54.6989744 -11.4245603  11.6757901 -72.0984782 -165.3208470 -3000.0000000 -90.0000000 -3000.0000000 -90.0000000
 55.0164103 -10.7366722   5.2965169 -72.3094329 -170.5302727 -3000.0000000 -90.0000000 -3000.0000000 -90.0000000
 55.3338462 -10.0919222  -0.7440944 -72.3751196 -176.5099713 -3000.0000000 -90.0000000 -3000.0000000 -90.0000000
